Time Stamp,ID,Extended,Dir,Bus,LEN,D1,D2,D3,D4,D5,D6,D7,D8
14727406,00000480,false,Rx,0,8,00,01,FF,21,00,02,02,04,
14736368,000003B4,false,Rx,0,8,64,03,09,53,FE,04,E8,09,
14747967,00000192,false,Rx,0,4,6A,00,FF,F4,00,00,00,00,
14775935,000001D6,false,Rx,0,2,FF,3F,00,00,00,00,00,00,
14781918,00000130,false,Rx,0,5,00,EF,34,3F,F2,00,00,00,
14783595,000000C4,false,Rx,0,7,00,80,FD,00,80,0C,FF,00,
14784706,000001D6,false,Rx,0,2,FF,3F,00,00,00,00,00,00,
14787665,000005E0,false,Rx,0,8,10,00,00,01,00,FF,FF,FF,
14793561,000000C4,false,Rx,0,7,00,80,FD,00,80,34,FF,00,
14797095,00000480,false,Rx,0,8,00,02,FF,21,00,00,02,04,
14802992,00000192,false,Rx,0,4,6A,00,FF,F6,00,00,00,00,
14803549,000000C4,false,Rx,0,7,00,80,FD,00,80,5C,FF,00,
14803834,00000498,false,Rx,0,8,18,01,FF,FF,FF,FF,FF,FF,
14804035,000000B5,false,Rx,0,8,84,00,80,00,08,0C,00,3A,
14804227,000000BA,false,Rx,0,7,01,FF,0F,00,00,4B,80,00,
14804420,000001A2,false,Rx,0,2,00,00,00,00,00,00,00,00,
14804612,000001D2,false,Rx,0,5,F0,0C,80,0C,F0,00,00,00,
14809232,000001D6,false,Rx,0,2,C0,0C,00,00,00,00,00,00,
14810991,000001D6,false,Rx,0,2,C0,00,00,00,00,00,00,00,
14813575,000000C4,false,Rx,0,7,00,80,FD,00,80,84,FF,00,
14813860,000000B5,false,Rx,0,8,85,01,80,00,08,0C,00,3A,
14823345,00000130,false,Rx,0,5,80,EF,34,3F,93,00,00,00,
14823720,000000C4,false,Rx,0,7,00,80,FD,00,80,AC,FF,00,
14823917,000000B5,false,Rx,0,8,86,02,80,00,08,0C,00,3A,
14824118,000000BA,false,Rx,0,7,01,FF,0F,00,00,4C,81,00,
14824310,000001A2,false,Rx,0,2,00,00,00,00,00,00,00,00,
14832279,00000192,false,Rx,0,4,6A,00,80,F7,00,00,00,00,
14833591,000000C4,false,Rx,0,7,00,80,FD,00,80,D4,FF,00,
14833876,000000B5,false,Rx,0,8,C9,83,3E,E8,23,0C,00,3A,
14841430,00000330,false,Rx,0,8,BA,61,03,04,00,0B,A5,01,
14841898,000000A8,false,Rx,0,8,CA,00,00,00,00,0F,0F,04,
14842099,000000A9,false,Rx,0,8,A9,00,00,00,00,00,00,00,
14842386,000000AA,false,Rx,0,8,AE,00,00,00,FF,FF,04,00,
14842854,000002F8,false,Rx,0,8,FF,FF,FF,FF,FF,FF,FF,F2,
14843692,000000C4,false,Rx,0,7,00,80,FD,00,80,FC,FF,00,
14843887,000000BA,false,Rx,0,7,01,FF,0F,00,00,4D,82,00,
14844178,000000B5,false,Rx,0,8,88,04,80,00,08,0C,00,3A,
14844280,000001A2,false,Rx,0,2,00,00,00,00,00,00,00,00,
14844562,00000492,false,Rx,0,8,12,01,FF,FF,FF,FF,FF,FF,
14848163,000001D6,false,Rx,0,2,C0,00,00,00,00,00,00,00,
14851665,000001D0,false,Rx,0,8,40,FF,00,C9,00,00,FD,00,
14851951,000000A8,false,Rx,0,8,CB,01,00,00,00,0F,0F,04,
14852243,000000A9,false,Rx,0,8,AA,01,00,00,00,00,00,00,
14852436,000000AA,false,Rx,0,8,AF,01,00,00,FF,FF,04,00,
14853917,000000B5,false,Rx,0,8,89,05,80,00,08,0C,00,3A,
14858254,000000B6,false,Rx,0,5,31,01,80,00,F8,00,00,00,
14858447,0000019E,false,Rx,0,8,FF,FB,0F,00,30,F3,FF,CE,
14858731,000000CE,false,Rx,0,8,00,80,00,80,00,80,00,80,
14858925,000002B2,false,Rx,0,6,FF,FF,FF,FF,05,80,00,00,
14859126,000001A0,false,Rx,0,8,FF,FF,00,08,80,00,18,42,
14861067,000000C4,false,Rx,0,7,00,80,FD,00,80,18,FF,00,
14861809,000000A8,false,Rx,0,8,CC,02,00,00,00,0F,0F,04,
14862101,000000A9,false,Rx,0,8,AB,02,00,00,00,00,00,00,
14862294,00000192,false,Rx,0,4,6A,00,80,F8,00,00,00,00,
14862485,000000AA,false,Rx,0,8,B0,02,00,00,FF,FF,04,00,
14863875,000000C4,false,Rx,0,7,00,80,FD,00,80,C1,FF,00,
14864075,000000B5,false,Rx,0,8,8A,06,80,00,08,0C,00,3A,
14864542,000000BA,false,Rx,0,7,01,FF,0F,00,00,4E,83,00,
14864643,000001A2,false,Rx,0,2,00,00,00,00,00,00,00,00,
14871825,000000A8,false,Rx,0,8,CD,03,00,00,00,0F,0F,04,
14872024,00000130,false,Rx,0,5,80,EF,36,3F,C4,00,00,00,
14872217,000000A9,false,Rx,0,8,AC,03,00,00,00,00,00,00,
14872501,000000AA,false,Rx,0,8,B1,03,00,00,FF,FF,04,00,
14873795,000000C4,false,Rx,0,7,00,80,FD,00,80,E9,FF,00,
14874087,000000B5,false,Rx,0,8,8B,07,80,00,08,0C,00,3A,
14878051,000000B6,false,Rx,0,5,32,02,80,00,F8,00,00,00,
14878334,0000019E,false,Rx,0,8,FF,FB,0F,00,30,F3,FF,CE,
14878527,000000CE,false,Rx,0,8,00,80,00,80,00,80,00,80,
14878813,000002B2,false,Rx,0,6,FF,FF,FF,FF,05,80,00,00,
14879013,000001A0,false,Rx,0,8,FF,FF,00,08,80,00,28,52,
14879297,000004A9,false,Rx,0,8,29,01,FF,FF,FF,FF,FF,FF,
14882101,000000A8,false,Rx,0,8,CE,04,00,00,00,0F,0F,04,
14882407,000000A9,false,Rx,0,8,AD,04,00,00,00,00,00,00,
14882600,000000AA,false,Rx,0,8,B2,04,00,00,FF,FF,04,00,
14883818,000000C4,false,Rx,0,7,00,80,FD,00,80,11,FF,00,
14884021,000000B5,false,Rx,0,8,8C,08,80,00,08,0C,00,3A,
14884487,000000BA,false,Rx,0,7,01,FF,0F,00,00,4F,84,00,
14884588,000001A2,false,Rx,0,2,00,00,00,00,00,00,00,00,
14891454,00000192,false,Rx,0,4,6A,00,80,F9,00,00,00,00,
14891833,000000A8,false,Rx,0,8,CF,05,00,00,00,0F,0F,04,
14892125,000000A9,false,Rx,0,8,AE,05,00,00,00,00,00,00,
14892408,000000AA,false,Rx,0,8,B3,05,00,00,FF,FF,04,00,
14893796,000000C4,false,Rx,0,7,00,80,FD,00,80,39,FF,00,
14894088,00000498,false,Rx,0,8,29,02,FF,FF,FF,FF,FF,FF,
14894280,000000B5,false,Rx,0,8,8D,09,80,00,08,0C,00,3A,
14898002,000000B6,false,Rx,0,5,33,03,80,00,F8,00,00,00,
14898729,0000019E,false,Rx,0,8,FF,FB,0F,00,30,F3,FF,CE,
14898846,000000CE,false,Rx,0,8,00,80,00,80,00,80,00,80,
14898948,000002B2,false,Rx,0,6,FF,FF,FF,FF,05,80,00,00,
14899056,000001A0,false,Rx,0,8,FF,FF,00,08,80,00,38,62,
14899152,000001D6,false,Rx,0,2,C0,00,00,00,00,00,00,00,
14901825,000000A8,false,Rx,0,8,D0,06,00,00,00,0F,0F,04,
14902118,000000A9,false,Rx,0,8,AF,06,00,00,00,00,00,00,
14902401,000000AA,false,Rx,0,8,B4,06,00,00,FF,FF,04,00,
14903791,000000C4,false,Rx,0,7,00,80,FD,00,80,61,FF,00,
14904082,000000B5,false,Rx,0,8,8E,0A,80,00,08,0C,00,3A,
14904275,000000BA,false,Rx,0,7,01,FF,0F,00,00,50,85,00,
14904376,000001A2,false,Rx,0,2,00,00,00,00,00,00,00,00,
14911464,000004AA,false,Rx,0,8,2A,01,FF,FF,FF,FF,FF,FF,
14911841,000000A8,false,Rx,0,8,D1,07,00,00,00,0F,0F,04,
14912133,000000A9,false,Rx,0,8,B0,07,00,00,00,00,00,00,
14912417,000000AA,false,Rx,0,8,B5,07,00,00,FF,FF,04,00,
14913807,000000C4,false,Rx,0,7,00,80,FD,00,80,89,FF,00,
14914007,000000B5,false,Rx,0,8,8F,0B,80,00,08,0C,00,3A,
14918062,000000B6,false,Rx,0,5,34,04,80,00,F8,00,00,00,
14918346,0000019E,false,Rx,0,8,FF,FB,0F,00,30,F3,FF,CE,
14918539,000005A9,false,Rx,0,8,40,4A,00,00,FF,FF,FF,FF,
14918826,000000CE,false,Rx,0,8,00,80,00,80,00,80,00,80,
14919026,000002B2,false,Rx,0,6,FF,FF,FF,FF,05,80,00,00,
14919219,000001A0,false,Rx,0,8,FF,FF,00,08,80,00,48,72,
14920334,00000192,false,Rx,0,4,6A,00,80,FA,00,00,00,00,
14920802,000000AE,false,Rx,0,6,80,00,80,60,C0,30,00,00,
14921825,000000A8,false,Rx,0,8,D2,08,00,00,00,0F,0F,04,
14922117,000000A9,false,Rx,0,8,B1,08,00,00,00,00,00,00,
14922400,000000AA,false,Rx,0,8,B6,08,00,00,FF,FF,04,00,
14922684,00000130,false,Rx,0,5,41,43,35,3F,15,00,00,00,
14923889,000000C4,false,Rx,0,7,00,80,FD,00,80,B1,FF,00,
14924090,000000B5,false,Rx,0,8,90,0C,80,00,08,0C,00,3A,
14924373,000000BA,false,Rx,0,7,01,FF,0F,00,00,51,86,00,
14924474,000001A2,false,Rx,0,2,00,00,00,00,00,00,00,00,
14925768,00000194,false,Rx,0,4,6E,F0,80,FC,00,00,00,00,
14931908,000005AA,false,Rx,0,8,40,38,00,05,FF,FF,FF,FF,
14932026,000000A8,false,Rx,0,8,D3,09,00,00,00,0F,0F,04,
14932309,000000A9,false,Rx,0,8,B2,09,00,00,00,00,00,00,
14932502,000000AA,false,Rx,0,8,B7,09,00,00,FF,FF,04,00,
14933819,000000C4,false,Rx,0,7,00,80,FD,00,80,D9,FF,00,
14934121,000000B5,false,Rx,0,8,91,0D,80,00,08,0C,00,3A,
14938035,000000B6,false,Rx,0,5,35,05,80,00,F8,00,00,00,
14938318,0000019E,false,Rx,0,8,FF,FB,0F,00,30,F3,FF,CE,
14938786,000000CE,false,Rx,0,8,00,80,00,80,00,80,00,80,
14938979,000001A6,false,Rx,0,2,FF,FF,00,00,00,00,00,00,
14939177,000002B2,false,Rx,0,6,FF,FF,FF,FF,05,80,00,00,
14939370,000001A0,false,Rx,0,8,FF,FF,00,08,80,00,58,82,
14940575,000000AE,false,Rx,0,6,C0,01,80,60,00,30,00,00,
14941687,00000592,false,Rx,0,8,40,22,00,21,FF,FF,FF,FF,
14941973,000000A8,false,Rx,0,8,D4,0A,00,00,00,0F,0F,04,
14942173,000005AA,false,Rx,0,8,40,36,00,05,FF,FF,FF,FF,
14942457,000000A9,false,Rx,0,8,B3,0A,00,00,00,00,00,00,
14942650,000000AA,false,Rx,0,8,B8,0A,00,00,FF,FF,04,00,
14943947,000000C4,false,Rx,0,7,00,80,FD,00,80,01,FF,00,
14944147,000000B5,false,Rx,0,8,92,0E,80,00,08,0C,00,3A,
14944340,000000BA,false,Rx,0,7,01,FF,0F,00,00,52,87,00,
14944532,000001A2,false,Rx,0,2,00,00,00,00,00,00,00,00,
14947399,000005E0,false,Rx,0,8,10,00,00,01,00,FF,FF,FF,
14948877,000001D6,false,Rx,0,2,C0,00,00,00,00,00,00,00,
14949715,00000192,false,Rx,0,4,6A,00,80,FB,00,00,00,00,
14951659,000001D0,false,Rx,0,8,40,FF,01,C9,00,00,FD,00,
14951945,000000A8,false,Rx,0,8,D5,0B,00,00,00,0F,0F,04,
14952238,000000A9,false,Rx,0,8,B4,0B,00,00,00,00,00,00,
14952520,000000AA,false,Rx,0,8,B9,0B,00,00,FF,FF,04,00,
14953819,000000C4,false,Rx,0,7,00,80,FD,00,80,29,FF,00,
14954111,000000B5,false,Rx,0,8,84,00,80,00,08,0C,00,3A,
14958075,000000B6,false,Rx,0,5,36,06,80,00,F8,00,00,00,
14958268,0000019E,false,Rx,0,8,FF,FB,0F,00,30,F3,FF,CE,
14958552,000000CE,false,Rx,0,8,00,80,00,80,00,80,00,80,
14958745,000002B2,false,Rx,0,6,FF,FF,FF,FF,05,80,00,00,
14958942,000001A0,false,Rx,0,8,FF,FF,00,08,80,00,68,92,
14960517,000000AE,false,Rx,0,6,C1,02,80,60,00,30,00,00,
14961904,000000A8,false,Rx,0,8,D6,0C,00,00,00,0F,0F,04,
14962196,000000A9,false,Rx,0,8,B5,0C,00,00,00,00,00,00,
14962481,000000AA,false,Rx,0,8,BA,0C,00,00,FF,FF,04,00,
14963778,000000C4,false,Rx,0,7,00,80,FD,00,80,51,FF,00,
14964069,000000B5,false,Rx,0,8,85,01,80,00,08,0C,00,3A,
14964262,000000BA,false,Rx,0,7,03,FF,0F,00,00,55,88,00,
14964363,000001A2,false,Rx,0,2,00,00,00,00,00,00,00,00,
14967592,00000380,false,Rx,0,7,44,44,37,38,35,35,37,00,
14968978,00000388,false,Rx,0,7,01,01,68,25,F2,01,24,00,
14971844,000000A8,false,Rx,0,8,D7,0D,00,00,00,0F,0F,04,
14971945,0000023A,false,Rx,0,4,22,FF,00,FF,00,00,00,00,
14972236,000000A9,false,Rx,0,8,B6,0D,00,00,00,00,00,00,
14972520,000000AA,false,Rx,0,8,BB,0D,00,00,FF,FF,04,00,
14973819,000000C4,false,Rx,0,7,00,80,FD,00,80,79,FF,00,
14976041,000000B5,false,Rx,0,8,86,02,80,00,08,0C,00,3A,
14978332,000000B6,false,Rx,0,5,37,07,80,00,F8,00,00,00,
14978524,0000019E,false,Rx,0,8,FF,FB,0F,00,30,F3,FF,CE,
14978812,000000CE,false,Rx,0,8,00,80,00,80,00,80,00,80,
14979013,000002B2,false,Rx,0,6,FF,FF,FF,FF,05,80,00,00,
14979206,00000192,false,Rx,0,4,6A,00,80,FC,00,00,00,00,
14979398,000001A0,false,Rx,0,8,FF,FF,00,08,80,00,78,A2,
14979682,000004A9,false,Rx,0,8,2A,02,FF,FF,FF,FF,FF,FF,
14980611,000000AE,false,Rx,0,6,C2,03,80,60,00,30,00,00,
14981819,000000A8,false,Rx,0,8,D8,0E,00,00,00,0F,0F,04,
14982860,000005EE,false,Rx,0,8,01,03,88,00,00,00,00,00,
14982966,000000A9,false,Rx,0,8,B7,0E,00,00,00,00,00,00,
14983072,000000AA,false,Rx,0,8,BC,0E,00,00,FF,FF,04,00,
14983468,000005ED,false,Rx,0,8,01,03,88,00,00,00,00,00,
14983850,000000C4,false,Rx,0,7,00,80,FD,00,80,A1,FF,00,
14986323,00000598,false,Rx,0,8,40,AF,00,15,FF,FF,FF,FF,
14986607,000000B5,false,Rx,0,8,7B,03,80,00,08,00,00,3A,
14986802,000000BA,false,Rx,0,7,03,FF,0F,00,00,56,89,00,
14986903,000001A2,false,Rx,0,2,00,00,00,00,00,00,00,00,
14991785,000000A8,false,Rx,0,8,CA,00,00,00,00,0F,0F,04,
14992097,000000A9,false,Rx,0,8,A9,00,00,00,00,00,00,00,
14992380,000000AA,false,Rx,0,8,AE,00,00,00,FF,FF,04,00,
14993768,000000C4,false,Rx,0,7,00,80,FD,00,80,C9,FF,00,
14997126,000000B5,false,Rx,0,8,7C,04,80,00,08,00,00,3A,
14998056,000000B6,false,Rx,0,5,38,08,80,00,F8,00,00,00,
14998339,0000019E,false,Rx,0,8,FF,FB,0F,00,30,F3,FF,CE,
14998532,000005A9,false,Rx,0,8,40,EC,00,00,FF,FF,FF,FF,
14998820,000000CE,false,Rx,0,8,00,80,00,80,00,80,00,80,
14999020,000002B2,false,Rx,0,6,FF,FF,FF,FF,05,80,00,00,
14999213,000001A0,false,Rx,0,8,FF,FF,00,08,80,00,88,B2,
15000328,000001D6,false,Rx,0,2,C0,00,00,00,00,00,00,00,
15000886,000000AE,false,Rx,0,6,C3,04,80,60,00,30,00,00,
15001723,000001B5,false,Rx,0,6,FF,FF,FF,FF,CF,FF,00,00,
15001918,000000A8,false,Rx,0,8,CB,01,00,00,00,0F,0F,04,
15002210,000000A9,false,Rx,0,8,AA,01,00,00,00,00,00,00,
15002493,000000AA,false,Rx,0,8,AF,01,00,00,FF,FF,04,00,
15003791,000000C4,false,Rx,0,7,00,80,FD,00,80,F1,FF,00,
15006838,000001D2,false,Rx,0,5,F0,0C,80,1C,F0,00,00,00,
15007130,000000BA,false,Rx,0,7,03,FF,0F,00,00,57,8A,00,
15007323,000000B5,false,Rx,0,8,7D,05,80,00,08,00,00,3A,
15007516,000001A2,false,Rx,0,2,00,00,00,00,00,00,00,00,
15009367,00000192,false,Rx,0,4,6A,00,80,FD,00,00,00,00,
15011858,000000A8,false,Rx,0,8,CC,02,00,00,00,0F,0F,04,
15012059,000000A9,false,Rx,0,8,AB,02,00,00,00,00,00,00,
15012343,000000AA,false,Rx,0,8,B0,02,00,00,FF,FF,04,00,
15013826,000000C4,false,Rx,0,7,00,80,FD,00,80,19,FF,00,
15016415,000000B5,false,Rx,0,8,7E,06,80,00,08,00,00,3A,
15017992,000000B6,false,Rx,0,5,39,09,80,00,F8,00,00,00,
15018275,0000019E,false,Rx,0,8,FF,FB,0F,00,30,F0,FF,CB,
15018467,000000CE,false,Rx,0,8,00,80,00,80,00,80,00,80,
15018751,000002B2,false,Rx,0,6,FF,FF,FF,FF,05,80,00,00,
15018946,000001A0,false,Rx,0,8,FF,FF,00,08,80,00,98,C2,
15020703,000000AE,false,Rx,0,6,C4,05,80,60,00,30,00,00,
15021819,000000A8,false,Rx,0,8,CD,03,00,00,00,0F,0F,04,
15022111,000000A9,false,Rx,0,8,AC,03,00,00,00,00,00,00,
15022395,000000AA,false,Rx,0,8,B1,03,00,00,FF,FF,04,00,
15022496,00000130,false,Rx,0,5,41,43,35,3F,36,00,00,00,
15023882,000000C4,false,Rx,0,7,00,80,FD,00,80,41,FF,00,
15026288,000000BA,false,Rx,0,7,03,FF,0F,00,00,58,8B,00,
15026572,000000B5,false,Rx,0,8,7F,07,80,00,08,00,00,3A,
15026673,000001A2,false,Rx,0,2,00,00,00,00,00,00,00,00,
15031836,000000A8,false,Rx,0,8,CE,04,00,00,00,0F,0F,04,
15032127,000000A9,false,Rx,0,8,AD,04,00,00,00,00,00,00,
15032411,000000AA,false,Rx,0,8,B2,04,00,00,FF,FF,04,00,
15033810,000000C4,false,Rx,0,7,00,80,FD,00,80,69,FF,00,
15036384,000000B5,false,Rx,0,8,80,08,80,00,08,00,00,3A,
15038096,000000B6,false,Rx,0,5,3A,0A,80,00,F8,00,00,00,
15038289,0000019E,false,Rx,0,8,FF,FB,1F,00,30,F0,FF,DB,
15038572,000000CE,false,Rx,0,8,00,80,00,80,00,80,00,80,
15038674,000001A6,false,Rx,0,2,FF,FF,00,00,00,00,00,00,
15038871,000002B2,false,Rx,0,6,FF,FF,FF,FF,05,80,00,00,
15039163,000001A0,false,Rx,0,8,FF,FF,00,08,80,00,A8,D2,
15040000,00000192,false,Rx,0,4,6A,00,80,FE,00,00,00,00,
15040738,000000AE,false,Rx,0,6,C5,06,80,60,00,30,00,00,
15041854,000000A8,false,Rx,0,8,CF,05,00,00,00,0F,0F,04,
15042146,000000A9,false,Rx,0,8,AE,05,00,00,00,00,00,00,
15042431,00000330,false,Rx,0,8,BA,61,03,04,00,0B,A5,01,
15042624,000000AA,false,Rx,0,8,B3,05,00,00,FF,FF,04,00,
15043556,00000310,false,Rx,0,7,76,53,56,68,00,16,18,00,
15043844,000000C4,false,Rx,0,7,00,80,FD,00,80,91,FF,00,
15044591,000002F8,false,Rx,0,8,FF,FF,FF,FF,FF,FF,FF,F2,
15046622,000000B5,false,Rx,0,8,81,09,80,00,08,00,00,3A,
15046908,000000BA,false,Rx,0,7,03,FF,0F,00,00,59,8C,00,
15047017,000001A2,false,Rx,0,2,00,00,00,00,00,00,00,00,
15051709,000001D0,false,Rx,0,8,40,FF,02,C9,00,00,FD,00,
15051904,000000A8,false,Rx,0,8,D0,06,00,00,00,0F,0F,04,
15052196,000000A9,false,Rx,0,8,AF,06,00,00,00,00,00,00,
15052479,000000AA,false,Rx,0,8,B4,06,00,00,FF,FF,04,00,
15053774,000000C4,false,Rx,0,7,00,80,FD,00,80,B9,FF,00,
15056269,000000B5,false,Rx,0,8,82,0A,80,00,08,00,00,3A,
15058120,000000B6,false,Rx,0,5,3B,0B,80,00,F8,00,00,00,
15058313,0000019E,false,Rx,0,8,FF,FB,1F,00,30,F0,FF,DB,
15058597,000000CE,false,Rx,0,8,00,80,00,80,00,80,00,80,
15058792,000002B2,false,Rx,0,6,FF,FF,FF,FF,05,80,00,00,
15059006,000001A0,false,Rx,0,8,FF,FF,00,08,80,00,B8,E2,
15060755,000000AE,false,Rx,0,6,C6,07,80,60,00,30,00,00,
15061778,000000A8,false,Rx,0,8,D1,07,00,00,00,0F,0F,04,
15062070,000000A9,false,Rx,0,8,B0,07,00,00,00,00,00,00,
15062627,000000AA,false,Rx,0,8,B5,07,00,00,FF,FF,04,00,
15063832,000000C4,false,Rx,0,7,00,80,FD,00,80,E1,FF,00,
15066328,000000BA,false,Rx,0,7,03,FF,0F,00,00,5A,8D,00,
15066612,000000B5,false,Rx,0,8,83,0B,80,00,08,00,00,3A,
15066713,000001A2,false,Rx,0,2,00,00,00,00,00,00,00,00,
15067736,00000192,false,Rx,0,4,6A,00,80,F1,00,00,00,00,
15071244,000004AA,false,Rx,0,8,29,02,FF,FF,FF,FF,FF,FF,
15071802,000000A8,false,Rx,0,8,D2,08,00,00,00,0F,0F,04,
15072094,000000A9,false,Rx,0,8,B1,08,00,00,00,00,00,00,
15072377,000000AA,false,Rx,0,8,B6,08,00,00,FF,FF,04,00,
15073856,000000C4,false,Rx,0,7,00,80,FD,00,80,09,FF,00,
15076167,00000498,false,Rx,0,8,29,01,FF,FF,FF,FF,FF,FF,
15076724,000000B5,false,Rx,0,8,84,0C,80,00,08,00,00,3A,
15077199,00000480,false,Rx,0,8,12,01,FF,01,00,00,02,04,
15078131,000000B6,false,Rx,0,5,3C,0C,80,00,F8,00,00,00,
15078324,0000019E,false,Rx,0,8,FF,FB,1F,00,30,F0,FF,DB,
15078608,000005A9,false,Rx,0,8,40,ED,00,00,FF,FF,FF,FF,
15078803,000000CE,false,Rx,0,8,00,80,00,80,00,80,00,80,
15079276,000002B2,false,Rx,0,6,FF,FF,FF,FF,05,80,00,00,
15079559,000001A0,false,Rx,0,8,FF,FF,00,08,80,00,C8,F2,
15080761,000000AE,false,Rx,0,6,C7,08,80,60,00,30,00,00,
15081784,000000A8,false,Rx,0,8,D3,09,00,00,00,0F,0F,04,
15082076,000000A9,false,Rx,0,8,B2,09,00,00,00,00,00,00,
15082360,000000AA,false,Rx,0,8,B7,09,00,00,FF,FF,04,00,
15084678,00000492,false,Rx,0,8,18,11,FF,FF,FF,FF,FF,FF,
15084786,000000C4,false,Rx,0,7,00,80,FD,00,80,33,FF,00,
15086512,000000B5,false,Rx,0,8,85,0D,80,00,08,00,00,3A,
15086727,000000BA,false,Rx,0,7,03,FF,0F,00,00,5B,8E,00,
15086832,000001A2,false,Rx,0,2,00,00,00,00,00,00,00,00,
15091807,000000A8,false,Rx,0,8,D4,0A,00,00,00,0F,0F,04,
15092099,000000A9,false,Rx,0,8,B3,0A,00,00,00,00,00,00,
15092383,000000AA,false,Rx,0,8,B8,0A,00,00,FF,FF,04,00,
15094051,000000C4,false,Rx,0,7,00,80,FD,00,80,59,FF,00,
15096282,000000B5,false,Rx,0,8,86,0E,80,00,08,00,00,3A,
15096942,00000192,false,Rx,0,4,6A,00,80,F2,00,00,00,00,
15098063,000000B6,false,Rx,0,5,3D,0D,80,00,F8,00,00,00,
15098256,0000019E,false,Rx,0,8,FF,FB,1F,00,30,F0,FF,DB,
15098540,000000CE,false,Rx,0,8,00,80,00,80,00,80,00,80,
15098732,000002B2,false,Rx,0,6,FF,FF,FF,FF,05,80,00,00,
15099028,000001A0,false,Rx,0,8,FF,FF,00,08,80,00,D8,02,
15100778,000000AE,false,Rx,0,6,C8,09,80,60,00,30,00,00,
15101800,000000A8,false,Rx,0,8,D5,0B,00,00,00,0F,0F,04,
15102092,000000A9,false,Rx,0,8,B4,0B,00,00,00,00,00,00,
15102647,000000AA,false,Rx,0,8,B9,0B,00,00,FF,FF,04,00,
15103947,000000C4,false,Rx,0,7,00,80,FD,00,80,81,FF,00,
15106258,000000BA,false,Rx,0,7,03,FF,0F,00,00,4D,80,00,
15106540,000000B5,false,Rx,0,8,78,00,80,00,08,00,00,3A,
15106641,000001A2,false,Rx,0,2,00,00,00,00,00,00,00,00,
15107574,000005E0,false,Rx,0,8,10,00,00,01,00,FF,FF,FF,
15111813,000000A8,false,Rx,0,8,D6,0C,00,00,00,0F,0F,04,
15112105,000000A9,false,Rx,0,8,B5,0C,00,00,00,00,00,00,
15112389,000000AA,false,Rx,0,8,BA,0C,00,00,FF,FF,04,00,
15113871,000000C4,false,Rx,0,7,00,80,FD,00,80,A9,FF,00,
15116185,000000B5,false,Rx,0,8,79,01,80,00,08,00,00,3A,
15118034,000000B6,false,Rx,0,5,3E,0E,80,00,F8,00,00,00,
15118318,0000019E,false,Rx,0,8,FF,FB,1F,00,30,F0,FF,DB,
15118785,000000CE,false,Rx,0,8,00,80,00,80,00,80,00,80,
15118978,000002B2,false,Rx,0,6,FF,FF,FF,FF,05,80,00,00,
15119269,000001A0,false,Rx,0,8,FF,FF,00,08,80,00,E8,13,
15120839,000000AE,false,Rx,0,6,CA,0A,80,60,00,31,00,00,
15121859,000000A8,false,Rx,0,8,D7,0D,00,00,00,0F,0F,04,
15122060,000000A9,false,Rx,0,8,B6,0D,00,00,00,00,00,00,
15122344,000000AA,false,Rx,0,8,BB,0D,00,00,FF,FF,04,00,
15123548,00000130,false,Rx,0,5,41,43,35,3F,47,00,00,00,
15124296,000000C4,false,Rx,0,7,00,80,FD,00,80,D3,FF,00,
15126238,00000192,false,Rx,0,4,6A,00,80,F3,00,00,00,00,
15126704,000000B5,false,Rx,0,8,7A,02,80,00,08,00,00,3A,
15126899,000000BA,false,Rx,0,7,03,FF,0F,00,00,4E,81,00,
15127098,000001A2,false,Rx,0,2,00,00,00,00,00,00,00,00,
15128483,00000194,false,Rx,0,4,6F,F1,80,FC,00,00,00,00,
15132082,000000A8,false,Rx,0,8,D8,0E,00,00,00,0F,0F,04,
15132275,000005AA,false,Rx,0,8,40,36,00,05,FF,FF,FF,FF,
15132558,000000A9,false,Rx,0,8,B7,0E,00,00,00,00,00,00,
15132844,000000AA,false,Rx,0,8,BC,0E,00,00,FF,FF,04,00,
15134328,000000C4,false,Rx,0,7,00,80,FD,00,80,FA,FF,00,
15136304,000000B5,false,Rx,0,8,7B,03,80,00,08,00,00,3A,
15138008,000000B6,false,Rx,0,5,30,00,80,00,F8,00,00,00,
15138308,0000019E,false,Rx,0,8,FF,FB,1F,00,30,F0,FF,DB,
15138512,000000CE,false,Rx,0,8,00,80,00,80,00,80,00,80,
15138841,000001A6,false,Rx,0,2,FF,FF,00,00,00,00,00,00,
15138942,000002B2,false,Rx,0,6,FF,FF,FF,FF,05,80,00,00,
15139143,000001A0,false,Rx,0,8,FF,FF,00,08,80,00,08,32,
15140803,000000AE,false,Rx,0,6,CB,0B,80,60,00,31,00,00,
15141826,000000A8,false,Rx,0,8,CA,00,00,00,00,0F,0F,04,
15142118,000000A9,false,Rx,0,8,A9,00,00,00,00,00,00,00,
15142402,000000AA,false,Rx,0,8,AE,00,00,00,FF,FF,04,00,
15142595,00000330,false,Rx,0,8,BA,61,03,04,00,0B,A5,01,
15143434,000002F8,false,Rx,0,8,FF,FF,FF,FF,FF,FF,FF,F2,
15144094,000000C4,false,Rx,0,7,00,80,FD,00,80,21,FF,00,
15146217,000000BA,false,Rx,0,7,03,FF,0F,00,00,4F,82,00,
15146500,000000B5,false,Rx,0,8,7C,04,80,00,08,00,00,3A,
15146602,000001A2,false,Rx,0,2,00,00,00,00,00,00,00,00,
15151672,000001D0,false,Rx,0,8,40,FF,03,C9,00,00,FD,00,
15151871,000000A8,false,Rx,0,8,CB,01,00,00,00,0F,0F,04,
15152162,000000A9,false,Rx,0,8,AA,01,00,00,00,00,00,00,
15152445,000000AA,false,Rx,0,8,AF,01,00,00,FF,FF,04,00,
15153831,000000C4,false,Rx,0,7,00,80,FD,00,80,49,FF,00,
15155679,00000192,false,Rx,0,4,6A,00,80,F4,00,00,00,00,
15156336,000000B5,false,Rx,0,8,7D,05,80,00,08,00,00,3A,
15158096,000000B6,false,Rx,0,5,31,01,80,00,F8,00,00,00,
15158380,0000019E,false,Rx,0,8,FF,FB,1F,00,30,F0,FF,DB,
15158572,000005A9,false,Rx,0,8,40,24,00,00,FF,FF,FF,FF,
15158859,000000CE,false,Rx,0,8,00,80,00,80,00,80,00,80,
15159060,000002B2,false,Rx,0,6,FF,FF,FF,FF,05,80,00,00,
15159343,000001A0,false,Rx,0,8,FF,FF,00,08,80,00,18,42,
15159536,000004A9,false,Rx,0,8,2A,02,FF,FF,FF,FF,FF,FF,
15160922,000000AE,false,Rx,0,6,CC,0C,80,60,00,31,00,00,
15161853,000000A8,false,Rx,0,8,CC,02,00,00,00,0F,0F,04,
15162054,000000A9,false,Rx,0,8,AB,02,00,00,00,00,00,00,
15162338,000000AA,false,Rx,0,8,B0,02,00,00,FF,FF,04,00,
15163818,000000C4,false,Rx,0,7,00,80,FD,00,80,71,FF,00,
15166131,000000BA,false,Rx,0,7,03,FF,0F,00,00,50,83,00,
15166415,000000B5,false,Rx,0,8,7E,06,80,00,08,00,00,3A,
15166516,000001A2,false,Rx,0,2,00,00,00,00,00,00,00,00,
15171767,000000A8,false,Rx,0,8,CD,03,00,00,00,0F,0F,04,
15172062,000000A9,false,Rx,0,8,AC,03,00,00,00,00,00,00,
15172346,000000AA,false,Rx,0,8,B1,03,00,00,FF,FF,04,00,
15173825,000000C4,false,Rx,0,7,00,80,FD,00,80,99,FF,00,
15176230,000000B5,false,Rx,0,8,7F,07,80,00,08,00,00,3A,
15178079,000000B6,false,Rx,0,5,32,02,80,00,F8,00,00,00,
15178270,0000019E,false,Rx,0,8,FF,FB,1F,00,30,F0,FF,DB,
15178555,000000CE,false,Rx,0,8,00,80,00,80,00,80,00,80,
15178746,000002B2,false,Rx,0,6,FF,FF,FF,FF,05,80,00,00,
15178941,000001A0,false,Rx,0,8,FF,FF,00,08,80,00,28,52,
15180881,000000AE,false,Rx,0,6,CD,0D,80,60,00,31,00,00,
15181813,000000A8,false,Rx,0,8,CE,04,00,00,00,0F,0F,04,
15182104,000000A9,false,Rx,0,8,AD,04,00,00,00,00,00,00,
15182388,000000AA,false,Rx,0,8,B2,04,00,00,FF,FF,04,00,
15183773,000000C4,false,Rx,0,7,00,80,FD,00,80,C1,FF,00,
15186487,00000192,false,Rx,0,4,6A,00,80,F5,00,00,00,00,
15186593,000000B5,false,Rx,0,8,80,08,80,00,08,00,00,3A,
15186699,000000BA,false,Rx,0,7,03,FF,0F,00,00,51,84,00,
15186813,000001A2,false,Rx,0,2,00,00,00,00,00,00,00,00,
15191813,000000A8,false,Rx,0,8,CF,05,00,00,00,0F,0F,04,
15192105,000000A9,false,Rx,0,8,AE,05,00,00,00,00,00,00,
15192389,000000AA,false,Rx,0,8,B3,05,00,00,FF,FF,04,00,
15193878,000000C4,false,Rx,0,7,00,80,FD,00,80,E9,FF,00,
15196375,000000B5,false,Rx,0,8,81,09,80,00,08,00,00,3A,
15198050,000000B6,false,Rx,0,5,33,03,80,00,F8,00,00,00,
15198334,0000019E,false,Rx,0,8,FF,FB,1F,00,30,F0,FF,DB,
15198527,000000CE,false,Rx,0,8,00,80,00,80,00,80,00,80,
15198720,000002B2,false,Rx,0,6,FF,FF,FF,FF,05,80,00,00,
15199015,000001A0,false,Rx,0,8,FF,FF,00,08,80,00,38,62,
15200858,000000AE,false,Rx,0,6,CE,0E,80,60,00,31,00,00,
15201790,000000A8,false,Rx,0,8,D0,06,00,00,00,0F,0F,04,
15202082,000000A9,false,Rx,0,8,AF,06,00,00,00,00,00,00,
15202365,000000AA,false,Rx,0,8,B4,06,00,00,FF,FF,04,00,
15204125,000000C4,false,Rx,0,7,00,80,FD,00,80,11,FF,00,
15206156,000001D2,false,Rx,0,5,F0,0C,80,2C,F0,00,00,00,
15206348,000000B5,false,Rx,0,8,81,0A,80,00,08,00,00,39,
15206816,000000BA,false,Rx,0,7,03,FF,0F,00,00,52,85,00,
15207016,000001A2,false,Rx,0,2,00,00,00,00,00,00,00,00,
15207754,000005E0,false,Rx,0,8,01,03,80,FF,FF,FF,FF,FF,
15211813,000000A8,false,Rx,0,8,D1,07,00,00,00,0F,0F,04,
15212105,000000A9,false,Rx,0,8,B0,07,00,00,00,00,00,00,
15212388,000000AA,false,Rx,0,8,B5,07,00,00,FF,FF,04,00,
15212581,00000380,false,Rx,0,7,44,44,37,38,35,35,37,00,
15213789,000000C4,false,Rx,0,7,00,80,FD,00,80,39,FF,00,
15214903,00000192,false,Rx,0,4,6A,00,80,F6,00,00,00,00,
15216296,000000B5,false,Rx,0,8,83,0B,80,00,08,00,00,3A,
15218053,000000B6,false,Rx,0,5,34,04,80,00,F8,00,00,00,
15218246,0000019E,false,Rx,0,8,FF,FB,1F,00,30,F0,FF,DB,
15218529,000000CE,false,Rx,0,8,00,80,00,80,00,80,00,80,
15218722,000002B2,false,Rx,0,6,FF,FF,FF,FF,05,80,00,00,
15219015,000001A0,false,Rx,0,8,FF,FF,00,08,80,00,48,72,
15220859,000000AE,false,Rx,0,6,C0,00,80,60,00,31,00,00,
15221790,000000A8,false,Rx,0,8,D2,08,00,00,00,0F,0F,04,
15221991,00000130,false,Rx,0,5,41,43,35,3F,58,00,00,00,
15222275,000000A9,false,Rx,0,8,B1,08,00,00,00,00,00,00,
15222468,000000AA,false,Rx,0,8,B6,08,00,00,FF,FF,04,00,
15223855,000000C4,false,Rx,0,7,00,80,FD,00,80,61,FF,00,
15226349,000000BA,false,Rx,0,7,03,FF,0F,00,00,53,86,00,
15226541,000000B5,false,Rx,0,8,84,0C,80,00,08,00,00,3A,
15226733,000001A2,false,Rx,0,2,00,00,00,00,00,00,00,00,
15231798,000000A8,false,Rx,0,8,D3,09,00,00,00,0F,0F,04,
15232090,000000A9,false,Rx,0,8,B2,09,00,00,00,00,00,00,
15232556,000000AA,false,Rx,0,8,B7,09,00,00,FF,FF,04,00,
15232844,000005AA,false,Rx,0,8,40,38,00,05,FF,FF,FF,FF,
15233957,000000C4,false,Rx,0,7,00,80,FD,00,80,89,FF,00,
15236269,000000B5,false,Rx,0,8,85,0D,80,00,08,00,00,3A,
15238063,000000B6,false,Rx,0,5,35,05,80,00,F8,00,00,00,
15238528,0000019E,false,Rx,0,8,FF,FB,2F,00,30,F0,FF,EB,
15238647,000001A6,false,Rx,0,2,FF,FF,00,00,00,00,00,00,
15238742,000005A9,false,Rx,0,8,40,23,00,00,FF,FF,FF,FF,
15238938,000000CE,false,Rx,0,8,00,80,00,80,00,80,00,80,
15239139,000002B2,false,Rx,0,6,FF,FF,FF,FF,05,80,00,00,
15239423,000001A0,false,Rx,0,8,FF,FF,00,08,80,00,58,82,
15240917,000000AE,false,Rx,0,6,C1,01,80,60,00,31,00,00,
15241848,000000A8,false,Rx,0,8,D4,0A,00,00,00,0F,0F,04,
15242049,000000A9,false,Rx,0,8,B3,0A,00,00,00,00,00,00,
15242333,000000AA,false,Rx,0,8,B8,0A,00,00,FF,FF,04,00,
15243903,000000C4,false,Rx,0,7,00,80,FD,00,80,B1,FF,00,
15244467,00000192,false,Rx,0,4,6A,00,80,F7,00,00,00,00,
15246319,000000BA,false,Rx,0,7,03,FF,0F,00,00,54,87,00,
15246786,000000B5,false,Rx,0,8,86,0E,80,00,08,00,00,3A,
15246979,000001A2,false,Rx,0,2,00,00,00,00,00,00,00,00,
15251426,000004AA,false,Rx,0,8,00,02,FF,FF,FF,FF,FF,FF,
15251709,000001D0,false,Rx,0,8,40,FF,04,C9,00,00,FD,00,
15252003,000000A8,false,Rx,0,8,D5,0B,00,00,00,0F,0F,04,
15252196,000000A9,false,Rx,0,8,B4,0B,00,00,00,00,00,00,
15252480,000000AA,false,Rx,0,8,B9,0B,00,00,FF,FF,04,00,
15253775,000000C4,false,Rx,0,7,00,80,FD,00,80,D9,FF,00,
15256363,000000B5,false,Rx,0,8,78,00,80,00,08,00,00,3A,
15258034,000000B6,false,Rx,0,5,36,06,80,00,F8,00,00,00,
15258317,0000019E,false,Rx,0,8,FF,FB,2F,00,30,F0,FF,EB,
15258510,000000CE,false,Rx,0,8,00,80,00,80,00,80,00,80,
15258796,000002B2,false,Rx,0,6,FF,FF,FF,FF,05,80,00,00,
15258996,000001A0,false,Rx,0,8,FF,FF,00,08,80,00,68,92,
15260929,000000AE,false,Rx,0,6,C2,02,80,60,00,31,00,00,
15261860,000000A8,false,Rx,0,8,D6,0C,00,00,00,0F,0F,04,
15262062,000000A9,false,Rx,0,8,B5,0C,00,00,00,00,00,00,
15262618,000000AA,false,Rx,0,8,BA,0C,00,00,FF,FF,04,00,
15264015,000000C4,false,Rx,0,7,00,80,FD,00,80,01,FF,00,
15266594,000000B5,false,Rx,0,8,79,01,80,00,08,00,00,3A,
15266789,000000BA,false,Rx,0,7,03,FF,0F,00,00,55,88,00,
15266980,000001A2,false,Rx,0,2,00,00,00,00,00,00,00,00,
15267726,000005C0,false,Rx,0,8,48,0E,01,05,44,71,03,FE,
15271786,000000A8,false,Rx,0,8,D7,0D,00,00,00,0F,0F,04,
15272078,000000A9,false,Rx,0,8,B6,0D,00,00,00,00,00,00,
15272363,000000AA,false,Rx,0,8,BB,0D,00,00,FF,FF,04,00,
15273844,000000C4,false,Rx,0,7,00,80,FD,00,80,29,FF,00,
15274045,00000192,false,Rx,0,4,6A,00,80,F8,00,00,00,00,
15276622,000000B5,false,Rx,0,8,7A,02,80,00,08,00,00,3A,
15278021,000000B6,false,Rx,0,5,37,07,80,00,F8,00,00,00,
15278306,0000019E,false,Rx,0,8,FF,FB,2F,00,30,F0,FF,EB,
15278498,000000CE,false,Rx,0,8,00,80,00,80,00,80,00,80,
15278783,000002B2,false,Rx,0,6,FF,FF,FF,FF,05,80,00,00,
15278976,000001A0,false,Rx,0,8,FF,FF,00,08,80,00,78,A2,
15280917,000000AE,false,Rx,0,6,C3,03,80,60,00,31,00,00,
15281848,000000A8,false,Rx,0,8,D8,0E,00,00,00,0F,0F,04,
15282049,000000A9,false,Rx,0,8,B7,0E,00,00,00,00,00,00,
15282333,000000AA,false,Rx,0,8,BC,0E,00,00,FF,FF,04,00,
15283813,000000C4,false,Rx,0,7,00,80,FD,00,80,51,FF,00,
15286307,000000BA,false,Rx,0,7,03,FF,0F,00,00,56,89,00,
15286501,000000B5,false,Rx,0,8,7B,03,80,00,08,00,00,3A,
15286602,000001A2,false,Rx,0,2,00,00,00,00,00,00,00,00,
15291803,000000A8,false,Rx,0,8,CA,00,00,00,00,0F,0F,04,
15292127,000000A9,false,Rx,0,8,A9,00,00,00,00,00,00,00,
15292319,000000AA,false,Rx,0,8,AE,00,00,00,FF,FF,04,00,
15293888,000000C4,false,Rx,0,7,00,80,FD,00,80,79,FF,00,
15296222,000000B5,false,Rx,0,8,7C,04,80,00,08,00,00,3A,
15298078,000000B6,false,Rx,0,5,38,08,80,00,F8,00,00,00,
15298361,0000019E,false,Rx,0,8,FF,FB,2F,00,30,F0,FF,EB,
15298644,000000CE,false,Rx,0,8,00,80,00,80,00,80,00,80,
15298839,000002B2,false,Rx,0,6,FF,FF,FF,FF,05,80,00,00,
15299039,000001A0,false,Rx,0,8,FF,FF,00,08,80,00,88,B2,
15300971,000000AE,false,Rx,0,6,C4,04,80,60,00,31,00,00,
15301813,000000A8,false,Rx,0,8,CB,01,00,00,00,0F,0F,04,
15302377,000000A9,false,Rx,0,8,AA,01,00,00,00,00,00,00,
15302570,000000AA,false,Rx,0,8,AF,01,00,00,FF,FF,04,00,
15302947,00000192,false,Rx,0,4,6A,00,80,F9,00,00,00,00,
15303876,000000C4,false,Rx,0,7,00,80,FD,00,80,A1,FF,00,
15306373,000000BA,false,Rx,0,7,03,FF,0F,00,00,57,8A,00,
15306656,000000B5,false,Rx,0,8,7D,05,80,00,08,00,00,3A,
15306758,000001A2,false,Rx,0,2,00,00,00,00,00,00,00,00,
15307780,000005E0,false,Rx,0,8,10,00,00,02,00,FF,FF,FF,
15311756,000000A8,false,Rx,0,8,CC,02,00,00,00,0F,0F,04,
15312050,000000A9,false,Rx,0,8,AB,02,00,00,00,00,00,00,
15312334,000000AA,false,Rx,0,8,B0,02,00,00,FF,FF,04,00,
15313813,000000C4,false,Rx,0,7,00,80,FD,00,80,C9,FF,00,
15316216,000000B5,false,Rx,0,8,7E,06,80,00,08,00,00,3A,
15318155,000000B6,false,Rx,0,5,39,09,80,00,F8,00,00,00,
15318348,0000019E,false,Rx,0,8,FF,FB,2F,00,30,F0,FF,EB,
15318632,000005A9,false,Rx,0,8,40,18,00,00,FF,FF,FF,FF,
15318828,000000CE,false,Rx,0,8,00,80,00,80,00,80,00,80,
15319027,000002B2,false,Rx,0,6,FF,FF,FF,FF,05,80,00,00,
15319311,000001A0,false,Rx,0,8,FF,FF,00,08,80,00,98,C2,
15320972,000000AE,false,Rx,0,6,C6,05,80,60,00,32,00,00,
15321813,000000A8,false,Rx,0,8,CD,03,00,00,00,0F,0F,04,
15322105,000000A9,false,Rx,0,8,AC,03,00,00,00,00,00,00,
15322387,000000AA,false,Rx,0,8,B1,03,00,00,FF,FF,04,00,
15322670,00000130,false,Rx,0,5,41,43,35,3F,69,00,00,00,
15323784,000000C4,false,Rx,0,7,00,80,FD,00,80,F1,FF,00,
15326191,000000BA,false,Rx,0,7,03,FF,0F,00,00,58,8B,00,
15326474,000000B5,false,Rx,0,8,7F,07,80,00,08,00,00,3A,
15326576,000001A2,false,Rx,0,2,00,00,00,00,00,00,00,00,
15327141,00000480,false,Rx,0,8,12,02,FF,00,00,00,02,04,
15327972,00000194,false,Rx,0,4,70,F2,80,FC,00,00,00,00,
15331849,000000A8,false,Rx,0,8,CE,04,00,00,00,0F,0F,04,
15332050,000000A9,false,Rx,0,8,AD,04,00,00,00,00,00,00,
15332242,00000192,false,Rx,0,4,6A,00,80,FA,00,00,00,00,
15332526,000000AA,false,Rx,0,8,B2,04,00,00,FF,FF,04,00,
15333826,000000C4,false,Rx,0,7,00,80,FD,00,80,19,FF,00,
15336414,000000B5,false,Rx,0,8,80,08,80,00,08,00,00,3A,
15338082,000000B6,false,Rx,0,5,3A,0A,80,00,F8,00,00,00,
15339222,0000019E,false,Rx,0,8,FF,FB,2F,00,30,F0,FF,EB,
15339325,000000CE,false,Rx,0,8,00,80,00,80,00,80,00,80,
15339421,000001A6,false,Rx,0,2,FF,FF,00,00,00,00,00,00,
15339535,000002B2,false,Rx,0,6,FF,FF,FF,FF,05,80,00,00,
15339630,000001A0,false,Rx,0,8,FF,FF,00,08,80,00,A8,D2,
15341056,000000AE,false,Rx,0,6,C7,06,80,60,00,32,00,00,
15341797,000000A8,false,Rx,0,8,CF,05,00,00,00,0F,0F,04,
15342087,000000A9,false,Rx,0,8,AE,05,00,00,00,00,00,00,
15342825,000000AA,false,Rx,0,8,B3,05,00,00,FF,FF,04,00,
15343861,000000C4,false,Rx,0,7,00,80,FD,00,80,41,FF,00,
15346264,000000BA,false,Rx,0,7,03,FF,0F,00,00,59,8C,00,
15346548,000000B5,false,Rx,0,8,81,09,80,00,08,00,00,3A,
15346650,000001A2,false,Rx,0,2,00,00,00,00,00,00,00,00,
15351621,000001D0,false,Rx,0,8,40,FF,05,C9,00,00,FD,00,
15351907,000000A8,false,Rx,0,8,D0,06,00,00,00,0F,0F,04,
15352198,000000A9,false,Rx,0,8,AF,06,00,00,00,00,00,00,
15352481,000000AA,false,Rx,0,8,B4,06,00,00,FF,FF,04,00,
15353869,000000C4,false,Rx,0,7,00,80,FD,00,80,69,FF,00,
15356276,000000B5,false,Rx,0,8,82,0A,80,00,08,00,00,3A,
15358125,000000B6,false,Rx,0,5,3B,0B,80,00,F8,00,00,00,
15358317,0000019E,false,Rx,0,8,FF,FB,2F,00,30,F0,FF,EB,
15358601,000000CE,false,Rx,0,8,00,80,00,80,00,80,00,80,
15358797,000002B2,false,Rx,0,6,FF,FF,FF,FF,05,80,00,00,
15359086,000001A0,false,Rx,0,8,FF,FF,00,08,80,00,B8,E2,
15360654,00000192,false,Rx,0,4,6A,00,80,FB,00,00,00,00,
15361040,000000AE,false,Rx,0,6,C8,07,80,60,00,32,00,00,
15361779,000000A8,false,Rx,0,8,D1,07,00,00,00,0F,0F,04,
15362072,000000A9,false,Rx,0,8,B0,07,00,00,00,00,00,00,
15362356,000000AA,false,Rx,0,8,B5,07,00,00,FF,FF,04,00,
15363839,000000C4,false,Rx,0,7,00,80,FD,00,80,91,FF,00,
15366334,000000BA,false,Rx,0,7,03,FF,0F,00,00,5A,8D,00,
15366618,000000B5,false,Rx,0,8,83,0B,80,00,08,00,00,3A,
15366718,000001A2,false,Rx,0,2,00,00,00,00,00,00,00,00,
15371786,000000A8,false,Rx,0,8,D2,08,00,00,00,0F,0F,04,
15372077,000000A9,false,Rx,0,8,B1,08,00,00,00,00,00,00,
15372361,000000AA,false,Rx,0,8,B6,08,00,00,FF,FF,04,00,
15373840,000000C4,false,Rx,0,7,00,80,FD,00,80,B9,FF,00,
15376153,000000B5,false,Rx,0,8,84,0C,80,00,08,00,00,3A,
15378094,000000B6,false,Rx,0,5,3C,0C,80,00,F8,00,00,00,
15378378,0000019E,false,Rx,0,8,FF,FB,2F,00,30,F0,FF,EB,
15378570,000000CE,false,Rx,0,8,00,80,00,80,00,80,00,80,
15378762,000002B2,false,Rx,0,6,FF,FF,FF,FF,05,80,00,00,
15379056,000001A0,false,Rx,0,8,FF,FF,00,08,80,00,C8,F2,
15381087,000000AE,false,Rx,0,6,C9,08,80,60,00,32,00,00,
15381827,000000A8,false,Rx,0,8,D3,09,00,00,00,0F,0F,04,
15382028,000000A9,false,Rx,0,8,B2,09,00,00,00,00,00,00,
15382312,000000AA,false,Rx,0,8,B7,09,00,00,FF,FF,04,00,
15383790,000000C4,false,Rx,0,7,00,80,FD,00,80,E1,FF,00,
15386198,000000BA,false,Rx,0,7,03,FF,0F,00,00,5B,8E,00,
15386482,000000B5,false,Rx,0,8,85,0D,80,00,08,00,00,3A,
15386583,000001A2,false,Rx,0,2,00,00,00,00,00,00,00,00,
15390186,00000192,false,Rx,0,4,6A,00,80,FC,00,00,00,00,
15391803,000000A8,false,Rx,0,8,D4,0A,00,00,00,0F,0F,04,
15392094,000000A9,false,Rx,0,8,B3,0A,00,00,00,00,00,00,
15392378,000000AA,false,Rx,0,8,B8,0A,00,00,FF,FF,04,00,
15392751,000001B5,false,Rx,0,6,FF,FF,02,0F,C8,FF,00,00,
15393866,000000C4,false,Rx,0,7,00,80,FD,00,80,09,FF,00,
15396421,000000B5,false,Rx,0,8,86,0E,80,00,08,00,00,3A,
15398122,000000B6,false,Rx,0,5,3D,0D,80,00,F8,00,00,00,
15398404,0000019E,false,Rx,0,8,FF,FB,2F,00,30,F0,FF,EB,
15398600,000005A9,false,Rx,0,8,40,47,00,00,FF,FF,FF,FF,
15399252,000000CE,false,Rx,0,8,00,80,00,80,00,80,00,80,
15399367,000002B2,false,Rx,0,6,FF,FF,FF,FF,05,80,00,00,
15399462,000001A0,false,Rx,0,8,FF,FF,00,08,80,00,D8,02,
15401040,000000AE,false,Rx,0,6,CA,09,80,60,00,32,00,00,
15401779,000000A8,false,Rx,0,8,D5,0B,00,00,00,0F,0F,04,
15402071,000000A9,false,Rx,0,8,B4,0B,00,00,00,00,00,00,
15402356,000000AA,false,Rx,0,8,B9,0B,00,00,FF,FF,04,00,
15403837,000000C4,false,Rx,0,7,00,80,FD,00,80,31,FF,00,
15406151,000001D2,false,Rx,0,5,F0,0C,80,3C,F0,00,00,00,
15406617,000000B5,false,Rx,0,8,78,00,80,00,08,00,00,3A,
15406811,000000BA,false,Rx,0,7,03,FF,0F,00,00,4D,80,00,
15407011,000001A2,false,Rx,0,2,00,00,00,00,00,00,00,00,
15411796,000000A8,false,Rx,0,8,D6,0C,00,00,00,0F,0F,04,
15412087,000000A9,false,Rx,0,8,B5,0C,00,00,00,00,00,00,
15412371,000000AA,false,Rx,0,8,BA,0C,00,00,FF,FF,04,00,
15413853,000000C4,false,Rx,0,7,00,80,FD,00,80,59,FF,00,
15416258,000000B5,false,Rx,0,8,79,01,80,00,08,00,00,3A,
15418112,000000B6,false,Rx,0,5,3E,0E,80,00,F8,00,00,00,
15418304,0000019E,false,Rx,0,8,FF,FB,2F,00,30,F0,FF,EB,
15418588,000000CE,false,Rx,0,8,00,80,00,80,00,80,00,80,
15418782,000002B2,false,Rx,0,6,FF,FF,FF,FF,05,80,00,00,
15419070,000001A0,false,Rx,0,8,FF,FF,00,08,80,00,E8,13,
15419536,00000192,false,Rx,0,4,6A,00,80,FD,00,00,00,00,
15421113,000000AE,false,Rx,0,6,CB,0A,80,60,00,32,00,00,
15421761,000000A8,false,Rx,0,8,D7,0D,00,00,00,0F,0F,04,
15421955,00000130,false,Rx,0,5,41,43,35,3F,7A,00,00,00,
15422246,000000A9,false,Rx,0,8,B6,0D,00,00,00,00,00,00,
15422530,000000AA,false,Rx,0,8,BB,0D,00,00,FF,FF,04,00,
15423642,00000492,false,Rx,0,8,18,12,FF,FF,FF,FF,FF,FF,
15424029,000000C4,false,Rx,0,7,00,80,FD,00,80,81,FF,00,
15426425,000000BA,false,Rx,0,7,03,FF,0F,00,00,4E,81,00,
15426708,000000B5,false,Rx,0,8,7A,02,80,00,08,00,00,3A,
15426812,000001A2,false,Rx,0,2,00,00,00,00,00,00,00,00,
15431785,000000A8,false,Rx,0,8,D8,0E,00,00,00,0F,0F,04,
15432078,000000A9,false,Rx,0,8,B7,0E,00,00,00,00,00,00,
15432362,000000AA,false,Rx,0,8,BC,0E,00,00,FF,FF,04,00,
15433843,000000C4,false,Rx,0,7,00,80,FD,00,80,A9,FF,00,
15436611,000000B5,false,Rx,0,8,7B,03,80,00,08,00,00,3A,
15438100,000000B6,false,Rx,0,5,30,00,80,00,F8,00,00,00,
15438293,0000019E,false,Rx,0,8,FF,FB,3F,00,30,F0,FF,FB,
15438577,000000CE,false,Rx,0,8,00,80,00,80,00,80,00,80,
15438678,000001A6,false,Rx,0,2,FF,FF,00,00,00,00,00,00,
15438873,000002B2,false,Rx,0,6,FF,FF,FF,FF,05,80,00,00,
15439165,000001A0,false,Rx,0,8,FF,FF,00,08,80,00,08,32,
15441334,000000AE,false,Rx,0,6,CC,0B,80,60,00,32,00,00,
15441820,000000A8,false,Rx,0,8,CA,00,00,00,00,0F,0F,04,
15442112,000000A9,false,Rx,0,8,A9,00,00,00,00,00,00,00,
15442321,000000AA,false,Rx,0,8,AE,00,00,00,FF,FF,04,00,
15443825,000000C4,false,Rx,0,7,00,80,FD,00,80,D1,FF,00,
15446429,000000B5,false,Rx,0,8,7C,04,80,00,08,00,00,3A,
15446713,000000BA,false,Rx,0,7,03,FF,0F,00,00,4F,82,00,
15446819,000001A2,false,Rx,0,2,00,00,00,00,00,00,00,00,
15448667,00000192,false,Rx,0,4,6A,00,80,FE,00,00,00,00,
15450517,000001B5,false,Rx,0,6,FF,FF,02,00,C8,FF,00,00,
15451628,000001D0,false,Rx,0,8,40,FF,06,C9,00,00,FD,00,
15451916,000000A8,false,Rx,0,8,CB,01,00,00,00,0F,0F,04,
15452208,000000A9,false,Rx,0,8,AA,01,00,00,00,00,00,00,
15452401,000000AA,false,Rx,0,8,AF,01,00,00,FF,FF,04,00,
15453882,000000C4,false,Rx,0,7,00,80,FD,00,80,F9,FF,00,
15456471,000000B5,false,Rx,0,8,7D,05,80,00,08,00,00,3A,
15458050,000000B6,false,Rx,0,5,31,01,80,00,F8,00,00,00,
15458335,0000019E,false,Rx,0,8,FF,FB,3F,00,30,F0,FF,FB,
15458527,000000CE,false,Rx,0,8,00,00,00,00,00,00,00,00,
15458814,000002B2,false,Rx,0,6,FF,FF,FF,FF,05,80,00,00,
15459014,000001A0,false,Rx,0,8,00,80,00,08,80,00,18,C2,
15461047,000000AE,false,Rx,0,6,CD,0C,80,60,00,32,00,00,
15461789,000000A8,false,Rx,0,8,CC,02,00,00,00,0F,0F,04,
15462081,000000A9,false,Rx,0,8,AB,02,00,00,00,00,00,00,
15462365,000000AA,false,Rx,0,8,B0,02,00,00,FF,FF,04,00,
15463844,000000C4,false,Rx,0,7,00,80,FD,00,80,21,FF,00,
15466338,000000BA,false,Rx,0,7,03,FF,0F,00,00,50,83,00,
15466622,000000B5,false,Rx,0,8,7E,06,80,00,08,00,00,3A,
15466724,000001A2,false,Rx,0,2,00,00,00,00,00,00,00,00,
15467930,000005C0,false,Rx,0,8,48,0F,CA,F5,01,FD,44,00,
15471801,000000A8,false,Rx,0,8,CD,03,00,00,00,0F,0F,04,
15472094,000000A9,false,Rx,0,8,AC,03,00,00,00,00,00,00,
15472378,000000AA,false,Rx,0,8,B1,03,00,00,FF,FF,04,00,
15472570,000005E0,false,Rx,0,8,10,00,00,02,00,FF,FF,FF,
15474603,000000C4,false,Rx,0,7,00,80,FD,00,80,4B,FF,00,
15476363,000000B5,false,Rx,0,8,7F,07,80,00,08,00,00,3A,
15478033,00000192,false,Rx,0,4,6A,00,80,F1,00,00,00,00,
15478226,000000B6,false,Rx,0,5,32,02,80,00,F8,00,00,00,
15478419,0000019E,false,Rx,0,8,FF,FB,3F,00,30,F0,FF,FB,
15478702,000005A9,false,Rx,0,8,40,D7,00,00,FF,FF,FF,FF,
15478898,000000CE,false,Rx,0,8,00,00,00,00,00,00,00,00,
15479189,000002B2,false,Rx,0,6,FF,FF,FF,FF,05,80,00,00,
15479382,000001A0,false,Rx,0,8,00,80,00,08,80,00,28,D2,
15481141,000000AE,false,Rx,0,6,CE,0D,80,60,00,32,00,00,
15481792,000000A8,false,Rx,0,8,CE,04,00,00,00,0F,0F,04,
15482083,000000A9,false,Rx,0,8,AD,04,00,00,00,00,00,00,
15482366,000000AA,false,Rx,0,8,B2,04,00,00,FF,FF,04,00,
15484581,000000C4,false,Rx,0,7,00,80,FD,00,80,73,FF,00,
15486417,000000BA,false,Rx,0,7,03,FF,0F,00,00,51,84,00,
15486610,000000B5,false,Rx,0,8,80,08,80,00,08,00,00,3A,
15486806,000001A2,false,Rx,0,2,00,00,00,00,00,00,00,00,
15491969,000000A8,false,Rx,0,8,CF,05,00,00,00,0F,0F,04,
15492090,000000A9,false,Rx,0,8,AE,05,00,00,00,00,00,00,
15492382,000000AA,false,Rx,0,8,B3,05,00,00,FF,FF,04,00,
15494307,000000C4,false,Rx,0,7,00,80,FD,00,80,9B,FF,00,
15496247,000000B5,false,Rx,0,8,81,09,80,00,08,00,00,3A,
15498106,000000B6,false,Rx,0,5,33,03,80,00,F8,00,00,00,
15498299,0000019E,false,Rx,0,8,FF,FB,3F,00,30,F0,FF,FB,
15498583,000000CE,false,Rx,0,8,00,00,00,00,00,00,00,00,
15498775,000002B2,false,Rx,0,6,FF,FF,FF,FF,05,80,00,00,
15499080,000001A0,false,Rx,0,8,00,80,00,08,80,00,38,E2,
15501113,000000AE,false,Rx,0,6,CF,0E,80,60,00,32,00,00,
15501761,000000A8,false,Rx,0,8,D0,06,00,00,00,0F,0F,04,
15502055,000000A9,false,Rx,0,8,AF,06,00,00,00,00,00,00,
15502339,000000AA,false,Rx,0,8,B4,06,00,00,FF,FF,04,00,
15504109,000000C4,false,Rx,0,7,00,80,FD,00,80,C1,FF,00,
15506237,000000BA,false,Rx,0,7,03,FF,0F,00,00,52,85,00,
15506521,000000B5,false,Rx,0,8,82,0A,80,00,08,00,00,3A,
15506623,000001A2,false,Rx,0,2,00,00,00,00,00,00,00,00,
15506819,00000192,false,Rx,0,4,6A,00,80,F2,00,00,00,00,
15511796,000000A8,false,Rx,0,8,D1,07,00,00,00,0F,0F,04,
15512086,000000A9,false,Rx,0,8,B0,07,00,00,00,00,00,00,
15512370,000000AA,false,Rx,0,8,B5,07,00,00,FF,FF,04,00,
15513850,000000C4,false,Rx,0,7,00,80,FD,00,80,E9,FF,00,
15516164,00000498,false,Rx,0,8,29,02,FF,FF,FF,FF,FF,FF,
15516447,000000B5,false,Rx,0,8,83,0B,80,00,08,00,00,3A,
15518211,000000B6,false,Rx,0,5,34,04,80,00,F8,00,00,00,
15518404,0000019E,false,Rx,0,8,FF,FB,3F,00,30,F0,FF,FB,
15518688,000000CE,false,Rx,0,8,00,00,00,00,00,00,00,00,
15519072,000002B2,false,Rx,0,6,FF,FF,FF,FF,05,80,00,00,
15519356,000001A0,false,Rx,0,8,00,80,00,08,80,00,48,F2,
15521211,000000AE,false,Rx,0,6,C2,00,80,60,00,33,00,00,
15521767,000000A8,false,Rx,0,8,D2,08,00,00,00,0F,0F,04,
15521962,00000130,false,Rx,0,5,41,43,35,3F,8B,00,00,00,
15522254,000000A9,false,Rx,0,8,B1,08,00,00,00,00,00,00,
15522447,000000AA,false,Rx,0,8,B6,08,00,00,FF,FF,04,00,
15523836,000000C4,false,Rx,0,7,00,80,FD,00,80,11,FF,00,
15526243,000000BA,false,Rx,0,7,03,FF,0F,00,00,53,86,00,
15526436,000000B5,false,Rx,0,8,84,0C,80,00,08,00,00,3A,
15526627,000001A2,false,Rx,0,2,00,00,00,00,00,00,00,00,
15529308,00000194,false,Rx,0,4,71,F3,80,FC,00,00,00,00,
15531796,000000A8,false,Rx,0,8,D3,09,00,00,00,0F,0F,04,
15532360,000000A9,false,Rx,0,8,B2,09,00,00,00,00,00,00,
15532552,000000AA,false,Rx,0,8,B7,09,00,00,FF,FF,04,00,
15533848,000000C4,false,Rx,0,7,00,80,FD,00,80,39,FF,00,
15536162,00000598,false,Rx,0,8,40,AF,00,14,FF,FF,FF,FF,
15536355,000000B5,false,Rx,0,8,85,0D,80,00,08,00,00,3A,
15537015,00000192,false,Rx,0,4,6A,00,80,F3,00,00,00,00,
15538036,000000B6,false,Rx,0,5,35,05,80,00,F8,00,00,00,
15538320,0000019E,false,Rx,0,8,FF,FB,3F,00,30,F0,FF,FB,
15538604,000000CE,false,Rx,0,8,00,00,00,00,00,00,00,00,
15538706,000001A6,false,Rx,0,2,00,00,00,00,00,00,00,00,
15538900,000002B2,false,Rx,0,6,FF,FF,FF,FF,05,80,00,00,
15539192,000001A0,false,Rx,0,8,00,80,00,08,80,00,58,03,
15541226,000000AE,false,Rx,0,6,C3,01,80,60,00,33,00,00,
15541784,000000A8,false,Rx,0,8,D4,0A,00,00,00,0F,0F,04,
15542903,000000A9,false,Rx,0,8,B3,0A,00,00,00,00,00,00,
15543015,000000AA,false,Rx,0,8,B8,0A,00,00,FF,FF,04,00,
15543791,000000C4,false,Rx,0,7,00,80,FD,00,80,61,FF,00,
15546437,000000BA,false,Rx,0,7,03,FF,0F,00,00,54,87,00,
15546630,000000B5,false,Rx,0,8,86,0E,80,00,08,00,00,3A,
15546826,000001A2,false,Rx,0,2,00,00,00,00,00,00,00,00,
15551633,000001D0,false,Rx,0,8,40,FF,07,C9,00,00,FD,00,
15551919,000000A8,false,Rx,0,8,D5,0B,00,00,00,0F,0F,04,
15552209,000000A9,false,Rx,0,8,B4,0B,00,00,00,00,00,00,
15552402,000000AA,false,Rx,0,8,B9,0B,00,00,FF,FF,04,00,
15553880,000000C4,false,Rx,0,7,00,80,FD,00,80,89,FF,00,
15556289,000000B5,false,Rx,0,8,78,00,80,00,08,00,00,3A,
15558139,000000B6,false,Rx,0,5,36,06,80,00,F8,00,00,00,
15558332,0000019E,false,Rx,0,8,FF,FB,3F,00,30,F0,FF,FB,
15558616,000005A9,false,Rx,0,8,40,2A,00,00,FF,FF,FF,FF,
15559094,000000CE,false,Rx,0,8,00,00,00,00,00,00,00,00,
15559377,000002B2,false,Rx,0,6,FF,FF,FF,FF,05,80,00,00,
15559570,000001A0,false,Rx,0,8,00,80,00,08,80,00,68,13,
15561147,000000AE,false,Rx,0,6,C4,02,80,60,00,33,00,00,
15561797,000000A8,false,Rx,0,8,D6,0C,00,00,00,0F,0F,04,
15562087,000000A9,false,Rx,0,8,B5,0C,00,00,00,00,00,00,
15562371,000000AA,false,Rx,0,8,BA,0C,00,00,FF,FF,04,00,
15563862,000000C4,false,Rx,0,7,00,80,FD,00,80,B1,FF,00,
15566173,000000BA,false,Rx,0,7,03,FF,0F,00,00,55,88,00,
15566457,000000B5,false,Rx,0,8,79,01,80,00,08,00,00,3A,
15566558,000001A2,false,Rx,0,2,00,00,00,00,00,00,00,00,
15567581,00000192,false,Rx,0,4,6A,00,80,F4,00,00,00,00,
15571819,000000A8,false,Rx,0,8,D7,0D,00,00,00,0F,0F,04,
15572110,000000A9,false,Rx,0,8,B6,0D,00,00,00,00,00,00,
15572303,000000AA,false,Rx,0,8,BB,0D,00,00,FF,FF,04,00,
15573874,000000C4,false,Rx,0,7,00,80,FD,00,80,D9,FF,00,
15576373,000000B5,false,Rx,0,8,7A,02,80,00,08,00,00,3A,
15578131,000000B6,false,Rx,0,5,37,07,80,00,F8,00,00,00,
15578415,0000019E,false,Rx,0,8,FF,FB,3F,00,30,F0,FF,FB,
15578607,000000CE,false,Rx,0,8,00,00,00,00,00,00,00,00,
15578802,000002B2,false,Rx,0,6,FF,FF,FF,FF,05,80,00,00,
15579094,000001A0,false,Rx,0,8,00,80,00,08,80,00,78,23,
15581217,000000AE,false,Rx,0,6,C5,03,80,60,00,33,00,00,
15581774,000000A8,false,Rx,0,8,D8,0E,00,00,00,0F,0F,04,
15582066,000000A9,false,Rx,0,8,B7,0E,00,00,00,00,00,00,
15582350,000000AA,false,Rx,0,8,BC,0E,00,00,FF,FF,04,00,
15584021,000000C4,false,Rx,0,7,00,80,FD,00,80,01,FF,00,
15586237,000000BA,false,Rx,0,7,03,FF,0F,00,00,56,89,00,
15586521,000000B5,false,Rx,0,8,7B,03,80,00,08,00,00,3A,
15586622,000001A2,false,Rx,0,2,00,00,00,00,00,00,00,00,
15591787,000000A8,false,Rx,0,8,CA,00,00,00,00,0F,0F,04,
15592079,000000A9,false,Rx,0,8,A9,00,00,00,00,00,00,00,
15592363,000000AA,false,Rx,0,8,AE,00,00,00,FF,FF,04,00,
15593845,000000C4,false,Rx,0,7,00,80,FD,00,80,29,FF,00,
15595988,00000192,false,Rx,0,4,6A,00,80,F5,00,00,00,00,
15596272,000000B5,false,Rx,0,8,7C,04,80,00,08,00,00,3A,
15598131,000000B6,false,Rx,0,5,38,08,80,00,F8,00,00,00,
15598323,0000019E,false,Rx,0,8,FF,FB,3F,00,30,F0,FF,FB,
15598606,000000CE,false,Rx,0,8,00,00,00,00,00,00,00,00,
15598802,000002B2,false,Rx,0,6,FF,FF,FF,FF,05,80,00,00,
15599107,000001A0,false,Rx,0,8,00,80,00,08,80,00,88,33,
15599300,000004A9,false,Rx,0,8,2A,52,FF,FF,FF,FF,FF,FF,
15601243,000000AE,false,Rx,0,6,C6,04,80,60,00,33,00,00,
15601802,000000A8,false,Rx,0,8,CB,01,00,00,00,0F,0F,04,
15602094,000000A9,false,Rx,0,8,AA,01,00,00,00,00,00,00,
15602286,000000AA,false,Rx,0,8,AF,01,00,00,FF,FF,04,00,
15603854,000000C4,false,Rx,0,7,00,80,FD,00,80,51,FF,00,
15606166,000001D2,false,Rx,0,5,F0,0C,80,4C,F0,00,00,00,
15606450,000000BA,false,Rx,0,7,03,FF,0F,00,00,57,8A,00,
15606643,000000B5,false,Rx,0,8,7D,05,80,00,08,00,00,3A,
15606838,000001A2,false,Rx,0,2,00,00,00,00,00,00,00,00,
15611813,000000A8,false,Rx,0,8,CC,02,00,00,00,0F,0F,04,
15612013,000000A9,false,Rx,0,8,AB,02,00,00,00,00,00,00,
15612297,000000AA,false,Rx,0,8,B0,02,00,00,FF,FF,04,00,
15613867,000000C4,false,Rx,0,7,00,80,FD,00,80,79,FF,00,
15616275,000000B5,false,Rx,0,8,7E,06,80,00,08,00,00,3A,
15618125,000000B6,false,Rx,0,5,39,09,80,00,F8,00,00,00,
15618318,0000019E,false,Rx,0,8,FF,FB,3F,00,30,F0,FF,FB,
15618602,000000CE,false,Rx,0,8,00,00,00,00,00,00,00,00,
15618797,000002B2,false,Rx,0,6,FF,FF,FF,FF,05,80,00,00,
15619087,000001A0,false,Rx,0,8,00,80,00,08,80,00,98,43,
15621302,000000AE,false,Rx,0,6,C7,05,80,60,00,33,00,00,
15621767,000000A8,false,Rx,0,8,CD,03,00,00,00,0F,0F,04,
15621962,00000130,false,Rx,0,5,41,43,35,3F,9C,00,00,00,
15622254,000000A9,false,Rx,0,8,AC,03,00,00,00,00,00,00,
15622447,000000AA,false,Rx,0,8,B1,03,00,00,FF,FF,04,00,
15623838,000000C4,false,Rx,0,7,00,80,FD,00,80,A1,FF,00,
15625505,00000192,false,Rx,0,4,6A,00,80,F6,00,00,00,00,
15626434,000000BA,false,Rx,0,7,03,FF,0F,00,00,58,8B,00,
15626627,000000B5,false,Rx,0,8,7F,07,80,00,08,00,00,3A,
15626822,000001A2,false,Rx,0,2,00,00,00,00,00,00,00,00,
15627750,000005E0,false,Rx,0,8,10,00,00,02,00,FF,FF,FF,
15631807,000000A8,false,Rx,0,8,CE,04,00,00,00,0F,0F,04,
15632098,000000A9,false,Rx,0,8,AD,04,00,00,00,00,00,00,
15632381,000000AA,false,Rx,0,8,B2,04,00,00,FF,FF,04,00,
15633860,000000C4,false,Rx,0,7,00,80,FD,00,80,C9,FF,00,
15636355,000000B5,false,Rx,0,8,80,08,80,00,08,00,00,3A,
15638391,000000B6,false,Rx,0,5,3A,0A,80,00,F8,00,00,00,
15638584,0000019E,false,Rx,0,8,FF,FB,4F,00,30,F0,FF,0C,
15638685,000001A6,false,Rx,0,2,00,00,00,00,00,00,00,00,
15638970,000005A9,false,Rx,0,8,40,33,00,00,FF,FF,FF,FF,
15639262,000000CE,false,Rx,0,8,00,00,00,00,00,00,00,00,
15639453,000002B2,false,Rx,0,6,FF,FF,FF,FF,05,80,00,00,
15639645,000001A0,false,Rx,0,8,00,80,00,08,80,00,A8,53,
15641404,000000AE,false,Rx,0,6,C8,06,80,60,00,33,00,00,
15641780,000000A8,false,Rx,0,8,CF,05,00,00,00,0F,0F,04,
15642073,000000A9,false,Rx,0,8,AE,05,00,00,00,00,00,00,
15642356,000000AA,false,Rx,0,8,B3,05,00,00,FF,FF,04,00,
15644757,000000C4,false,Rx,0,7,00,80,FD,00,80,F1,FF,00,
15646324,000000BA,false,Rx,0,7,03,FF,0F,00,00,59,8C,00,
15646517,000000B5,false,Rx,0,8,81,09,80,00,08,00,00,3A,
15646618,000001A2,false,Rx,0,2,00,00,00,00,00,00,00,00,
15651916,000000A8,false,Rx,0,8,D0,06,00,00,00,0F,0F,04,
15652118,000001D0,false,Rx,0,8,40,FF,08,C9,00,00,FD,00,
15652401,000000A9,false,Rx,0,8,AF,06,00,00,00,00,00,00,
15652686,000000AA,false,Rx,0,8,B4,06,00,00,FF,FF,04,00,
15653892,000000C4,false,Rx,0,7,00,80,FD,00,80,19,FF,00,
15654916,00000192,false,Rx,0,4,6A,00,80,F7,00,00,00,00,
15656218,000000B5,false,Rx,0,8,82,0A,80,00,08,00,00,3A,
15658072,000000B6,false,Rx,0,5,3B,0B,80,00,F8,00,00,00,
15658354,0000019E,false,Rx,0,8,FF,FB,4F,00,30,F0,FF,0C,
15658547,000000CE,false,Rx,0,8,00,00,00,00,00,00,00,00,
15658740,000002B2,false,Rx,0,6,FF,FF,FF,FF,05,80,00,00,
15659035,000001A0,false,Rx,0,8,00,80,00,08,80,00,B8,63,
15661338,000000AE,false,Rx,0,6,C9,07,80,60,00,33,00,00,
15661807,000000A8,false,Rx,0,8,D1,07,00,00,00,0F,0F,04,
15662097,000000A9,false,Rx,0,8,B0,07,00,00,00,00,00,00,
15662289,000000AA,false,Rx,0,8,B5,07,00,00,FF,FF,04,00,
15663860,000000C4,false,Rx,0,7,00,80,FD,00,80,41,FF,00,
15666445,000000BA,false,Rx,0,7,03,FF,0F,00,00,5A,8D,00,
15666638,000000B5,false,Rx,0,8,83,0B,80,00,08,00,00,3A,
15666739,000001A2,false,Rx,0,2,00,00,00,00,00,00,00,00,
15671807,000000A8,false,Rx,0,8,D2,08,00,00,00,0F,0F,04,
15672099,000000A9,false,Rx,0,8,B1,08,00,00,00,00,00,00,
15672292,000000AA,false,Rx,0,8,B6,08,00,00,FF,FF,04,00,
15673861,000000C4,false,Rx,0,7,00,80,FD,00,80,69,FF,00,
15676356,000000B5,false,Rx,0,8,84,0C,80,00,08,00,00,3A,
15678119,000000B6,false,Rx,0,5,3C,0C,80,00,F8,00,00,00,
15678311,0000019E,false,Rx,0,8,FF,FB,4F,00,30,F0,FF,0C,
15678595,000000CE,false,Rx,0,8,00,00,00,00,00,00,00,00,
15678790,000002B2,false,Rx,0,6,FF,FF,FF,FF,05,80,00,00,
15679082,000001A0,false,Rx,0,8,00,80,00,08,80,00,C8,73,
15681484,000000AE,false,Rx,0,6,CA,08,80,60,00,33,00,00,
15681769,000000A8,false,Rx,0,8,D3,09,00,00,00,0F,0F,04,
15682063,000000A9,false,Rx,0,8,B2,09,00,00,00,00,00,00,
15682347,000000AA,false,Rx,0,8,B7,09,00,00,FF,FF,04,00,
15683826,000000C4,false,Rx,0,7,00,80,FD,00,80,91,FF,00,
15684663,00000192,false,Rx,0,4,6A,00,80,F8,00,00,00,00,
15686333,000000BA,false,Rx,0,7,03,FF,0F,00,00,5B,8E,00,
15686617,000000B5,false,Rx,0,8,85,0D,80,00,08,00,00,3A,
15686719,000001A2,false,Rx,0,2,00,00,00,00,00,00,00,00,
15691795,000000A8,false,Rx,0,8,D4,0A,00,00,00,0F,0F,04,
15691994,000004AA,false,Rx,0,8,00,42,FF,FF,FF,FF,FF,FF,
15692278,000000A9,false,Rx,0,8,B3,0A,00,00,00,00,00,00,
15692562,000000AA,false,Rx,0,8,B8,0A,00,00,FF,FF,04,00,
15693861,000000C4,false,Rx,0,7,00,80,FD,00,80,B9,FF,00,
15696415,000000B5,false,Rx,0,8,86,0E,80,00,08,00,00,3A,
15698113,000000B6,false,Rx,0,5,3D,0D,80,00,F8,00,00,00,
15698396,0000019E,false,Rx,0,8,FF,FB,4F,00,30,F0,FF,0C,
15698589,000000CE,false,Rx,0,8,00,00,00,00,00,00,00,00,
15698874,000002B2,false,Rx,0,6,FF,FF,FF,FF,05,80,00,00,
15699075,000001A0,false,Rx,0,8,00,80,00,08,80,00,D8,83,
15701398,000000AE,false,Rx,0,6,CB,09,80,60,00,33,00,00,
15701773,000000A8,false,Rx,0,8,D5,0B,00,00,00,0F,0F,04,
15702066,000000A9,false,Rx,0,8,B4,0B,00,00,00,00,00,00,
15702349,000000AA,false,Rx,0,8,B9,0B,00,00,FF,FF,04,00,
15703832,000000C4,false,Rx,0,7,00,80,FD,00,80,E1,FF,00,
15706328,000000BA,false,Rx,0,7,03,FF,0F,00,00,4D,80,00,
15706611,000000B5,false,Rx,0,8,78,00,80,00,08,00,00,3A,
15706712,000001A2,false,Rx,0,2,00,00,00,00,00,00,00,00,
15711779,000000A8,false,Rx,0,8,D6,0C,00,00,00,0F,0F,04,
15712071,000000A9,false,Rx,0,8,B5,0C,00,00,00,00,00,00,
15712355,000000AA,false,Rx,0,8,BA,0C,00,00,FF,FF,04,00,
15713014,00000192,false,Rx,0,4,6A,00,80,F9,00,00,00,00,
15713845,000000C4,false,Rx,0,7,00,80,FD,00,80,09,FF,00,
15716339,000000B5,false,Rx,0,8,79,01,80,00,08,00,00,3A,
15718191,000000B6,false,Rx,0,5,3E,0E,80,00,F8,00,00,00,
15718384,0000019E,false,Rx,0,8,FF,FB,4F,00,30,F0,FF,0C,
15718668,000005A9,false,Rx,0,8,40,B8,00,00,FF,FF,FF,FF,
15718865,000000CE,false,Rx,0,8,00,00,00,00,00,00,00,00,
15719066,000002B2,false,Rx,0,6,FF,FF,FF,FF,05,80,00,00,
15719349,000001A0,false,Rx,0,8,00,80,00,08,80,00,E8,93,
15721477,000000AE,false,Rx,0,6,CD,0A,80,60,00,34,00,00,
15721760,000000A8,false,Rx,0,8,D7,0D,00,00,00,0F,0F,04,
15722055,000000A9,false,Rx,0,8,B6,0D,00,00,00,00,00,00,
15722339,000000AA,false,Rx,0,8,BB,0D,00,00,FF,FF,04,00,
15722623,00000130,false,Rx,0,5,41,43,35,3F,AD,00,00,00,
15723832,000000C4,false,Rx,0,7,00,80,FD,00,80,31,FF,00,
15726419,000000BA,false,Rx,0,7,03,FF,0F,00,00,4E,81,00,
15726611,000000B5,false,Rx,0,8,7A,02,80,00,08,00,00,3A,
15726712,000001A2,false,Rx,0,2,00,00,00,00,00,00,00,00,
15729756,00000194,false,Rx,0,4,72,F4,80,FC,00,00,00,00,
15731791,000000A8,false,Rx,0,8,D8,0E,00,00,00,0F,0F,04,
15732083,000000A9,false,Rx,0,8,B7,0E,00,00,00,00,00,00,
15732366,000000AA,false,Rx,0,8,BC,0E,00,00,FF,FF,04,00,
15733845,000000C4,false,Rx,0,7,00,80,FD,00,80,59,FF,00,
15736248,000000B5,false,Rx,0,8,7B,03,80,00,08,00,00,3A,
15738100,000000B6,false,Rx,0,5,30,00,80,00,F8,00,00,00,
15738294,0000019E,false,Rx,0,8,FF,FB,4F,00,30,F0,FF,0C,
15738743,000000CE,false,Rx,0,8,00,00,00,00,00,00,00,00,
15738849,000001A6,false,Rx,0,2,00,00,00,00,00,00,00,00,
15738950,000002B2,false,Rx,0,6,FF,FF,FF,FF,05,80,00,00,
15739151,000001A0,false,Rx,0,8,00,80,00,08,80,00,08,B2,
15741458,000000AE,false,Rx,0,6,CE,0B,80,60,00,34,00,00,
15741741,000000A8,false,Rx,0,8,CA,00,00,00,00,0F,0F,04,
15742035,000000A9,false,Rx,0,8,A9,00,00,00,00,00,00,00,
15742319,000000AA,false,Rx,0,8,AE,00,00,00,FF,FF,04,00,
15742968,00000192,false,Rx,0,4,6A,00,80,FA,00,00,00,00,
15744087,000000C4,false,Rx,0,7,00,80,FD,00,80,81,FF,00,
15746585,000000BA,false,Rx,0,7,03,FF,0F,00,00,4F,82,00,
15746695,000000B5,false,Rx,0,8,7C,04,80,00,08,00,00,3A,
15746793,000001A2,false,Rx,0,2,00,00,00,00,00,00,00,00,
15751605,000001D0,false,Rx,0,8,40,FF,09,C9,00,00,FD,00,
15751893,000000A8,false,Rx,0,8,CB,01,00,00,00,0F,0F,04,
15752197,000000A9,false,Rx,0,8,AA,01,00,00,00,00,00,00,
15752390,000000AA,false,Rx,0,8,AF,01,00,00,FF,FF,04,00,
15753871,000000C4,false,Rx,0,7,00,80,FD,00,80,A9,FF,00,
15756458,000000B5,false,Rx,0,8,7D,05,80,00,08,00,00,3A,
15758127,000000B6,false,Rx,0,5,31,01,80,00,F8,00,00,00,
15758319,0000019E,false,Rx,0,8,FF,FB,4F,00,30,F0,FF,0C,
15758603,000000CE,false,Rx,0,8,00,00,00,00,00,00,00,00,
15758800,000002B2,false,Rx,0,6,FF,FF,FF,FF,05,80,00,00,
15759001,000001A0,false,Rx,0,8,00,80,00,08,80,00,18,C2,
15761413,000000AE,false,Rx,0,6,CF,0C,80,60,00,34,00,00,
15761789,000000A8,false,Rx,0,8,CC,02,00,00,00,0F,0F,04,
15762081,000000A9,false,Rx,0,8,AB,02,00,00,00,00,00,00,
15762273,000000AA,false,Rx,0,8,B0,02,00,00,FF,FF,04,00,
15763845,000000C4,false,Rx,0,7,00,80,FD,00,80,D1,FF,00,
15766338,000000BA,false,Rx,0,7,03,FF,0F,00,00,50,83,00,
15766531,000000B5,false,Rx,0,8,7E,06,80,00,08,00,00,3A,
15766632,000001A2,false,Rx,0,2,00,00,00,00,00,00,00,00,
15767107,00000480,false,Rx,0,8,12,42,FF,00,00,00,02,04,
15767756,000005C0,false,Rx,0,8,48,00,B4,61,03,00,B7,61,
15771813,000000A8,false,Rx,0,8,CD,03,00,00,00,0F,0F,04,
15772287,000000A9,false,Rx,0,8,AC,03,00,00,00,00,00,00,
15772571,000000AA,false,Rx,0,8,B1,03,00,00,FF,FF,04,00,
15772764,00000192,false,Rx,0,4,6A,00,80,FB,00,00,00,00,
15773877,000000C4,false,Rx,0,7,00,80,FD,00,80,F9,FF,00,
15776371,000000B5,false,Rx,0,8,7F,07,80,00,08,00,00,3A,
15778040,000000B6,false,Rx,0,5,32,02,80,00,F8,00,00,00,
15778323,0000019E,false,Rx,0,8,FF,FB,4F,00,30,F0,FF,0C,
15778607,000000CE,false,Rx,0,8,00,00,00,00,00,00,00,00,
15778802,000002B2,false,Rx,0,6,FF,FF,FF,FF,05,80,00,00,
15779004,000001A0,false,Rx,0,8,00,80,00,08,80,00,28,D2,
15781495,000000AE,false,Rx,0,6,D0,0D,80,60,00,34,00,00,
15781779,000000A8,false,Rx,0,8,CE,04,00,00,00,0F,0F,04,
15782071,000000A9,false,Rx,0,8,AD,04,00,00,00,00,00,00,
15782354,000000AA,false,Rx,0,8,B2,04,00,00,FF,FF,04,00,
15783832,000000C4,false,Rx,0,7,00,80,FD,00,80,21,FF,00,
15786328,000000BA,false,Rx,0,7,03,FF,0F,00,00,51,84,00,
15786612,000000B5,false,Rx,0,8,80,08,80,00,08,00,00,3A,
15786712,000001A2,false,Rx,0,2,00,00,00,00,00,00,00,00,
15791778,000000A8,false,Rx,0,8,CF,05,00,00,00,0F,0F,04,
15792069,000000A9,false,Rx,0,8,AE,05,00,00,00,00,00,00,
15792353,000000AA,false,Rx,0,8,B3,05,00,00,FF,FF,04,00,
15793832,000000C4,false,Rx,0,7,00,80,FD,00,80,49,FF,00,
15796237,000000B5,false,Rx,0,8,81,09,80,00,08,00,00,3A,
15798212,000000B6,false,Rx,0,5,33,03,80,00,F8,00,00,00,
15798640,0000019E,false,Rx,0,8,FF,FB,4F,00,30,F0,FF,0C,
15798745,000000CE,false,Rx,0,8,00,00,00,00,00,00,00,00,
15798850,000002B2,false,Rx,0,6,FF,FF,FF,FF,05,80,00,00,
15799051,000001A0,false,Rx,0,8,00,80,00,08,80,00,38,E2,
15801461,000000AE,false,Rx,0,6,D1,0E,80,60,00,34,00,00,
15801745,000000A8,false,Rx,0,8,D0,06,00,00,00,0F,0F,04,
15802039,000000A9,false,Rx,0,8,AF,06,00,00,00,00,00,00,
15802323,000000AA,false,Rx,0,8,B4,06,00,00,FF,FF,04,00,
15802516,00000192,false,Rx,0,4,6A,00,80,FC,00,00,00,00,
15803813,000000C4,false,Rx,0,7,00,80,FD,00,80,71,FF,00,
15806124,000001D2,false,Rx,0,5,F0,0C,80,5C,F0,00,00,00,
15806408,000000BA,false,Rx,0,7,03,FF,0F,00,00,52,85,00,
15806600,000000B5,false,Rx,0,8,82,0A,80,00,08,00,00,3A,
15806795,000001A2,false,Rx,0,2,00,00,00,00,00,00,00,00,
15811768,000000A8,false,Rx,0,8,D1,07,00,00,00,0F,0F,04,
15812063,000000A9,false,Rx,0,8,B0,07,00,00,00,00,00,00,
15812619,000000AA,false,Rx,0,8,B5,07,00,00,FF,FF,04,00,
15813832,000000C4,false,Rx,0,7,00,80,FD,00,80,99,FF,00,
15814671,000001B6,false,Rx,0,7,FF,FF,3C,00,00,F8,00,00,
15816702,000000B5,false,Rx,0,8,83,0B,80,00,08,00,00,3A,
15818100,000000B6,false,Rx,0,5,34,04,80,00,F8,00,00,00,
15818293,0000019E,false,Rx,0,8,FF,FB,4F,00,30,F0,FF,0C,
15818577,000000CE,false,Rx,0,8,00,00,00,00,00,00,00,00,
15818770,000002B2,false,Rx,0,6,FF,FF,FF,FF,05,80,00,00,
15819064,000001A0,false,Rx,0,8,00,80,00,08,80,00,48,F2,
15821554,000000AE,false,Rx,0,6,C3,00,80,60,00,34,00,00,
15821747,000000A8,false,Rx,0,8,D2,08,00,00,00,0F,0F,04,
15822040,000000A9,false,Rx,0,8,B1,08,00,00,00,00,00,00,
15822232,00000130,false,Rx,0,5,41,43,35,3F,BE,00,00,00,
15822424,000000AA,false,Rx,0,8,B6,08,00,00,FF,FF,04,00,
15823813,000000C4,false,Rx,0,7,00,80,FD,00,80,C1,FF,00,
15826398,000000BA,false,Rx,0,7,03,FF,0F,00,00,53,86,00,
15826590,000000B5,false,Rx,0,8,84,0C,80,00,08,00,00,3A,
15826783,000001A2,false,Rx,0,2,00,00,00,00,00,00,00,00,
15827711,000005E0,false,Rx,0,8,10,00,00,01,00,FF,FF,FF,
15830940,00000192,false,Rx,0,4,6A,00,80,FD,00,00,00,00,
15831776,000000A8,false,Rx,0,8,D3,09,00,00,00,0F,0F,04,
15832069,000000A9,false,Rx,0,8,B2,09,00,00,00,00,00,00,
15832354,000000AA,false,Rx,0,8,B7,09,00,00,FF,FF,04,00,
15833833,000000C4,false,Rx,0,7,00,80,FD,00,80,E9,FF,00,
15836511,000000B5,false,Rx,0,8,85,0D,80,00,08,00,00,3A,
15838177,000000B6,false,Rx,0,5,35,05,80,00,F8,00,00,00,
15838370,0000019E,false,Rx,0,8,FF,FB,5F,00,30,F0,FF,1C,
15838653,000000CE,false,Rx,0,8,00,00,00,00,00,00,00,00,
15838848,000002B2,false,Rx,0,6,FF,FF,FF,FF,05,80,00,00,
15839048,000001A0,false,Rx,0,8,00,80,00,08,80,00,58,03,
15839241,00000374,false,Rx,0,5,00,00,00,00,FC,00,00,00,
15839432,000001A6,false,Rx,0,2,00,00,00,00,00,00,00,00,
15841555,000000AE,false,Rx,0,6,C4,01,80,60,00,34,00,00,
15841747,000000A8,false,Rx,0,8,D4,0A,00,00,00,0F,0F,04,
15842041,000000A9,false,Rx,0,8,B3,0A,00,00,00,00,00,00,
15842325,000000AA,false,Rx,0,8,B8,0A,00,00,FF,FF,04,00,
15843894,000000C4,false,Rx,0,7,00,80,FD,00,80,11,FF,00,
15846302,000000BA,false,Rx,0,7,03,FF,0F,00,00,54,87,00,
15846585,000000B5,false,Rx,0,8,86,0E,80,00,08,00,00,3A,
15846687,000001A2,false,Rx,0,2,00,00,00,00,00,00,00,00,
15851646,000001D0,false,Rx,0,8,40,FF,0A,C9,00,00,FD,00,
15851850,000000A8,false,Rx,0,8,D5,0B,00,00,00,0F,0F,04,
15852142,000000A9,false,Rx,0,8,B4,0B,00,00,00,00,00,00,
15852425,000000AA,false,Rx,0,8,B9,0B,00,00,FF,FF,04,00,
15853838,000000C4,false,Rx,0,7,00,80,FD,00,80,39,FF,00,
15856351,000000B5,false,Rx,0,8,78,00,80,00,08,00,00,3A,
15858114,000000B6,false,Rx,0,5,36,06,80,00,F8,00,00,00,
15858306,0000019E,false,Rx,0,8,FF,FB,5F,00,30,F0,FF,1C,
15858591,000000CE,false,Rx,0,8,00,00,00,00,00,00,00,00,
15858785,000002B2,false,Rx,0,6,FF,FF,FF,FF,05,80,00,00,
15859076,000001A0,false,Rx,0,8,00,80,00,08,80,00,68,13,
15860737,00000192,false,Rx,0,4,6A,00,80,FE,00,00,00,00,
15861575,000000AE,false,Rx,0,6,C5,02,80,60,00,34,00,00,
15861768,000000A8,false,Rx,0,8,D6,0C,00,00,00,0F,0F,04,
15862062,000000A9,false,Rx,0,8,B5,0C,00,00,00,00,00,00,
15862346,000000AA,false,Rx,0,8,BA,0C,00,00,FF,FF,04,00,
15863642,00000492,false,Rx,0,8,18,52,FF,FF,FF,FF,FF,FF,
15863839,000000C4,false,Rx,0,7,00,80,FD,00,80,61,FF,00,
15866426,000000BA,false,Rx,0,7,03,FF,0F,00,00,55,88,00,
15866993,000000B5,false,Rx,0,8,79,01,80,00,08,00,00,3A,
15867094,000001A2,false,Rx,0,2,00,00,00,00,00,00,00,00,
15871787,000000A8,false,Rx,0,8,D7,0D,00,00,00,0F,0F,04,
15872079,000000A9,false,Rx,0,8,B6,0D,00,00,00,00,00,00,
15872362,000000AA,false,Rx,0,8,BB,0D,00,00,FF,FF,04,00,
15873845,000000C4,false,Rx,0,7,00,80,FD,00,80,89,FF,00,
15876428,000000B5,false,Rx,0,8,7A,02,80,00,08,00,00,3A,
15878100,000000B6,false,Rx,0,5,37,07,80,00,F8,00,00,00,
15878383,0000019E,false,Rx,0,8,FF,FB,5F,00,30,F0,FF,1C,
15878666,000000CE,false,Rx,0,8,00,00,00,00,00,00,00,00,
15878862,000002B2,false,Rx,0,6,FF,FF,FF,FF,05,80,00,00,
15879063,000001A0,false,Rx,0,8,00,80,00,08,80,00,78,23,
15881641,000000AE,false,Rx,0,6,C6,03,80,60,00,34,00,00,
15881838,000000A8,false,Rx,0,8,D8,0E,00,00,00,0F,0F,04,
15882130,000000A9,false,Rx,0,8,B7,0E,00,00,00,00,00,00,
15882414,000000AA,false,Rx,0,8,BC,0E,00,00,FF,FF,04,00,
15883801,000000C4,false,Rx,0,7,00,80,FD,00,80,B1,FF,00,
15886301,000000BA,false,Rx,0,7,03,FF,0F,00,00,56,89,00,
15886585,000000B5,false,Rx,0,8,7B,03,80,00,08,00,00,3A,
15886686,000001A2,false,Rx,0,2,00,00,00,00,00,00,00,00,
15890470,00000192,false,Rx,0,4,6A,00,80,F1,00,00,00,00,
15891764,000000A8,false,Rx,0,8,CA,00,00,00,00,0F,0F,04,
15892335,000000A9,false,Rx,0,8,A9,00,00,00,00,00,00,00,
15892618,000000AA,false,Rx,0,8,AE,00,00,00,FF,FF,04,00,
15893826,000000C4,false,Rx,0,7,00,80,FD,00,80,D9,FF,00,
15896425,000000B5,false,Rx,0,8,7C,04,80,00,08,00,00,3A,
15898093,000000B6,false,Rx,0,5,38,08,80,00,F8,00,00,00,
15899738,0000019E,false,Rx,0,8,FF,FB,5F,00,30,F0,FF,1C,
15899859,000000CE,false,Rx,0,8,00,00,00,00,00,00,00,00,
15899955,000002B2,false,Rx,0,6,FF,FF,FF,FF,05,80,00,00,
15900059,000001A0,false,Rx,0,8,00,80,00,08,80,00,88,33,
15901617,000000AE,false,Rx,0,6,C7,04,80,60,00,34,00,00,
15901813,000000A8,false,Rx,0,8,CB,01,00,00,00,0F,0F,04,
15902106,000000A9,false,Rx,0,8,AA,01,00,00,00,00,00,00,
15902391,000000AA,false,Rx,0,8,AF,01,00,00,FF,FF,04,00,
15904066,000000C4,false,Rx,0,7,00,80,FD,00,80,01,FF,00,
15906655,000000B5,false,Rx,0,8,7D,05,80,00,08,00,00,3A,
15906940,000000BA,false,Rx,0,7,03,FF,0F,00,00,57,8A,00,
15907046,000001A2,false,Rx,0,2,00,00,00,00,00,00,00,00,
15911753,000000A8,false,Rx,0,8,CC,02,00,00,00,0F,0F,04,
15912047,000000A9,false,Rx,0,8,AB,02,00,00,00,00,00,00,
15912333,000000AA,false,Rx,0,8,B0,02,00,00,FF,FF,04,00,
15913815,000000C4,false,Rx,0,7,00,80,FD,00,80,29,FF,00,
15916591,000000B5,false,Rx,0,8,7E,06,80,00,08,00,00,3A,
15918083,000000B6,false,Rx,0,5,39,09,80,00,F8,00,00,00,
15918276,0000019E,false,Rx,0,8,FF,FB,5F,00,30,F0,FF,1C,
15918561,000000CE,false,Rx,0,8,00,00,00,00,00,00,00,00,
15918754,000002B2,false,Rx,0,6,FF,FF,FF,FF,05,80,00,00,
15919232,000001A0,false,Rx,0,8,00,80,00,08,80,00,98,43,
15920256,00000192,false,Rx,0,4,6A,00,80,F2,00,00,00,00,
15921649,000000AE,false,Rx,0,6,C9,05,80,60,00,35,00,00,
15921845,000000A8,false,Rx,0,8,CD,03,00,00,00,0F,0F,04,
15922045,00000130,false,Rx,0,5,41,43,35,3F,C0,00,00,00,
15922330,000000A9,false,Rx,0,8,AC,03,00,00,00,00,00,00,
15922523,000000AA,false,Rx,0,8,B1,03,00,00,FF,FF,04,00,
15923915,000000C4,false,Rx,0,7,00,80,FD,00,80,51,FF,00,
15926328,000000BA,false,Rx,0,7,03,FF,0F,00,00,58,8B,00,
15926613,000000B5,false,Rx,0,8,7F,07,80,00,08,00,00,3A,
15926714,000001A2,false,Rx,0,2,00,00,00,00,00,00,00,00,
15931343,00000194,false,Rx,0,4,73,F5,80,FC,00,00,00,00,
15931813,000000A8,false,Rx,0,8,CE,04,00,00,00,0F,0F,04,
15932106,000000A9,false,Rx,0,8,AD,04,00,00,00,00,00,00,
15932391,000000AA,false,Rx,0,8,B2,04,00,00,FF,FF,04,00,
15933874,000000C4,false,Rx,0,7,00,80,FD,00,80,79,FF,00,
15936378,000000B5,false,Rx,0,8,80,08,80,00,08,00,00,3A,
15938144,000000B6,false,Rx,0,5,3A,0A,80,00,F8,00,00,00,
15938338,0000019E,false,Rx,0,8,FF,FB,5F,00,30,F0,FF,1C,
15938622,000000CE,false,Rx,0,8,00,00,00,00,00,00,00,00,
15938724,000001A6,false,Rx,0,2,00,00,00,00,00,00,00,00,
15938918,000002B2,false,Rx,0,6,FF,FF,FF,FF,05,80,00,00,
15939211,000001A0,false,Rx,0,8,00,80,00,08,80,00,A8,53,
15941617,00000592,false,Rx,0,8,40,22,00,21,FF,FF,FF,FF,
15941905,000000A8,false,Rx,0,8,CF,05,00,00,00,0F,0F,04,
15942106,000000AE,false,Rx,0,6,CA,06,80,60,00,35,00,00,
15942299,000000A9,false,Rx,0,8,AE,05,00,00,00,00,00,00,
15942584,000000AA,false,Rx,0,8,B3,05,00,00,FF,FF,04,00,
15943795,000000C4,false,Rx,0,7,00,80,FD,00,80,A1,FF,00,
15946299,000000BA,false,Rx,0,7,03,FF,0F,00,00,59,8C,00,
15946492,000000B5,false,Rx,0,8,81,09,80,00,08,00,00,3A,
15946685,000001A2,false,Rx,0,2,00,00,00,00,00,00,00,00,
15949279,00000192,false,Rx,0,4,6A,00,80,F3,00,00,00,00,
15951801,000001D0,false,Rx,0,8,40,FF,0B,C9,00,00,FD,00,
15951925,000000A8,false,Rx,0,8,D0,06,00,00,00,0F,0F,04,
15952127,000000A9,false,Rx,0,8,AF,06,00,00,00,00,00,00,
15952411,000000AA,false,Rx,0,8,B4,06,00,00,FF,FF,04,00,
15953894,000000C4,false,Rx,0,7,00,80,FD,00,80,C9,FF,00,
15956150,00000498,false,Rx,0,8,29,42,FF,FF,FF,FF,FF,FF,
15956435,000000B5,false,Rx,0,8,82,0A,80,00,08,00,00,3A,
15958218,000000B6,false,Rx,0,5,3B,0B,80,00,F8,00,00,00,
15958412,0000019E,false,Rx,0,8,FF,FB,5F,00,30,F0,FF,1C,
15958697,000000CE,false,Rx,0,8,00,00,00,00,00,00,00,00,
15958893,000002B2,false,Rx,0,6,FF,FF,FF,FF,05,80,00,00,
15959094,000001A0,false,Rx,0,8,00,80,00,08,80,00,B8,63,
15961682,000000AE,false,Rx,0,6,CB,07,80,60,00,35,00,00,
15962158,000000A8,false,Rx,0,8,D1,07,00,00,00,0F,0F,04,
15962443,000000A9,false,Rx,0,8,B0,07,00,00,00,00,00,00,
15962727,000000AA,false,Rx,0,8,B5,07,00,00,FF,FF,04,00,
15963847,000000C4,false,Rx,0,7,00,80,FD,00,80,F1,FF,00,
15966351,000000BA,false,Rx,0,7,03,FF,0F,00,00,5A,8D,00,
15966636,000000B5,false,Rx,0,8,83,0B,80,00,08,00,00,3A,
15966738,000001A2,false,Rx,0,2,00,00,00,00,00,00,00,00,
15971734,000000A8,false,Rx,0,8,D2,08,00,00,00,0F,0F,04,
15972028,000000A9,false,Rx,0,8,B1,08,00,00,00,00,00,00,
15972313,000000AA,false,Rx,0,8,B6,08,00,00,FF,FF,04,00,
15973797,000000C4,false,Rx,0,7,00,80,FD,00,80,19,FF,00,
15976303,000000B5,false,Rx,0,8,84,0C,80,00,08,00,00,3A,
15977694,00000192,false,Rx,0,4,6A,00,80,F4,00,00,00,00,
15978083,000000B6,false,Rx,0,5,3C,0C,80,00,F8,00,00,00,
15978368,0000019E,false,Rx,0,8,FF,FB,5F,00,30,F0,FF,1C,
15978561,000000CE,false,Rx,0,8,00,00,00,00,00,00,00,00,
15978755,000002B2,false,Rx,0,6,FF,FF,FF,FF,05,80,00,00,
15979049,000001A0,false,Rx,0,8,00,80,00,08,80,00,C8,73,
15981726,000000AE,false,Rx,0,6,CC,08,80,60,00,35,00,00,
15981924,000000A8,false,Rx,0,8,D3,09,00,00,00,0F,0F,04,
15982217,000000A9,false,Rx,0,8,B2,09,00,00,00,00,00,00,
15982502,000000AA,false,Rx,0,8,B7,09,00,00,FF,FF,04,00,
15983894,000000C4,false,Rx,0,7,00,80,FD,00,80,41,FF,00,
15986306,000000BA,false,Rx,0,7,03,FF,0F,00,00,5B,8E,00,
15986590,000000B5,false,Rx,0,8,85,0D,80,00,08,00,00,3A,
15986692,000001A2,false,Rx,0,2,00,00,00,00,00,00,00,00,
15987626,000005E0,false,Rx,0,8,10,00,00,01,00,FF,FF,FF,
15991788,000000A8,false,Rx,0,8,D4,0A,00,00,00,0F,0F,04,
15992079,000000A9,false,Rx,0,8,B3,0A,00,00,00,00,00,00,
15992273,000000AA,false,Rx,0,8,B8,0A,00,00,FF,FF,04,00,
15994589,000000C4,false,Rx,0,7,00,80,FD,00,80,6B,FF,00,
15996355,000000B5,false,Rx,0,8,86,0E,80,00,08,00,00,3A,
15998128,000000B6,false,Rx,0,5,3D,0D,80,00,F8,00,00,00,
15998321,0000019E,false,Rx,0,8,FF,FB,5F,00,30,F0,FF,1C,
15998606,000000CE,false,Rx,0,8,00,00,00,00,00,00,00,00,
15998804,000002B2,false,Rx,0,6,FF,FF,FF,FF,05,80,00,00,
15999014,000001A0,false,Rx,0,8,00,80,00,08,80,00,D8,83,
15999207,000001D6,false,Rx,0,2,C0,00,00,00,00,00,00,00,
16001442,000001B5,false,Rx,0,6,FF,FF,02,00,C8,FF,00,00,
16001644,000000AE,false,Rx,0,6,CD,09,80,60,00,35,00,00,
16001951,000000A8,false,Rx,0,8,D5,0B,00,00,00,0F,0F,04,
16002153,000000A9,false,Rx,0,8,B4,0B,00,00,00,00,00,00,
16002446,000000AA,false,Rx,0,8,B9,0B,00,00,FF,FF,04,00,
16003880,000000C4,false,Rx,0,7,00,80,FD,00,80,91,FF,00,
16006017,000001D2,false,Rx,0,5,F0,0C,80,6C,F0,00,00,00,
16006302,000000B5,false,Rx,0,8,78,00,80,00,08,00,00,3A,
16006495,000000BA,false,Rx,0,7,03,FF,0F,00,00,4D,80,00,
16006596,000001A2,false,Rx,0,2,00,00,00,00,00,00,00,00,
16007529,00000192,false,Rx,0,4,6A,00,80,F5,00,00,00,00,
16011782,000000A8,false,Rx,0,8,D6,0C,00,00,00,0F,0F,04,
16012074,000000A9,false,Rx,0,8,B5,0C,00,00,00,00,00,00,
16012268,000000AA,false,Rx,0,8,BA,0C,00,00,FF,FF,04,00,
16013844,000000C4,false,Rx,0,7,00,80,FD,00,80,B9,FF,00,
16016285,000000B5,false,Rx,0,8,79,01,80,00,08,00,00,3A,
16018142,000000B6,false,Rx,0,5,3E,0E,80,00,F8,00,00,00,
16018335,0000019E,false,Rx,0,8,FF,FB,5F,00,30,F0,FF,1C,
16018619,000000CE,false,Rx,0,8,00,00,00,00,00,00,00,00,
16018814,000002B2,false,Rx,0,6,FF,FF,FF,FF,05,80,00,00,
16019104,000001A0,false,Rx,0,8,00,80,00,08,80,00,E8,93,
16021968,000000A8,false,Rx,0,8,D7,0D,00,00,00,0F,0F,04,
16022169,000000AE,false,Rx,0,6,CE,0A,80,60,00,35,00,00,
16022363,000000A9,false,Rx,0,8,B6,0D,00,00,00,00,00,00,
16022556,00000130,false,Rx,0,5,41,43,35,3F,D1,00,00,00,
16022844,000000AA,false,Rx,0,8,BB,0D,00,00,FF,FF,04,00,
16023775,000000C4,false,Rx,0,7,00,80,FD,00,80,E1,FF,00,
16026371,000000BA,false,Rx,0,7,03,FF,0F,00,00,4E,81,00,
16026655,000000B5,false,Rx,0,8,7A,02,80,00,08,00,00,3A,
16026757,000001A2,false,Rx,0,2,00,00,00,00,00,00,00,00,
16031747,000000A8,false,Rx,0,8,D8,0E,00,00,00,0F,0F,04,
16032042,000000A9,false,Rx,0,8,B7,0E,00,00,00,00,00,00,
16032327,000000AA,false,Rx,0,8,BC,0E,00,00,FF,FF,04,00,
16033813,000000C4,false,Rx,0,7,00,80,FD,00,80,09,FF,00,
16036317,000000B5,false,Rx,0,8,7B,03,80,00,08,00,00,3A,
16036967,00000192,false,Rx,0,4,6A,00,80,F6,00,00,00,00,
16038180,000000B6,false,Rx,0,5,30,00,80,00,F8,00,00,00,
16038373,0000019E,false,Rx,0,8,FF,FB,6F,00,30,F0,FF,2C,
16038937,000000CE,false,Rx,0,8,00,00,00,00,00,00,00,00,
16039044,000001A6,false,Rx,0,2,00,00,00,00,00,00,00,00,
16039237,000002B2,false,Rx,0,6,FF,FF,FF,FF,05,80,00,00,
16039522,000001A0,false,Rx,0,8,00,80,00,08,80,00,08,B2,
16039715,000004A9,false,Rx,0,8,2A,52,FF,FF,FF,FF,FF,FF,
16041663,000000AE,false,Rx,0,6,CF,0B,80,60,00,35,00,00,
16041951,000000A8,false,Rx,0,8,CA,00,00,00,00,0F,0F,04,
16042244,000000A9,false,Rx,0,8,A9,00,00,00,00,00,00,00,
16042530,000000AA,false,Rx,0,8,AE,00,00,00,FF,FF,04,00,
16043466,00000310,false,Rx,0,7,76,54,56,68,00,16,18,00,
16043845,000000C4,false,Rx,0,7,00,80,FD,00,80,31,FF,00,
16046350,000000BA,false,Rx,0,7,03,FF,0F,00,00,4F,82,00,
16046634,000000B5,false,Rx,0,8,7C,04,80,00,08,00,00,3A,
16046736,000001A2,false,Rx,0,2,00,00,00,00,00,00,00,00,
16052396,000001D0,false,Rx,0,8,40,FF,0C,C9,00,00,FD,00,
16052500,000000A8,false,Rx,0,8,CB,01,00,00,00,0F,0F,04,
16052595,000000A9,false,Rx,0,8,AA,01,00,00,00,00,00,00,
16052701,000000AA,false,Rx,0,8,AF,01,00,00,FF,FF,04,00,
16053798,000000C4,false,Rx,0,7,00,80,FD,00,80,59,FF,00,
16056302,000000B5,false,Rx,0,8,7D,05,80,00,08,00,00,3A,
16058097,000000B6,false,Rx,0,5,31,01,80,00,F8,00,00,00,
16058382,0000019E,false,Rx,0,8,FF,FB,6F,00,30,F0,FF,2C,
16058575,000000CE,false,Rx,0,8,00,00,00,00,00,00,00,00,
16058769,000002B2,false,Rx,0,6,FF,FF,FF,FF,05,80,00,00,
16059089,000001A0,false,Rx,0,8,00,80,00,08,80,00,18,C2,
16061768,000000A8,false,Rx,0,8,CC,02,00,00,00,0F,0F,04,
16062246,000000A9,false,Rx,0,8,AB,02,00,00,00,00,00,00,
16062440,000000AE,false,Rx,0,6,D0,0C,80,60,00,35,00,00,
16062633,000000AA,false,Rx,0,8,B0,02,00,00,FF,FF,04,00,
16064043,000000C4,false,Rx,0,7,00,80,FD,00,80,81,FF,00,
16065991,00000192,false,Rx,0,4,6A,00,80,F7,00,00,00,00,
16066367,000000BA,false,Rx,0,7,03,FF,0F,00,00,50,83,00,
16066561,000000B5,false,Rx,0,8,7E,06,80,00,08,00,00,3A,
16066754,000001A2,false,Rx,0,2,00,00,00,00,00,00,00,00,
16071748,000000A8,false,Rx,0,8,CD,03,00,00,00,0F,0F,04,
16072042,000000A9,false,Rx,0,8,AC,03,00,00,00,00,00,00,
16072327,000000AA,false,Rx,0,8,B1,03,00,00,FF,FF,04,00,
16073813,000000C4,false,Rx,0,7,00,80,FD,00,80,A9,FF,00,
16076317,000000B5,false,Rx,0,8,7F,07,80,00,08,00,00,3A,
16078083,000000B6,false,Rx,0,5,32,02,80,00,F8,00,00,00,
16078277,0000019E,false,Rx,0,8,FF,FB,6F,00,30,F0,FF,2C,
16078839,000000CE,false,Rx,0,8,00,00,00,00,00,00,00,00,
16079040,000002B2,false,Rx,0,6,FF,FF,FF,FF,05,80,00,00,
16079325,000001A0,false,Rx,0,8,00,80,00,08,80,00,28,D2,
16082013,000000A8,false,Rx,0,8,CE,04,00,00,00,0F,0F,04,
16082206,000000AE,false,Rx,0,6,D1,0D,80,60,00,35,00,00,
16082491,000000A9,false,Rx,0,8,AD,04,00,00,00,00,00,00,
16082775,000000AA,false,Rx,0,8,B2,04,00,00,FF,FF,04,00,
16083892,000000C4,false,Rx,0,7,00,80,FD,00,80,D1,FF,00,
16086396,000000BA,false,Rx,0,7,03,FF,0F,00,00,51,84,00,
16086589,000000B5,false,Rx,0,8,80,08,80,00,08,00,00,3A,
16086691,000001A2,false,Rx,0,2,00,00,00,00,00,00,00,00,
16091774,000000A8,false,Rx,0,8,CF,05,00,00,00,0F,0F,04,
16092067,000000A9,false,Rx,0,8,AE,05,00,00,00,00,00,00,
16092261,000000AA,false,Rx,0,8,B3,05,00,00,FF,FF,04,00,
16093838,000000C4,false,Rx,0,7,00,80,FD,00,80,F9,FF,00,
16095511,00000192,false,Rx,0,4,6A,00,80,F8,00,00,00,00,
16096354,000000B5,false,Rx,0,8,81,09,80,00,08,00,00,3A,
16098042,000000B6,false,Rx,0,5,33,03,80,00,F8,00,00,00,
16098327,0000019E,false,Rx,0,8,FF,FB,6F,00,30,F0,FF,2C,
16098610,000000CE,false,Rx,0,8,00,00,00,00,00,00,00,00,
16098811,000002B2,false,Rx,0,6,FF,FF,FF,FF,05,80,00,00,
16099024,000001A0,false,Rx,0,8,00,80,00,08,80,00,38,E2,
16101797,000000A8,false,Rx,0,8,D0,06,00,00,00,0F,0F,04,
16101998,000000AE,false,Rx,0,6,D2,0E,80,60,00,35,00,00,
16102192,000000A9,false,Rx,0,8,AF,06,00,00,00,00,00,00,
16103303,000000AA,false,Rx,0,8,B4,06,00,00,FF,FF,04,00,
16103888,000000C4,false,Rx,0,7,00,80,FD,00,80,21,FF,00,
16106437,000000BA,false,Rx,0,7,03,FF,0F,00,00,52,85,00,
16106631,000000B5,false,Rx,0,8,82,0A,80,00,08,00,00,3A,
16106733,000001A2,false,Rx,0,2,00,00,00,00,00,00,00,00,
16111722,000000A8,false,Rx,0,8,D1,07,00,00,00,0F,0F,04,
16112016,000000A9,false,Rx,0,8,B0,07,00,00,00,00,00,00,
16112301,000000AA,false,Rx,0,8,B5,07,00,00,FF,FF,04,00,
16113876,000000C4,false,Rx,0,7,00,80,FD,00,80,49,FF,00,
16116656,000000B5,false,Rx,0,8,83,0B,80,00,08,00,00,3A,
16118150,000000B6,false,Rx,0,5,34,04,80,00,F8,00,00,00,
16118433,0000019E,false,Rx,0,8,FF,FB,6F,00,30,F0,FF,2C,
16118626,000000CE,false,Rx,0,8,00,00,00,00,00,00,00,00,
16118821,000002B2,false,Rx,0,6,FF,FF,FF,FF,05,80,00,00,
16119115,000001A0,false,Rx,0,8,00,80,00,08,80,00,48,F2,
16121800,000000A8,false,Rx,0,8,D2,08,00,00,00,0F,0F,04,
16122184,000000A9,false,Rx,0,8,B1,08,00,00,00,00,00,00,
16122469,000000AE,false,Rx,0,6,C5,00,80,60,00,36,00,00,
16122662,000000AA,false,Rx,0,8,B6,08,00,00,FF,FF,04,00,
16122858,00000130,false,Rx,0,5,41,43,35,3F,E2,00,00,00,
16123881,000000C4,false,Rx,0,7,00,80,FD,00,80,71,FF,00,
16124721,00000192,false,Rx,0,4,6A,00,80,F9,00,00,00,00,
16126304,000000BA,false,Rx,0,7,03,FF,0F,00,00,53,86,00,
16126588,000000B5,false,Rx,0,8,84,0C,80,00,08,00,00,3A,
16126690,000001A2,false,Rx,0,2,00,00,00,00,00,00,00,00,
16131776,000000A8,false,Rx,0,8,D3,09,00,00,00,0F,0F,04,
16132067,000000A9,false,Rx,0,8,B2,09,00,00,00,00,00,00,
16132260,000000AA,false,Rx,0,8,B7,09,00,00,FF,FF,04,00,
16132545,000004AA,false,Rx,0,8,00,52,FF,FF,FF,FF,FF,FF,
16133571,00000194,false,Rx,0,4,74,F6,80,FC,00,00,00,00,
16133764,000005AA,false,Rx,0,8,40,36,00,05,FF,FF,FF,FF,
16134062,000000C4,false,Rx,0,7,00,80,FD,00,80,99,FF,00,
16136378,000000B5,false,Rx,0,8,85,0D,80,00,08,00,00,3A,
16138055,000000B6,false,Rx,0,5,35,05,80,00,F8,00,00,00,
16138339,0000019E,false,Rx,0,8,FF,FB,6F,00,30,F0,FF,2C,
16138533,000000CE,false,Rx,0,8,00,00,00,00,00,00,00,00,
16138726,000001A6,false,Rx,0,2,00,00,00,00,00,00,00,00,
16139114,000002B2,false,Rx,0,6,FF,FF,FF,FF,05,80,00,00,
16139399,000001A0,false,Rx,0,8,00,80,00,08,80,00,58,03,
16141715,000000A8,false,Rx,0,8,D4,0A,00,00,00,0F,0F,04,
16142009,000000AE,false,Rx,0,6,C6,01,80,60,00,36,00,00,
16142202,000000A9,false,Rx,0,8,B3,0A,00,00,00,00,00,00,
16142486,000000AA,false,Rx,0,8,B8,0A,00,00,FF,FF,04,00,
16143878,000000C4,false,Rx,0,7,00,80,FD,00,80,C1,FF,00,
16146382,000000BA,false,Rx,0,7,03,FF,0F,00,00,54,87,00,
16146667,000000B5,false,Rx,0,8,86,0E,80,00,08,00,00,3A,
16146768,000001A2,false,Rx,0,2,00,00,00,00,00,00,00,00,
16147702,000005E0,false,Rx,0,8,10,00,00,01,00,FF,FF,FF,
16151585,000001D0,false,Rx,0,8,40,FF,0D,C9,00,00,FD,00,
16151873,000000A8,false,Rx,0,8,D5,0B,00,00,00,0F,0F,04,
16152167,000000A9,false,Rx,0,8,B4,0B,00,00,00,00,00,00,
16152360,000000AA,false,Rx,0,8,B9,0B,00,00,FF,FF,04,00,
16154267,000000C4,false,Rx,0,7,00,80,FD,00,80,E9,FF,00,
16154371,00000192,false,Rx,0,4,6A,00,80,FA,00,00,00,00,
16156625,000000B5,false,Rx,0,8,78,00,80,00,08,00,00,3A,
16158136,000000B6,false,Rx,0,5,36,06,80,00,F8,00,00,00,
16158329,0000019E,false,Rx,0,8,FF,FB,6F,00,30,F0,FF,2C,
16158614,000000CE,false,Rx,0,8,00,00,00,00,00,00,00,00,
16158809,000002B2,false,Rx,0,6,FF,FF,FF,FF,05,80,00,00,
16159103,000001A0,false,Rx,0,8,00,80,00,08,80,00,68,13,
16161722,000000A8,false,Rx,0,8,D6,0C,00,00,00,0F,0F,04,
16161924,000000AE,false,Rx,0,6,C7,02,80,60,00,36,00,00,
16162226,000000A9,false,Rx,0,8,B5,0C,00,00,00,00,00,00,
16162510,000000AA,false,Rx,0,8,BA,0C,00,00,FF,FF,04,00,
16163904,000000C4,false,Rx,0,7,00,80,FD,00,80,11,FF,00,
16166317,000000BA,false,Rx,0,7,03,FF,0F,00,00,55,88,00,
16166510,000000B5,false,Rx,0,8,79,01,80,00,08,00,00,3A,
16166612,000001A2,false,Rx,0,2,00,00,00,00,00,00,00,00,
16171788,000000A8,false,Rx,0,8,D7,0D,00,00,00,0F,0F,04,
16172077,000000A9,false,Rx,0,8,B6,0D,00,00,00,00,00,00,
16172271,000000AA,false,Rx,0,8,BB,0D,00,00,FF,FF,04,00,
16174037,000000C4,false,Rx,0,7,00,80,FD,00,80,39,FF,00,
16176350,000000B5,false,Rx,0,8,7A,02,80,00,08,00,00,3A,
16178115,000000B6,false,Rx,0,5,37,07,80,00,F8,00,00,00,
16178309,0000019E,false,Rx,0,8,FF,FB,6F,00,30,F0,FF,2C,
16178595,000000CE,false,Rx,0,8,00,00,00,00,00,00,00,00,
16178789,000002B2,false,Rx,0,6,FF,FF,FF,FF,05,80,00,00,
16178990,000001A0,false,Rx,0,8,00,80,00,08,80,00,78,23,
16181761,000000A8,false,Rx,0,8,D8,0E,00,00,00,0F,0F,04,
16181956,000000AE,false,Rx,0,6,C8,03,80,60,00,36,00,00,
16182156,000000A9,false,Rx,0,8,B7,0E,00,00,00,00,00,00,
16182441,000000AA,false,Rx,0,8,BC,0E,00,00,FF,FF,04,00,
16183558,00000192,false,Rx,0,4,6A,00,80,FB,00,00,00,00,
16183845,000000C4,false,Rx,0,7,00,80,FD,00,80,61,FF,00,
16186350,000000BA,false,Rx,0,7,03,FF,0F,00,00,56,89,00,
16186634,000000B5,false,Rx,0,8,7B,03,80,00,08,00,00,3A,
16186735,000001A2,false,Rx,0,2,00,00,00,00,00,00,00,00,
16191725,000000A8,false,Rx,0,8,CA,00,00,00,00,0F,0F,04,
16192020,000000A9,false,Rx,0,8,A9,00,00,00,00,00,00,00,
16192305,000000AA,false,Rx,0,8,AE,00,00,00,FF,FF,04,00,
16193877,000000C4,false,Rx,0,7,00,80,FD,00,80,89,FF,00,
16196291,000000B5,false,Rx,0,8,7C,04,80,00,08,00,00,3A,
16198161,000000B6,false,Rx,0,5,38,08,80,00,F8,00,00,00,
16198354,0000019E,false,Rx,0,8,FF,FB,6F,00,30,F0,FF,2C,
16198639,000000CE,false,Rx,0,8,00,00,00,00,00,00,00,00,
16198835,000002B2,false,Rx,0,6,FF,FF,FF,FF,05,80,00,00,
16199036,000001A0,false,Rx,0,8,00,80,00,08,80,00,88,33,
16201726,000000A8,false,Rx,0,8,CB,01,00,00,00,0F,0F,04,
16201923,000000AE,false,Rx,0,6,C9,04,80,60,00,36,00,00,
16202490,000000A9,false,Rx,0,8,AA,01,00,00,00,00,00,00,
16202684,000000AA,false,Rx,0,8,AF,01,00,00,FF,FF,04,00,
16203893,000000C4,false,Rx,0,7,00,80,FD,00,80,B1,FF,00,
16206381,000001D2,false,Rx,0,5,F0,0C,80,7C,F0,00,00,00,
16206485,000000BA,false,Rx,0,7,03,FF,0F,00,00,57,8A,00,
16206588,000000B5,false,Rx,0,8,7D,05,80,00,08,00,00,3A,
16206782,000001A2,false,Rx,0,2,00,00,00,00,00,00,00,00,
16207166,00000480,false,Rx,0,8,12,42,FF,10,00,00,02,04,
16211788,000000A8,false,Rx,0,8,CC,02,00,00,00,0F,0F,04,
16211890,00000192,false,Rx,0,4,6A,00,80,FC,00,00,00,00,
16212183,000000A9,false,Rx,0,8,AB,02,00,00,00,00,00,00,
16212468,000000AA,false,Rx,0,8,B0,02,00,00,FF,FF,04,00,
16214875,000000C4,false,Rx,0,7,00,80,FD,00,80,DC,FF,00,
16216272,000000B5,false,Rx,0,8,7E,06,80,00,08,00,00,3A,
16218131,000000B6,false,Rx,0,5,39,09,80,00,F8,00,00,00,
16218325,0000019E,false,Rx,0,8,FF,FB,6F,00,30,F0,FF,2C,
16218610,000000CE,false,Rx,0,8,00,00,00,00,00,00,00,00,
16218807,000002B2,false,Rx,0,6,FF,FF,FF,FF,05,80,00,00,
16219007,000001A0,false,Rx,0,8,00,80,00,08,80,00,98,43,
16221781,000000A8,false,Rx,0,8,CD,03,00,00,00,0F,0F,04,
16221974,000000AE,false,Rx,0,6,CA,05,80,60,00,36,00,00,
16222174,000000A9,false,Rx,0,8,AC,03,00,00,00,00,00,00,
16222367,00000130,false,Rx,0,5,41,43,35,3F,F3,00,00,00,
16222652,000000AA,false,Rx,0,8,B1,03,00,00,FF,FF,04,00,
16224056,000000C4,false,Rx,0,7,00,80,FD,00,80,01,FF,00,
16226280,000000BA,false,Rx,0,7,03,FF,0F,00,00,58,8B,00,
16226564,000000B5,false,Rx,0,8,7F,07,80,00,08,00,00,3A,
16226665,000001A2,false,Rx,0,2,00,00,00,00,00,00,00,00,
16231748,000000A8,false,Rx,0,8,CE,04,00,00,00,0F,0F,04,
16232040,000000A9,false,Rx,0,8,AD,04,00,00,00,00,00,00,
16232325,000000AA,false,Rx,0,8,B2,04,00,00,FF,FF,04,00,
16233350,000005AA,false,Rx,0,8,40,38,00,05,FF,FF,FF,FF,
16233819,000000C4,false,Rx,0,7,00,80,FD,00,80,29,FF,00,
16236414,000000B5,false,Rx,0,8,80,08,80,00,08,00,00,3A,
16238087,000000B6,false,Rx,0,5,3A,0A,80,00,F8,00,00,00,
16238371,0000019E,false,Rx,0,8,FF,FB,7F,00,30,F0,FF,3C,
16238564,000000CE,false,Rx,0,8,00,00,00,00,00,00,00,00,
16238756,000001A6,false,Rx,0,2,00,00,00,00,00,00,00,00,
16238951,000002B2,false,Rx,0,6,FF,FF,FF,FF,05,80,00,00,
16239152,000001A0,false,Rx,0,8,00,80,00,08,80,00,A8,53,
16241375,00000192,false,Rx,0,4,6A,00,80,FD,00,00,00,00,
16241751,000000A8,false,Rx,0,8,CF,05,00,00,00,0F,0F,04,
16242229,000000A9,false,Rx,0,8,AE,05,00,00,00,00,00,00,
16242422,000000AE,false,Rx,0,6,CB,06,80,60,00,36,00,00,
16242707,000000AA,false,Rx,0,8,B3,05,00,00,FF,FF,04,00,
16243828,000000C4,false,Rx,0,7,00,80,FD,00,80,51,FF,00,
16246423,000000BA,false,Rx,0,7,03,FF,0F,00,00,59,8C,00,
16246615,000000B5,false,Rx,0,8,81,09,80,00,08,00,00,3A,
16246812,000001A2,false,Rx,0,2,00,00,00,00,00,00,00,00,
16251618,000001D0,false,Rx,0,8,40,FF,0E,C9,00,00,FD,00,
16251813,000000A8,false,Rx,0,8,D0,06,00,00,00,0F,0F,04,
16252106,000000A9,false,Rx,0,8,AF,06,00,00,00,00,00,00,
16252390,000000AA,false,Rx,0,8,B4,06,00,00,FF,FF,04,00,
16253875,000000C4,false,Rx,0,7,00,80,FD,00,80,79,FF,00,
16256396,000000B5,false,Rx,0,8,82,0A,80,00,08,00,00,3A,
16258130,000000B6,false,Rx,0,5,3B,0B,80,00,F8,00,00,00,
16258345,0000019E,false,Rx,0,8,FF,FB,7F,00,30,F0,FF,3C,
16258630,000000CE,false,Rx,0,8,00,00,00,00,00,00,00,00,
16258826,000002B2,false,Rx,0,6,FF,FF,FF,FF,05,80,00,00,
16259027,000001A0,false,Rx,0,8,00,80,00,08,80,00,B8,63,
16261705,000000A8,false,Rx,0,8,D1,07,00,00,00,0F,0F,04,
16262009,000000AE,false,Rx,0,6,CC,07,80,60,00,36,00,00,
16262222,000000A9,false,Rx,0,8,B0,07,00,00,00,00,00,00,
16262507,000000AA,false,Rx,0,8,B5,07,00,00,FF,FF,04,00,
16263912,000000C4,false,Rx,0,7,00,80,FD,00,80,A1,FF,00,
16266329,000000BA,false,Rx,0,7,03,FF,0F,00,00,5A,8D,00,
16266614,000000B5,false,Rx,0,8,83,0B,80,00,08,00,00,3A,
16266716,000001A2,false,Rx,0,2,00,00,00,00,00,00,00,00,
16270420,00000192,false,Rx,0,4,6A,00,80,FE,00,00,00,00,
16271719,000000A8,false,Rx,0,8,D2,08,00,00,00,0F,0F,04,
16272016,000000A9,false,Rx,0,8,B1,08,00,00,00,00,00,00,
16272316,000000AA,false,Rx,0,8,B6,08,00,00,FF,FF,04,00,
16273890,000000C4,false,Rx,0,7,00,80,FD,00,80,C9,FF,00,
16276487,000000B5,false,Rx,0,8,84,0C,80,00,08,00,00,3A,
16278068,000000B6,false,Rx,0,5,3C,0C,80,00,F8,00,00,00,
16278355,0000019E,false,Rx,0,8,FF,FB,7F,00,30,F0,FF,3C,
16278548,000000CE,false,Rx,0,8,00,00,00,00,00,00,00,00,
16278838,000002B2,false,Rx,0,6,FF,FF,FF,FF,05,80,00,00,
16279037,000001A0,false,Rx,0,8,00,80,00,08,80,00,C8,73,
16281715,000000A8,false,Rx,0,8,D3,09,00,00,00,0F,0F,04,
16282010,000000A9,false,Rx,0,8,B2,09,00,00,00,00,00,00,
16282203,000000AE,false,Rx,0,6,CD,08,80,60,00,36,00,00,
16282488,000000AA,false,Rx,0,8,B7,09,00,00,FF,FF,04,00,
16283880,000000C4,false,Rx,0,7,00,80,FD,00,80,F1,FF,00,
16286294,000000BA,false,Rx,0,7,03,FF,0F,00,00,5B,8E,00,
16286487,000000B5,false,Rx,0,8,85,0D,80,00,08,00,00,3A,
16286589,000001A2,false,Rx,0,2,00,00,00,00,00,00,00,00,
16291761,000000A8,false,Rx,0,8,D4,0A,00,00,00,0F,0F,04,
16292056,000000A9,false,Rx,0,8,B3,0A,00,00,00,00,00,00,
16292524,000000AA,false,Rx,0,8,B8,0A,00,00,FF,FF,04,00,
16293917,000000C4,false,Rx,0,7,00,80,FD,00,80,19,FF,00,
16296329,000000B5,false,Rx,0,8,86,0E,80,00,08,00,00,3A,
16298108,000000B6,false,Rx,0,5,3D,0D,80,00,F8,00,00,00,
16298575,0000019E,false,Rx,0,8,FF,FB,7F,00,30,F0,FF,3C,
16298864,000000CE,false,Rx,0,8,00,00,00,00,00,00,00,00,
16299063,000002B2,false,Rx,0,6,FF,FF,FF,FF,05,80,00,00,
16299256,000001A0,false,Rx,0,8,00,80,00,08,80,00,D8,83,
16300284,00000192,false,Rx,0,4,6A,00,80,F1,00,00,00,00,
16301766,000000A8,false,Rx,0,8,D5,0B,00,00,00,0F,0F,04,
16301976,000000AE,false,Rx,0,6,CE,09,80,60,00,36,00,00,
16302177,000000A9,false,Rx,0,8,B4,0B,00,00,00,00,00,00,
16302462,000000AA,false,Rx,0,8,B9,0B,00,00,FF,FF,04,00,
16303578,00000492,false,Rx,0,8,18,52,FF,01,00,00,02,04,
16303957,000000C4,false,Rx,0,7,00,80,FD,00,80,41,FF,00,
16307024,000000BA,false,Rx,0,7,03,FF,0F,00,00,4D,80,00,
16307129,000000B5,false,Rx,0,8,78,00,80,00,08,00,00,3A,
16307224,000001A2,false,Rx,0,2,00,00,00,00,00,00,00,00,
16312034,000000A8,false,Rx,0,8,D6,0C,00,00,00,0F,0F,04,
16312319,000000A9,false,Rx,0,8,B5,0C,00,00,00,00,00,00,
16312603,000000AA,false,Rx,0,8,BA,0C,00,00,FF,FF,04,00,
16313906,000000C4,false,Rx,0,7,00,80,FD,00,80,69,FF,00,
16316409,000000B5,false,Rx,0,8,79,01,80,00,08,00,00,3A,
16318094,000000B6,false,Rx,0,5,3E,0E,80,00,F8,00,00,00,
16318379,0000019E,false,Rx,0,8,FF,FB,7F,00,30,F0,FF,3C,
16318573,000000CE,false,Rx,0,8,00,00,00,00,00,00,00,00,
16318766,000002B2,false,Rx,0,6,FF,FF,FF,FF,05,80,00,00,
16319060,000001A0,false,Rx,0,8,00,80,00,08,80,00,E8,93,
16321740,000000A8,false,Rx,0,8,D7,0D,00,00,00,0F,0F,04,
16322034,000000A9,false,Rx,0,8,B6,0D,00,00,00,00,00,00,
16322227,000000AE,false,Rx,0,6,D0,0A,80,60,00,37,00,00,
16322420,000000AA,false,Rx,0,8,BB,0D,00,00,FF,FF,04,00,
16322614,00000130,false,Rx,0,5,41,43,35,3F,04,00,00,00,
16323825,000000C4,false,Rx,0,7,00,80,FD,00,80,91,FF,00,
16326420,000000BA,false,Rx,0,7,03,FF,0F,00,00,4E,81,00,
16326614,000000B5,false,Rx,0,8,7A,02,80,00,08,00,00,3A,
16326715,000001A2,false,Rx,0,2,00,00,00,00,00,00,00,00,
16330237,00000192,false,Rx,0,4,6A,00,80,F2,00,00,00,00,
16331719,000000A8,false,Rx,0,8,D8,0E,00,00,00,0F,0F,04,
16332015,000000A9,false,Rx,0,8,B7,0E,00,00,00,00,00,00,
16332300,000000AA,false,Rx,0,8,BC,0E,00,00,FF,FF,04,00,
16333872,000000C4,false,Rx,0,7,00,80,FD,00,80,B9,FF,00,
16333973,00000194,false,Rx,0,4,75,F7,80,FC,00,00,00,00,
16336388,000000B5,false,Rx,0,8,7B,03,80,00,08,00,00,3A,
16338154,000000B6,false,Rx,0,5,30,00,80,00,F8,00,00,00,
16338347,0000019E,false,Rx,0,8,FF,FB,7F,00,30,F0,FF,3C,
16338632,000000CE,false,Rx,0,8,00,00,00,00,00,00,00,00,
16338919,000001A6,false,Rx,0,2,00,00,00,00,00,00,00,00,
16339119,000002B2,false,Rx,0,6,FF,FF,FF,FF,05,80,00,00,
16339312,000001A0,false,Rx,0,8,00,80,00,08,80,00,08,B2,
16341718,000000A8,false,Rx,0,8,CA,00,00,00,00,0F,0F,04,
16342013,000000A9,false,Rx,0,8,A9,00,00,00,00,00,00,00,
16342206,000000AE,false,Rx,0,6,D1,0B,80,60,00,37,00,00,
16342489,000000AA,false,Rx,0,8,AE,00,00,00,FF,FF,04,00,
16343882,000000C4,false,Rx,0,7,00,80,FD,00,80,E1,FF,00,
16346296,000000BA,false,Rx,0,7,03,FF,0F,00,00,4F,82,00,
16346582,000000B5,false,Rx,0,8,7C,04,80,00,08,00,00,3A,
16346683,000001A2,false,Rx,0,2,00,00,00,00,00,00,00,00,
16347706,000005E0,false,Rx,0,8,10,00,00,02,00,FF,FF,FF,
16351594,000001D0,false,Rx,0,8,40,FF,00,C9,00,00,FD,00,
16351881,000000A8,false,Rx,0,8,CB,01,00,00,00,0F,0F,04,
16352083,000000A9,false,Rx,0,8,AA,01,00,00,00,00,00,00,
16352368,000000AA,false,Rx,0,8,AF,01,00,00,FF,FF,04,00,
16353853,000000C4,false,Rx,0,7,00,80,FD,00,80,09,FF,00,
16356448,000000B5,false,Rx,0,8,7D,05,80,00,08,00,00,3A,
16358122,000000B6,false,Rx,0,5,31,01,80,00,F8,00,00,00,
16358333,0000019E,false,Rx,0,8,FF,FB,7F,00,30,F0,FF,3C,
16358625,000000CE,false,Rx,0,8,00,00,00,00,00,00,00,00,
16358819,00000192,false,Rx,0,4,6A,00,80,F3,00,00,00,00,
16359030,000002B2,false,Rx,0,6,FF,FF,FF,FF,05,80,00,00,
16359238,000001A0,false,Rx,0,8,00,80,00,08,80,00,18,C2,
16361784,000000A8,false,Rx,0,8,CC,02,00,00,00,0F,0F,04,
16361977,000000A9,false,Rx,0,8,AB,02,00,00,00,00,00,00,
16362453,000000AA,false,Rx,0,8,B0,02,00,00,FF,FF,04,00,
16362924,000000AE,false,Rx,0,6,D2,0C,80,60,00,37,00,00,
16363859,000000C4,false,Rx,0,7,00,80,FD,00,80,31,FF,00,
16366390,000000BA,false,Rx,0,7,03,FF,0F,00,00,50,83,00,
16366583,000000B5,false,Rx,0,8,7E,06,80,00,08,00,00,3A,
16366775,000001A2,false,Rx,0,2,00,00,00,00,00,00,00,00,
16371702,000000A8,false,Rx,0,8,CD,03,00,00,00,0F,0F,04,
16371998,000000A9,false,Rx,0,8,AC,03,00,00,00,00,00,00,
16372282,000000AA,false,Rx,0,8,B1,03,00,00,FF,FF,04,00,
16373859,000000C4,false,Rx,0,7,00,80,FD,00,80,59,FF,00,
16376270,000000B5,false,Rx,0,8,7F,07,80,00,08,00,00,3A,
16378129,000000B6,false,Rx,0,5,32,02,80,00,F8,00,00,00,
16378322,0000019E,false,Rx,0,8,FF,FB,7F,00,30,F0,FF,3C,
16378608,000000CE,false,Rx,0,8,00,00,00,00,00,00,00,00,
16378806,000002B2,false,Rx,0,6,FF,FF,FF,FF,05,80,00,00,
16379007,000001A0,false,Rx,0,8,00,80,00,08,80,00,28,D2,
16381780,000000A8,false,Rx,0,8,CE,04,00,00,00,0F,0F,04,
16382072,000000A9,false,Rx,0,8,AD,04,00,00,00,00,00,00,
16382263,000000AE,false,Rx,0,6,D3,0D,80,60,00,37,00,00,
16382456,000000AA,false,Rx,0,8,B2,04,00,00,FF,FF,04,00,
16384133,000000C4,false,Rx,0,7,00,80,FD,00,80,81,FF,00,
16386628,000000B5,false,Rx,0,8,80,08,80,00,08,00,00,3A,
16386916,000000BA,false,Rx,0,7,03,FF,0F,00,00,51,84,00,
16387026,000001A2,false,Rx,0,2,00,00,00,00,00,00,00,00,
16388233,00000192,false,Rx,0,4,6A,00,80,F4,00,00,00,00,
16391743,000000A8,false,Rx,0,8,CF,05,00,00,00,0F,0F,04,
16392038,000000A9,false,Rx,0,8,AE,05,00,00,00,00,00,00,
16392323,000000AA,false,Rx,0,8,B3,05,00,00,FF,FF,04,00,
16393899,000000C4,false,Rx,0,7,00,80,FD,00,80,A9,FF,00,
16396221,00000498,false,Rx,0,8,29,42,FF,FF,FF,FF,FF,FF,
16396512,000000B5,false,Rx,0,8,81,09,80,00,08,00,00,3A,
16398097,000000B6,false,Rx,0,5,33,03,80,00,F8,00,00,00,
16398382,0000019E,false,Rx,0,8,FF,FB,7F,00,30,F0,FF,3C,
16398575,000000CE,false,Rx,0,8,00,00,00,00,00,00,00,00,
16398864,000002B2,false,Rx,0,6,FF,FF,FF,FF,05,80,00,00,
16399065,000001A0,false,Rx,0,8,00,80,00,08,80,00,38,E2,
16401741,000000A8,false,Rx,0,8,D0,06,00,00,00,0F,0F,04,
16402038,000000A9,false,Rx,0,8,AF,06,00,00,00,00,00,00,
16402505,000000AA,false,Rx,0,8,B4,06,00,00,FF,FF,04,00,
16402699,000000AE,false,Rx,0,6,D4,0E,80,60,00,37,00,00,
16403841,000000C4,false,Rx,0,7,00,80,FD,00,80,D1,FF,00,
16406156,000001D2,false,Rx,0,5,F0,0C,80,8C,F0,00,00,00,
16406349,000000BA,false,Rx,0,7,03,FF,0F,00,00,52,85,00,
16406541,000000B5,false,Rx,0,8,82,0A,80,00,08,00,00,3A,
16406733,000001A2,false,Rx,0,2,00,00,00,00,00,00,00,00,
16411758,000000A8,false,Rx,0,8,D1,07,00,00,00,0F,0F,04,
16412065,000000A9,false,Rx,0,8,B0,07,00,00,00,00,00,00,
16412258,000000AA,false,Rx,0,8,B5,07,00,00,FF,FF,04,00,
16413832,000000C4,false,Rx,0,7,00,80,FD,00,80,F9,FF,00,
16416328,000000B5,false,Rx,0,8,83,0B,80,00,08,00,00,3A,
16417808,00000192,false,Rx,0,4,6A,00,80,F5,00,00,00,00,
16418100,000000B6,false,Rx,0,5,34,04,80,00,F8,00,00,00,
16418293,0000019E,false,Rx,0,8,FF,FB,7F,00,30,F0,FF,3C,
16418576,000000CE,false,Rx,0,8,00,00,00,00,00,00,00,00,
16418768,000002B2,false,Rx,0,6,FF,FF,FF,FF,05,80,00,00,
16419063,000001A0,false,Rx,0,8,00,80,00,08,80,00,48,F2,
16421732,000000A8,false,Rx,0,8,D2,08,00,00,00,0F,0F,04,
16421929,00000130,false,Rx,0,5,41,43,35,3F,15,00,00,00,
16422130,000000A9,false,Rx,0,8,B1,08,00,00,00,00,00,00,
16422322,000000AE,false,Rx,0,6,C6,00,80,60,00,37,00,00,
16422606,000000AA,false,Rx,0,8,B6,08,00,00,FF,FF,04,00,
16423813,000000C4,false,Rx,0,7,00,80,FD,00,80,21,FF,00,
16426306,000000BA,false,Rx,0,7,03,FF,0F,00,00,53,86,00,
16426590,000000B5,false,Rx,0,8,84,0C,80,00,08,00,00,3A,
16426691,000001A2,false,Rx,0,2,00,00,00,00,00,00,00,00,
16431762,000000A8,false,Rx,0,8,D3,09,00,00,00,0F,0F,04,
16432056,000000A9,false,Rx,0,8,B2,09,00,00,00,00,00,00,
16432249,000000AA,false,Rx,0,8,B7,09,00,00,FF,FF,04,00,
16434100,000000C4,false,Rx,0,7,00,80,FD,00,80,49,FF,00,
16436313,000000B5,false,Rx,0,8,85,0D,80,00,08,00,00,3A,
16438072,000001A6,false,Rx,0,2,00,00,00,00,00,00,00,00,
16438264,000000B6,false,Rx,0,5,35,05,80,00,F8,00,00,00,
16438547,0000019E,false,Rx,0,8,FF,FB,8F,00,30,F0,FF,4C,
16439023,000000CE,false,Rx,0,8,00,00,00,00,00,00,00,00,
16439216,000002B2,false,Rx,0,6,FF,FF,FF,FF,05,80,00,00,
16439500,000001A0,false,Rx,0,8,00,80,00,08,80,00,58,03,
16441713,000000A8,false,Rx,0,8,D4,0A,00,00,00,0F,0F,04,
16442009,000000A9,false,Rx,0,8,B3,0A,00,00,00,00,00,00,
16442201,000000AE,false,Rx,0,6,C7,01,80,60,00,37,00,00,
16442485,000000AA,false,Rx,0,8,B8,0A,00,00,FF,FF,04,00,
16443872,000000C4,false,Rx,0,7,00,80,FD,00,80,71,FF,00,
16446003,00000192,false,Rx,0,4,6A,00,80,F6,00,00,00,00,
16446377,000000BA,false,Rx,0,7,03,FF,0F,00,00,54,87,00,
16446570,000000B5,false,Rx,0,8,86,0E,80,00,08,00,00,3A,
16446761,000001A2,false,Rx,0,2,00,00,00,00,00,00,00,00,
16451644,000001D0,false,Rx,0,8,40,FF,01,C9,00,00,FD,00,
16451840,000000A8,false,Rx,0,8,D5,0B,00,00,00,0F,0F,04,
16452133,000000A9,false,Rx,0,8,B4,0B,00,00,00,00,00,00,
16452417,000000AA,false,Rx,0,8,B9,0B,00,00,FF,FF,04,00,
16453806,000000C4,false,Rx,0,7,00,80,FD,00,80,99,FF,00,
16456392,000000B5,false,Rx,0,8,78,00,80,00,08,00,00,3A,
16458061,000000B6,false,Rx,0,5,36,06,80,00,F8,00,00,00,
16458345,0000019E,false,Rx,0,8,FF,FB,8F,00,30,F0,FF,4C,
16458538,000000CE,false,Rx,0,8,00,00,00,00,00,00,00,00,
16458730,000002B2,false,Rx,0,6,FF,FF,FF,FF,05,80,00,00,
16459760,000001A0,false,Rx,0,8,00,80,00,08,80,00,68,13,
16461784,000000A8,false,Rx,0,8,D6,0C,00,00,00,0F,0F,04,
16461977,000000A9,false,Rx,0,8,B5,0C,00,00,00,00,00,00,
16462177,000000AE,false,Rx,0,6,C8,02,80,60,00,37,00,00,
16462460,000000AA,false,Rx,0,8,BA,0C,00,00,FF,FF,04,00,
16463850,000000C4,false,Rx,0,7,00,80,FD,00,80,C1,FF,00,
16466436,000000BA,false,Rx,0,7,03,FF,0F,00,00,55,88,00,
16466628,000000B5,false,Rx,0,8,79,01,80,00,08,00,00,3A,
16466825,000001A2,false,Rx,0,2,00,00,00,00,00,00,00,00,
16471755,000000A8,false,Rx,0,8,D7,0D,00,00,00,0F,0F,04,
16472049,000000A9,false,Rx,0,8,B6,0D,00,00,00,00,00,00,
16472242,000000AA,false,Rx,0,8,BB,0D,00,00,FF,FF,04,00,
16474094,000000C4,false,Rx,0,7,00,80,FD,00,80,E9,FF,00,
16475297,00000192,false,Rx,0,4,6A,00,80,F7,00,00,00,00,
16476409,000000B5,false,Rx,0,8,7A,02,80,00,08,00,00,3A,
16478167,000000B6,false,Rx,0,5,37,07,80,00,F8,00,00,00,
16478359,0000019E,false,Rx,0,8,FF,FB,8F,00,30,F0,FF,4C,
16478644,000000CE,false,Rx,0,8,00,00,00,00,00,00,00,00,
16478839,000002B2,false,Rx,0,6,FF,FF,FF,FF,05,80,00,00,
16479040,000001A0,false,Rx,0,8,00,80,00,08,80,00,78,23,
16479324,000004A9,false,Rx,0,8,2A,52,FF,FF,FF,FF,FF,FF,
16481720,000000A8,false,Rx,0,8,D8,0E,00,00,00,0F,0F,04,
16482015,000000A9,false,Rx,0,8,B7,0E,00,00,00,00,00,00,
16482207,000000AE,false,Rx,0,6,C9,03,80,60,00,37,00,00,
16482489,000000AA,false,Rx,0,8,BC,0E,00,00,FF,FF,04,00,
16483875,000000C4,false,Rx,0,7,00,80,FD,00,80,11,FF,00,
16486373,000000BA,false,Rx,0,7,03,FF,0F,00,00,56,89,00,
16486566,000000B5,false,Rx,0,8,7B,03,80,00,08,00,00,3A,
16486757,000001A2,false,Rx,0,2,00,00,00,00,00,00,00,00,
16491731,000000A8,false,Rx,0,8,CA,00,00,00,00,0F,0F,04,
16492025,000000A9,false,Rx,0,8,A9,00,00,00,00,00,00,00,
16492309,000000AA,false,Rx,0,8,AE,00,00,00,FF,FF,04,00,
16493881,000000C4,false,Rx,0,7,00,80,FD,00,80,39,FF,00,
16496289,000000B5,false,Rx,0,8,7C,04,80,00,08,00,00,3A,
16498147,000000B6,false,Rx,0,5,38,08,80,00,F8,00,00,00,
16498339,0000019E,false,Rx,0,8,FF,FB,8F,00,30,F0,FF,4C,
16498623,000000CE,false,Rx,0,8,00,00,00,00,00,00,00,00,
16498820,000002B2,false,Rx,0,6,FF,FF,FF,FF,05,80,00,00,
16499020,000001A0,false,Rx,0,8,00,80,00,08,80,00,88,33,
16501692,000000A8,false,Rx,0,8,CB,01,00,00,00,0F,0F,04,
16501978,000000A9,false,Rx,0,8,AA,01,00,00,00,00,00,00,
16502269,000000AA,false,Rx,0,8,AF,01,00,00,FF,FF,04,00,
16502461,000000AE,false,Rx,0,6,CA,04,80,60,00,37,00,00,
16503862,000000C4,false,Rx,0,7,00,80,FD,00,80,61,FF,00,
16504517,00000192,false,Rx,0,4,6A,00,80,F8,00,00,00,00,
16506458,000000BA,false,Rx,0,7,03,FF,0F,00,00,57,8A,00,
16506742,000000B5,false,Rx,0,8,7D,05,80,00,08,00,00,3A,
16506844,000001A2,false,Rx,0,2,00,00,00,00,00,00,00,00,
16507682,000005E0,false,Rx,0,8,10,00,00,02,00,FF,FF,FF,
16511764,000000A8,false,Rx,0,8,CC,02,00,00,00,0F,0F,04,
16511965,000000A9,false,Rx,0,8,AB,02,00,00,00,00,00,00,
16512497,000000AA,false,Rx,0,8,B0,02,00,00,FF,FF,04,00,
16513795,000000C4,false,Rx,0,7,00,80,FD,00,80,89,FF,00,
16516476,000000B5,false,Rx,0,8,7E,06,80,00,08,00,00,3A,
16518146,000000B6,false,Rx,0,5,39,09,80,00,F8,00,00,00,
16518339,0000019E,false,Rx,0,8,FF,FB,8F,00,30,F0,FF,4C,
16518623,000000CE,false,Rx,0,8,00,00,00,00,00,00,00,00,
16518820,000002B2,false,Rx,0,6,FF,FF,FF,FF,05,80,00,00,
16519020,000001A0,false,Rx,0,8,00,80,00,08,80,00,98,43,
16521691,000000A8,false,Rx,0,8,CD,03,00,00,00,0F,0F,04,
16521886,00000130,false,Rx,0,5,41,43,35,3F,36,00,00,00,
16522178,000000A9,false,Rx,0,8,AC,03,00,00,00,00,00,00,
16522370,000000AE,false,Rx,0,6,CC,05,80,60,00,38,00,00,
16522839,000000AA,false,Rx,0,8,B1,03,00,00,FF,FF,04,00,
16523859,000000C4,false,Rx,0,7,00,80,FD,00,80,B1,FF,00,
16526354,000000BA,false,Rx,0,7,03,FF,0F,00,00,58,8B,00,
16526637,000000B5,false,Rx,0,8,7F,07,80,00,08,00,00,3A,
16526739,000001A2,false,Rx,0,2,00,00,00,00,00,00,00,00,
16531731,000000A8,false,Rx,0,8,CE,04,00,00,00,0F,0F,04,
16532024,000000A9,false,Rx,0,8,AD,04,00,00,00,00,00,00,
16532308,000000AA,false,Rx,0,8,B2,04,00,00,FF,FF,04,00,
16533511,00000192,false,Rx,0,4,6A,00,80,F9,00,00,00,00,
16533796,000000C4,false,Rx,0,7,00,80,FD,00,80,D9,FF,00,
16535009,00000194,false,Rx,0,4,76,F8,80,FC,00,00,00,00,
16536394,000000B5,false,Rx,0,8,80,08,80,00,08,00,00,3A,
16538153,000000B6,false,Rx,0,5,3A,0A,80,00,F8,00,00,00,
16538346,0000019E,false,Rx,0,8,FF,FB,8F,00,30,F0,FF,4C,
16538629,000000CE,false,Rx,0,8,00,00,00,00,00,00,00,00,
16538731,000001A6,false,Rx,0,2,00,00,00,00,00,00,00,00,
16538925,000002B2,false,Rx,0,6,FF,FF,FF,FF,05,80,00,00,
16539399,000001A0,false,Rx,0,8,00,80,00,08,80,00,A8,53,
16541701,000000A8,false,Rx,0,8,CF,05,00,00,00,0F,0F,04,
16541997,000000A9,false,Rx,0,8,AE,05,00,00,00,00,00,00,
16542281,000000AA,false,Rx,0,8,B3,05,00,00,FF,FF,04,00,
16542473,000000AE,false,Rx,0,6,CD,06,80,60,00,38,00,00,
16543951,000000C4,false,Rx,0,7,00,80,FD,00,80,01,FF,00,
16546628,000000B5,false,Rx,0,8,81,09,80,00,08,00,00,3A,
16546825,000000BA,false,Rx,0,7,03,FF,0F,00,00,59,8C,00,
16547025,000001A2,false,Rx,0,2,00,00,00,00,00,00,00,00,
16551625,000001D0,false,Rx,0,8,40,FF,02,C9,00,00,FD,00,
16551820,000000A8,false,Rx,0,8,D0,06,00,00,00,0F,0F,04,
16552112,000000A9,false,Rx,0,8,AF,06,00,00,00,00,00,00,
16552396,000000AA,false,Rx,0,8,B4,06,00,00,FF,FF,04,00,
16553876,000000C4,false,Rx,0,7,00,80,FD,00,80,29,FF,00,
16556282,000000B5,false,Rx,0,8,82,0A,80,00,08,00,00,3A,
16558041,000000B6,false,Rx,0,5,3B,0B,80,00,F8,00,00,00,
16558323,0000019E,false,Rx,0,8,FF,FB,8F,00,30,F0,FF,4C,
16558516,000000CE,false,Rx,0,8,00,00,00,00,00,00,00,00,
