Time Stamp,ID,Extended,Dir,Bus,LEN,D1,D2,D3,D4,D5,D6,D7,D8
40765288,00000480,false,Rx,0,8,00,01,FF,21,00,02,02,01,
40776879,000003B4,false,Rx,0,8,C0,03,09,53,FE,04,31,16,
40786474,00000192,false,Rx,0,4,6A,00,FF,F4,00,00,00,00,
40814914,000001D6,false,Rx,0,2,FF,3F,00,00,00,00,00,00,
40820058,00000130,false,Rx,0,5,00,EF,34,3F,CE,00,00,00,
40822832,000000C4,false,Rx,0,7,00,80,FD,00,80,0F,FF,00,
40824863,000001D6,false,Rx,0,2,FF,3F,00,00,00,00,00,00,
40832737,000000C4,false,Rx,0,7,00,80,FD,00,80,37,FF,00,
40835136,00000480,false,Rx,0,8,00,02,FF,21,01,00,02,01,
40841951,00000192,false,Rx,0,4,6A,00,FF,F6,00,00,00,00,
40842791,000000C4,false,Rx,0,7,00,80,FD,00,80,5F,FF,00,
40848954,000001D6,false,Rx,0,2,C0,00,00,00,00,00,00,00,
40852737,000000C4,false,Rx,0,7,00,80,FD,00,80,87,FF,00,
40860395,00000130,false,Rx,0,5,80,EF,34,3F,60,00,00,00,
40863065,000000C4,false,Rx,0,7,00,80,FD,00,80,AF,FF,00,
40871444,00000192,false,Rx,0,4,6A,00,80,F7,00,00,00,00,
40872749,000000C4,false,Rx,0,7,00,80,FD,00,80,D7,FF,00,
40882734,000000C4,false,Rx,0,7,00,80,FD,00,80,FF,FF,00,
40888866,000001D6,false,Rx,0,2,C0,00,00,00,00,00,00,00,
40896193,000000B6,false,Rx,0,5,31,01,80,00,F8,00,00,00,
40896483,0000019E,false,Rx,0,8,FF,FB,0F,00,30,F3,FF,CE,
40896674,000000CE,false,Rx,0,8,00,80,00,80,00,80,00,80,
40896956,000002B2,false,Rx,0,6,FF,FF,FF,FF,05,80,00,00,
40897151,000001A0,false,Rx,0,8,FF,FF,00,08,80,00,18,42,
40899723,000000C4,false,Rx,0,7,00,80,FD,00,80,19,FF,00,
40900920,00000192,false,Rx,0,4,6A,00,80,F8,00,00,00,00,
40903033,000000C4,false,Rx,0,7,00,80,FD,00,80,98,FF,00,
40910087,00000130,false,Rx,0,5,80,EF,36,3F,91,00,00,00,
40913019,000000C4,false,Rx,0,7,00,80,FD,00,80,C0,FF,00,
40916048,000000B6,false,Rx,0,5,32,02,80,00,F8,00,00,00,
40916338,0000019E,false,Rx,0,8,FF,FB,0F,00,30,F3,FF,CE,
40916530,000000CE,false,Rx,0,8,00,80,00,80,00,80,00,80,
40916812,000002B2,false,Rx,0,6,FF,FF,FF,FF,05,80,00,00,
40917004,000001A0,false,Rx,0,8,FF,FF,00,08,80,00,28,52,
40917297,000004A9,false,Rx,0,8,29,01,FF,FF,FF,FF,FF,FF,
40923253,000000C4,false,Rx,0,7,00,80,FD,00,80,E8,FF,00,
40930438,00000192,false,Rx,0,4,6A,00,80,F9,00,00,00,00,
40932969,000000C4,false,Rx,0,7,00,80,FD,00,80,10,FF,00,
40936015,000000B6,false,Rx,0,5,33,03,80,00,F8,00,00,00,
40936209,0000019E,false,Rx,0,8,FF,FB,0F,00,30,F3,FF,CE,
40936500,000000CE,false,Rx,0,8,00,80,00,80,00,80,00,80,
40936693,000002B2,false,Rx,0,6,FF,FF,FF,FF,05,80,00,00,
40936977,000001A0,false,Rx,0,8,FF,FF,00,08,80,00,38,62,
40940850,000001D6,false,Rx,0,2,C0,00,00,00,00,00,00,00,
40943068,000000C4,false,Rx,0,7,00,80,FD,00,80,38,FF,00,
40948961,000004AA,false,Rx,0,8,2A,01,FF,FF,FF,FF,FF,FF,
40953022,000000C4,false,Rx,0,7,00,80,FD,00,80,60,FF,00,
40956072,000000B6,false,Rx,0,5,34,04,80,00,F8,00,00,00,
40956283,0000019E,false,Rx,0,8,FF,FB,0F,00,30,F3,FF,CE,
40956567,000005A9,false,Rx,0,8,40,4A,00,00,FF,FF,FF,FF,
40956760,000000CE,false,Rx,0,8,00,80,00,80,00,80,00,80,
40956953,000002B2,false,Rx,0,6,FF,FF,FF,FF,05,80,00,00,
40957248,000001A0,false,Rx,0,8,FF,FF,00,08,80,00,48,72,
40958362,000000AE,false,Rx,0,6,70,00,80,50,C0,30,00,00,
40959193,00000192,false,Rx,0,4,6A,00,80,FA,00,00,00,00,
40961506,00000130,false,Rx,0,5,41,43,35,3F,E2,00,00,00,
40962985,000000C4,false,Rx,0,7,00,80,FD,00,80,88,FF,00,
40964655,00000194,false,Rx,0,4,6E,F0,80,FC,00,00,00,00,
40973300,000000C4,false,Rx,0,7,00,80,FD,00,80,B0,FF,00,
40976055,000000B6,false,Rx,0,5,35,05,80,00,F8,00,00,00,
40976255,0000019E,false,Rx,0,8,FF,FB,0F,00,30,F3,FF,CE,
40976537,000000CE,false,Rx,0,8,00,80,00,80,00,80,00,80,
40976643,000001A6,false,Rx,0,2,FF,FF,00,00,00,00,00,00,
40976924,000002B2,false,Rx,0,6,FF,FF,FF,FF,05,80,00,00,
40977118,000001A0,false,Rx,0,8,FF,FF,00,08,80,00,58,82,
40978324,000000AE,false,Rx,0,6,B0,01,80,50,00,30,00,00,
40982993,000000C4,false,Rx,0,7,00,80,FD,00,80,D8,FF,00,
40985748,00000380,false,Rx,0,7,44,44,37,38,35,35,37,00,
40986764,00000388,false,Rx,0,7,01,01,68,25,F2,01,24,00,
40987871,00000330,false,Rx,0,8,FF,FF,FF,FF,FF,FF,F3,FF,
40988618,00000192,false,Rx,0,4,6A,00,80,FB,00,00,00,00,
40990457,000002F8,false,Rx,0,8,FF,FF,FF,FF,FF,FF,FF,F0,
40990829,000001D6,false,Rx,0,2,C0,00,00,00,00,00,00,00,
40991392,0000023A,false,Rx,0,4,22,FF,00,FF,00,00,00,00,
40993043,000000C4,false,Rx,0,7,00,80,FD,00,80,00,FF,00,
40996068,000000B6,false,Rx,0,5,36,06,80,00,F8,00,00,00,
40996268,0000019E,false,Rx,0,8,FF,FB,0F,00,30,F3,FF,CE,
40996551,000000CE,false,Rx,0,8,00,80,00,80,00,80,00,80,
40996742,000002B2,false,Rx,0,6,FF,FF,FF,FF,05,80,00,00,
40997025,000001A0,false,Rx,0,8,FF,FF,00,08,80,00,68,92,
40997217,000003B4,false,Rx,0,8,B9,03,09,53,FE,04,31,16,
40997505,000004A9,false,Rx,0,8,2A,02,FF,FF,FF,FF,FF,FF,
40998431,000000AE,false,Rx,0,6,B1,02,80,50,00,30,00,00,
41003005,000000C4,false,Rx,0,7,00,80,FD,00,80,28,FF,00,
41012980,000000C4,false,Rx,0,7,00,80,FD,00,80,50,FF,00,
41016098,000000B6,false,Rx,0,5,37,07,80,00,F8,00,00,00,
41016298,0000019E,false,Rx,0,8,FF,FB,0F,00,30,F3,FF,CE,
41016580,000000CE,false,Rx,0,8,00,80,00,80,00,80,00,80,
41016772,000002B2,false,Rx,0,6,FF,FF,FF,FF,05,80,00,00,
41016963,000001A0,false,Rx,0,8,FF,FF,00,08,80,00,78,A2,
41018074,00000192,false,Rx,0,4,6A,00,80,FC,00,00,00,00,
41018545,000000AE,false,Rx,0,6,B2,03,80,50,00,30,00,00,
41022948,000000C4,false,Rx,0,7,00,80,FD,00,80,78,FF,00,
41033081,000000C4,false,Rx,0,7,00,80,FD,00,80,A0,FF,00,
41036037,000000B6,false,Rx,0,5,38,08,80,00,F8,00,00,00,
41036326,0000019E,false,Rx,0,8,FF,FB,0F,00,30,F3,FF,CE,
41036518,000005A9,false,Rx,0,8,40,EC,00,00,FF,FF,FF,FF,
41036799,000000CE,false,Rx,0,8,00,80,00,80,00,80,00,80,
41036991,000002B2,false,Rx,0,6,FF,FF,FF,FF,05,80,00,00,
41037187,000001A0,false,Rx,0,8,FF,FF,00,08,80,00,88,B2,
41038482,000000AE,false,Rx,0,6,B3,04,80,50,00,30,00,00,
41040133,000001D6,false,Rx,0,2,C0,00,00,00,00,00,00,00,
41042976,000000C4,false,Rx,0,7,00,80,FD,00,80,C8,FF,00,
41048108,00000192,false,Rx,0,4,6A,00,80,FD,00,00,00,00,
41053055,000000C4,false,Rx,0,7,00,80,FD,00,80,F0,FF,00,
41055989,000000B6,false,Rx,0,5,39,09,80,00,F8,00,00,00,
41056290,0000019E,false,Rx,0,8,FF,FB,0F,00,30,F0,FF,CB,
41056482,000000CE,false,Rx,0,8,00,80,00,80,00,80,00,80,
41056673,000002B2,false,Rx,0,6,FF,FF,FF,FF,05,80,00,00,
41056955,000001A0,false,Rx,0,8,FF,FF,00,08,80,00,98,C2,
41058529,000000AE,false,Rx,0,6,B4,05,80,50,00,30,00,00,
41060371,00000130,false,Rx,0,5,41,43,35,3F,F3,00,00,00,
41063026,000000C4,false,Rx,0,7,00,80,FD,00,80,18,FF,00,
41073020,000000C4,false,Rx,0,7,00,80,FD,00,80,40,FF,00,
41076068,000000B6,false,Rx,0,5,3A,0A,80,00,F8,00,00,00,
41076266,0000019E,false,Rx,0,8,FF,FB,1F,00,30,F0,FF,DB,
41076550,000000CE,false,Rx,0,8,00,80,00,80,00,80,00,80,
41076664,000001A6,false,Rx,0,2,FF,FF,00,00,00,00,00,00,
41076856,000002B2,false,Rx,0,6,FF,FF,FF,FF,05,80,00,00,
41077143,000001A0,false,Rx,0,8,FF,FF,00,08,80,00,A8,D2,
41077980,00000192,false,Rx,0,4,6A,00,80,FE,00,00,00,00,
41078455,000000AE,false,Rx,0,6,B5,06,80,50,00,30,00,00,
41082966,000000C4,false,Rx,0,7,00,80,FD,00,80,68,FF,00,
41088496,00000310,false,Rx,0,7,FF,73,13,74,00,FF,FF,00,
41088871,000004AA,false,Rx,0,8,29,02,FF,FF,FF,FF,FF,FF,
41093022,000000C4,false,Rx,0,7,00,80,FD,00,80,90,FF,00,
41095246,00000480,false,Rx,0,8,29,01,FF,01,00,00,02,01,
41096080,000000B6,false,Rx,0,5,3B,0B,80,00,F8,00,00,00,
41096281,0000019E,false,Rx,0,8,FF,FB,1F,00,30,F0,FF,DB,
41096565,000000CE,false,Rx,0,8,00,80,00,80,00,80,00,80,
41096757,000002B2,false,Rx,0,6,FF,FF,FF,FF,05,80,00,00,
41096949,000001A0,false,Rx,0,8,FF,FF,00,08,80,00,B8,E2,
41098530,000000AE,false,Rx,0,6,B6,07,80,50,00,30,00,00,
41103219,000000C4,false,Rx,0,7,00,80,FD,00,80,B8,FF,00,
41107469,00000192,false,Rx,0,4,6A,00,80,F1,00,00,00,00,
41113086,000000C4,false,Rx,0,7,00,80,FD,00,80,E0,FF,00,
41116038,000000B6,false,Rx,0,5,3C,0C,80,00,F8,00,00,00,
41116328,0000019E,false,Rx,0,8,FF,FB,1F,00,30,F0,FF,DB,
41116521,000005A9,false,Rx,0,8,40,ED,00,00,FF,FF,FF,FF,
41116804,000000CE,false,Rx,0,8,00,80,00,80,00,80,00,80,
41116998,000002B2,false,Rx,0,6,FF,FF,FF,FF,05,80,00,00,
41117193,000001A0,false,Rx,0,8,FF,FF,00,08,80,00,C8,F2,
41118494,000000AE,false,Rx,0,6,B7,08,80,50,00,30,00,00,
41123041,000000C4,false,Rx,0,7,00,80,FD,00,80,08,FF,00,
41133028,000000C4,false,Rx,0,7,00,80,FD,00,80,30,FF,00,
41136080,000000B6,false,Rx,0,5,3D,0D,80,00,F8,00,00,00,
41136280,0000019E,false,Rx,0,8,FF,FB,1F,00,30,F0,FF,DB,
41136472,000000CE,false,Rx,0,8,00,80,00,80,00,80,00,80,
41136753,000002B2,false,Rx,0,6,FF,FF,FF,FF,05,80,00,00,
41136945,000001A0,false,Rx,0,8,FF,FF,00,08,80,00,D8,02,
41137793,00000192,false,Rx,0,4,6A,00,80,F2,00,00,00,00,
41138537,000000AE,false,Rx,0,6,B8,09,80,50,00,30,00,00,
41143020,000000C4,false,Rx,0,7,00,80,FD,00,80,58,FF,00,
41152999,000000C4,false,Rx,0,7,00,80,FD,00,80,80,FF,00,
41156043,000000B6,false,Rx,0,5,3E,0E,80,00,F8,00,00,00,
41156243,0000019E,false,Rx,0,8,FF,FB,1F,00,30,F0,FF,DB,
41156526,000000CE,false,Rx,0,8,00,80,00,80,00,80,00,80,
41156718,000002B2,false,Rx,0,6,FF,FF,FF,FF,05,80,00,00,
41156910,000001A0,false,Rx,0,8,FF,FF,00,08,80,00,E8,13,
41158569,000000AE,false,Rx,0,6,BA,0A,80,50,00,31,00,00,
41160316,00000130,false,Rx,0,5,41,43,35,3F,04,00,00,00,
41162974,000000C4,false,Rx,0,7,00,80,FD,00,80,A8,FF,00,
41164638,00000194,false,Rx,0,4,6F,F1,80,FC,00,00,00,00,
41165834,00000192,false,Rx,0,4,6A,00,80,F3,00,00,00,00,
41173039,000000C4,false,Rx,0,7,00,80,FD,00,80,D0,FF,00,
41175998,000000B6,false,Rx,0,5,30,00,80,00,F8,00,00,00,
41176289,0000019E,false,Rx,0,8,FF,FB,1F,00,30,F0,FF,DB,
41176482,000000CE,false,Rx,0,8,00,80,00,80,00,80,00,80,
41176682,000001A6,false,Rx,0,2,FF,FF,00,00,00,00,00,00,
41176875,000002B2,false,Rx,0,6,FF,FF,FF,FF,05,80,00,00,
41177070,000001A0,false,Rx,0,8,FF,FF,00,08,80,00,08,32,
41177361,000004A9,false,Rx,0,8,2A,02,FF,FF,FF,FF,FF,FF,
41178565,000000AE,false,Rx,0,6,BB,0B,80,50,00,31,00,00,
41183544,000000C4,false,Rx,0,7,00,80,FD,00,80,FA,FF,00,
41187506,00000330,false,Rx,0,8,FF,FF,FF,FF,FF,FF,F3,FF,
41188802,000002F8,false,Rx,0,8,FF,FF,FF,FF,FF,FF,FF,F0,
41193500,000000C4,false,Rx,0,7,00,80,FD,00,80,21,FF,00,
41195719,00000192,false,Rx,0,4,6A,00,80,F4,00,00,00,00,
41196095,000000B6,false,Rx,0,5,31,01,80,00,F8,00,00,00,
41196296,0000019E,false,Rx,0,8,FF,FB,1F,00,30,F0,FF,DB,
41196579,000005A9,false,Rx,0,8,40,24,00,00,FF,FF,FF,FF,
41196771,000000CE,false,Rx,0,8,00,80,00,80,00,80,00,80,
41197058,000002B2,false,Rx,0,6,FF,FF,FF,FF,05,80,00,00,
41197258,000001A0,false,Rx,0,8,FF,FF,00,08,80,00,18,42,
41198555,000000AE,false,Rx,0,6,BC,0C,80,50,00,31,00,00,
41203258,000000C4,false,Rx,0,7,00,80,FD,00,80,48,FF,00,
41213010,000000C4,false,Rx,0,7,00,80,FD,00,80,70,FF,00,
41216055,000000B6,false,Rx,0,5,32,02,80,00,F8,00,00,00,
41216256,0000019E,false,Rx,0,8,FF,FB,1F,00,30,F0,FF,DB,
41216540,000000CE,false,Rx,0,8,00,80,00,80,00,80,00,80,
41216732,000002B2,false,Rx,0,6,FF,FF,FF,FF,05,80,00,00,
41216924,000001A0,false,Rx,0,8,FF,FF,00,08,80,00,28,52,
41218682,000000AE,false,Rx,0,6,BD,0D,80,50,00,31,00,00,
41223655,000000C4,false,Rx,0,7,00,80,FD,00,80,98,FF,00,
41224683,00000192,false,Rx,0,4,6A,00,80,F5,00,00,00,00,
41233021,000000C4,false,Rx,0,7,00,80,FD,00,80,C0,FF,00,
41236049,000000B6,false,Rx,0,5,33,03,80,00,F8,00,00,00,
41236246,0000019E,false,Rx,0,8,FF,FB,1F,00,30,F0,FF,DB,
41236529,000000CE,false,Rx,0,8,00,80,00,80,00,80,00,80,
41236722,000002B2,false,Rx,0,6,FF,FF,FF,FF,05,80,00,00,
41237004,000001A0,false,Rx,0,8,FF,FF,00,08,80,00,38,62,
41238690,000000AE,false,Rx,0,6,BE,0E,80,50,00,31,00,00,
41243015,000000C4,false,Rx,0,7,00,80,FD,00,80,E8,FF,00,
41252993,000000C4,false,Rx,0,7,00,80,FD,00,80,10,FF,00,
41253465,00000192,false,Rx,0,4,6A,00,80,F6,00,00,00,00,
41256043,000000B6,false,Rx,0,5,34,04,80,00,F8,00,00,00,
41256242,0000019E,false,Rx,0,8,FF,FB,1F,00,30,F0,FF,DB,
41256433,000000CE,false,Rx,0,8,00,80,00,80,00,80,00,80,
41256715,000002B2,false,Rx,0,6,FF,FF,FF,FF,05,80,00,00,
41256907,000001A0,false,Rx,0,8,FF,FF,00,08,80,00,48,72,
41258658,000000AE,false,Rx,0,6,B0,00,80,50,00,31,00,00,
41260036,00000130,false,Rx,0,5,41,43,35,3F,15,00,00,00,
41262968,000000C4,false,Rx,0,7,00,80,FD,00,80,38,FF,00,
41269107,000004AA,false,Rx,0,8,00,02,FF,FF,FF,FF,FF,FF,
41273049,000000C4,false,Rx,0,7,00,80,FD,00,80,60,FF,00,
41273519,000005E0,false,Rx,0,8,10,00,00,01,00,FF,FF,FF,
41276075,000000B6,false,Rx,0,5,35,05,80,00,F8,00,00,00,
41276279,0000019E,false,Rx,0,8,FF,FB,2F,00,30,F0,FF,EB,
41276380,000001A6,false,Rx,0,2,FF,FF,00,00,00,00,00,00,
41276677,000005A9,false,Rx,0,8,40,23,00,00,FF,FF,FF,FF,
41276869,000000CE,false,Rx,0,8,00,80,00,80,00,80,00,80,
41277155,000002B2,false,Rx,0,6,FF,FF,FF,FF,05,80,00,00,
41277356,000001A0,false,Rx,0,8,FF,FF,00,08,80,00,58,82,
41278649,000000AE,false,Rx,0,6,B1,01,80,50,00,31,00,00,
41282453,00000192,false,Rx,0,4,6A,00,80,F7,00,00,00,00,
41283009,000000C4,false,Rx,0,7,00,80,FD,00,80,88,FF,00,
41287713,00000330,false,Rx,0,8,BA,61,03,FF,FF,FF,F3,FF,
41288825,000002F8,false,Rx,0,8,FF,FF,FF,FF,FF,FF,FF,F2,
41293068,000000C4,false,Rx,0,7,00,80,FD,00,80,B0,FF,00,
41296081,000000B6,false,Rx,0,5,36,06,80,00,F8,00,00,00,
41296281,0000019E,false,Rx,0,8,FF,FB,2F,00,30,F0,FF,EB,
41296562,000000CE,false,Rx,0,8,00,80,00,80,00,80,00,80,
41296754,000002B2,false,Rx,0,6,FF,FF,FF,FF,05,80,00,00,
41297038,000001A0,false,Rx,0,8,FF,FF,00,08,80,00,68,92,
41298697,000000AE,false,Rx,0,6,B2,02,80,50,00,31,00,00,
41303005,000000C4,false,Rx,0,7,00,80,FD,00,80,D8,FF,00,
41311883,00000192,false,Rx,0,4,6A,00,80,F8,00,00,00,00,
41313082,000000C4,false,Rx,0,7,00,80,FD,00,80,00,FF,00,
41316016,000000B6,false,Rx,0,5,37,07,80,00,F8,00,00,00,
41316305,0000019E,false,Rx,0,8,FF,FB,2F,00,30,F0,FF,EB,
41316497,000000CE,false,Rx,0,8,00,80,00,80,00,80,00,80,
41316689,000002B2,false,Rx,0,6,FF,FF,FF,FF,05,80,00,00,
41316971,000001A0,false,Rx,0,8,FF,FF,00,08,80,00,78,A2,
41318721,000000AE,false,Rx,0,6,B3,03,80,50,00,31,00,00,
41323027,000000C4,false,Rx,0,7,00,80,FD,00,80,28,FF,00,
41332957,000000C4,false,Rx,0,7,00,80,FD,00,80,50,FF,00,
41336102,000000B6,false,Rx,0,5,38,08,80,00,F8,00,00,00,
41336303,0000019E,false,Rx,0,8,FF,FB,2F,00,30,F0,FF,EB,
41336587,000000CE,false,Rx,0,8,00,80,00,80,00,80,00,80,
41336780,000002B2,false,Rx,0,6,FF,FF,FF,FF,05,80,00,00,
41337068,000001A0,false,Rx,0,8,FF,FF,00,08,80,00,88,B2,
41338734,000000AE,false,Rx,0,6,B4,04,80,50,00,31,00,00,
41341165,00000192,false,Rx,0,4,6A,00,80,F9,00,00,00,00,
41343031,000000C4,false,Rx,0,7,00,80,FD,00,80,78,FF,00,
41345257,00000480,false,Rx,0,8,29,02,FF,00,00,00,02,01,
41352985,000000C4,false,Rx,0,7,00,80,FD,00,80,A0,FF,00,
41356123,000000B6,false,Rx,0,5,39,09,80,00,F8,00,00,00,
41356323,0000019E,false,Rx,0,8,FF,FB,2F,00,30,F0,FF,EB,
41356607,000005A9,false,Rx,0,8,40,18,00,00,FF,FF,FF,FF,
41356889,000000CE,false,Rx,0,8,00,80,00,80,00,80,00,80,
41357088,000002B2,false,Rx,0,6,FF,FF,FF,FF,05,80,00,00,
41357306,000001A0,false,Rx,0,8,FF,FF,00,08,80,00,98,C2,
41358784,000000AE,false,Rx,0,6,B6,05,80,50,00,32,00,00,
41360726,00000130,false,Rx,0,5,41,43,35,3F,36,00,00,00,
41363033,000000C4,false,Rx,0,7,00,80,FD,00,80,C8,FF,00,
41364146,00000194,false,Rx,0,4,70,F2,80,FC,00,00,00,00,
41370681,00000192,false,Rx,0,4,6A,00,80,FA,00,00,00,00,
41372986,000000C4,false,Rx,0,7,00,80,FD,00,80,F0,FF,00,
41376210,000000B6,false,Rx,0,5,3A,0A,80,00,F8,00,00,00,
41376326,0000019E,false,Rx,0,8,FF,FB,2F,00,30,F0,FF,EB,
41376540,000000CE,false,Rx,0,8,00,80,00,80,00,80,00,80,
41376649,000001A6,false,Rx,0,2,FF,FF,00,00,00,00,00,00,
41377127,000002B2,false,Rx,0,6,FF,FF,FF,FF,05,80,00,00,
41377241,000001A0,false,Rx,0,8,FF,FF,00,08,80,00,A8,D2,
41378799,000000AE,false,Rx,0,6,B7,06,80,50,00,32,00,00,
41383011,000000C4,false,Rx,0,7,00,80,FD,00,80,18,FF,00,
41388139,00000330,false,Rx,0,8,BA,61,03,FF,FF,FF,F3,FF,
41392992,000000C4,false,Rx,0,7,00,80,FD,00,80,40,FF,00,
41396112,000000B6,false,Rx,0,5,3B,0B,80,00,F8,00,00,00,
41396311,0000019E,false,Rx,0,8,FF,FB,2F,00,30,F0,FF,EB,
41396594,000000CE,false,Rx,0,8,00,80,00,80,00,80,00,80,
41396785,000002B2,false,Rx,0,6,FF,FF,FF,FF,05,80,00,00,
41396976,000001A0,false,Rx,0,8,FF,FF,00,08,80,00,B8,E2,
41398819,000000AE,false,Rx,0,6,B8,07,80,50,00,32,00,00,
41399924,00000192,false,Rx,0,4,6A,00,80,FB,00,00,00,00,
41403043,000000C4,false,Rx,0,7,00,80,FD,00,80,68,FF,00,
41413197,000000C4,false,Rx,0,7,00,80,FD,00,80,90,FF,00,
41416134,000000B6,false,Rx,0,5,3C,0C,80,00,F8,00,00,00,
41416333,0000019E,false,Rx,0,8,FF,FB,2F,00,30,F0,FF,EB,
41416614,000000CE,false,Rx,0,8,00,80,00,80,00,80,00,80,
41416806,000002B2,false,Rx,0,6,FF,FF,FF,FF,05,80,00,00,
41417089,000001A0,false,Rx,0,8,FF,FF,00,08,80,00,C8,F2,
41418839,000000AE,false,Rx,0,6,B9,08,80,50,00,32,00,00,
41423055,000000C4,false,Rx,0,7,00,80,FD,00,80,B8,FF,00,
41429186,00000192,false,Rx,0,4,6A,00,80,FC,00,00,00,00,
41432973,000000C4,false,Rx,0,7,00,80,FD,00,80,E0,FF,00,
41433539,000005E0,false,Rx,0,8,10,00,00,01,00,FF,FF,FF,
41436117,000000B6,false,Rx,0,5,3D,0D,80,00,F8,00,00,00,
41436318,0000019E,false,Rx,0,8,FF,FB,2F,00,30,F0,FF,EB,
41436603,000005A9,false,Rx,0,8,40,47,00,00,FF,FF,FF,FF,
41436886,000000CE,false,Rx,0,8,00,80,00,80,00,80,00,80,
41437080,000002B2,false,Rx,0,6,FF,FF,FF,FF,05,80,00,00,
41437280,000001A0,false,Rx,0,8,FF,FF,00,08,80,00,D8,02,
41437564,000004A9,false,Rx,0,8,2A,42,FF,FF,FF,FF,FF,FF,
41438858,000000AE,false,Rx,0,6,BA,09,80,50,00,32,00,00,
41443037,000000C4,false,Rx,0,7,00,80,FD,00,80,08,FF,00,
41453011,000000C4,false,Rx,0,7,00,80,FD,00,80,30,FF,00,
41456055,000000B6,false,Rx,0,5,3E,0E,80,00,F8,00,00,00,
41456347,0000019E,false,Rx,0,8,FF,FB,2F,00,30,F0,FF,EB,
41456540,000000CE,false,Rx,0,8,00,80,00,80,00,80,00,80,
41456823,000002B2,false,Rx,0,6,FF,FF,FF,FF,05,80,00,00,
41457016,000001A0,false,Rx,0,8,FF,FF,00,08,80,00,E8,13,
41457944,00000192,false,Rx,0,4,6A,00,80,FD,00,00,00,00,
41458888,000000AE,false,Rx,0,6,BB,0A,80,50,00,32,00,00,
41460092,00000130,false,Rx,0,5,41,43,35,3F,47,00,00,00,
41462950,000000C4,false,Rx,0,7,00,80,FD,00,80,58,FF,00,
41472985,000000C4,false,Rx,0,7,00,80,FD,00,80,80,FF,00,
41476123,000000B6,false,Rx,0,5,30,00,80,00,F8,00,00,00,
41476324,0000019E,false,Rx,0,8,FF,FB,3F,00,30,F0,FF,FB,
41476610,000000CE,false,Rx,0,8,00,80,00,80,00,80,00,80,
41476718,000001A6,false,Rx,0,2,FF,FF,00,00,00,00,00,00,
41476910,000002B2,false,Rx,0,6,FF,FF,FF,FF,05,80,00,00,
41477839,000001A0,false,Rx,0,8,FF,FF,00,08,80,00,08,32,
41478942,000000AE,false,Rx,0,6,BC,0B,80,50,00,32,00,00,
41482996,000000C4,false,Rx,0,7,00,80,FD,00,80,A8,FF,00,
41487402,00000192,false,Rx,0,4,6A,00,80,FE,00,00,00,00,
41493080,000000C4,false,Rx,0,7,00,80,FD,00,80,D0,FF,00,
41496106,000000B6,false,Rx,0,5,31,01,80,00,F8,00,00,00,
41496306,0000019E,false,Rx,0,8,FF,FB,3F,00,30,F0,FF,FB,
41496587,000000CE,false,Rx,0,8,00,00,00,00,00,00,00,00,
41496779,000002B2,false,Rx,0,6,FF,FF,FF,FF,05,80,00,00,
41496971,000001A0,false,Rx,0,8,00,80,00,08,80,00,18,C2,
41498903,000000AE,false,Rx,0,6,BD,0C,80,50,00,32,00,00,
41503027,000000C4,false,Rx,0,7,00,80,FD,00,80,F8,FF,00,
41513005,000000C4,false,Rx,0,7,00,80,FD,00,80,20,FF,00,
41516122,000000B6,false,Rx,0,5,32,02,80,00,F8,00,00,00,
41516413,0000019E,false,Rx,0,8,FF,FB,3F,00,30,F0,FF,FB,
41516605,000005A9,false,Rx,0,8,40,D7,00,00,FF,FF,FF,FF,
41516887,000000CE,false,Rx,0,8,00,00,00,00,00,00,00,00,
41517080,00000192,false,Rx,0,4,6A,00,80,F1,00,00,00,00,
41517279,000002B2,false,Rx,0,6,FF,FF,FF,FF,05,80,00,00,
41517470,000001A0,false,Rx,0,8,00,80,00,08,80,00,28,D2,
41518937,000000AE,false,Rx,0,6,BE,0D,80,50,00,32,00,00,
41523062,000000C4,false,Rx,0,7,00,80,FD,00,80,48,FF,00,
41529281,000004AA,false,Rx,0,8,00,42,FF,FF,FF,FF,FF,FF,
41533062,000000C4,false,Rx,0,7,00,80,FD,00,80,70,FF,00,
41536103,000000B6,false,Rx,0,5,33,03,80,00,F8,00,00,00,
41536305,0000019E,false,Rx,0,8,FF,FB,3F,00,30,F0,FF,FB,
41536588,000000CE,false,Rx,0,8,00,00,00,00,00,00,00,00,
41536781,000002B2,false,Rx,0,6,FF,FF,FF,FF,05,80,00,00,
41536974,000001A0,false,Rx,0,8,00,80,00,08,80,00,38,E2,
41538941,000000AE,false,Rx,0,6,BF,0E,80,50,00,32,00,00,
41542998,000000C4,false,Rx,0,7,00,80,FD,00,80,98,FF,00,
41544873,00000192,false,Rx,0,4,6A,00,80,F2,00,00,00,00,
41552998,000000C4,false,Rx,0,7,00,80,FD,00,80,C0,FF,00,
41556135,000000B6,false,Rx,0,5,34,04,80,00,F8,00,00,00,
41556335,0000019E,false,Rx,0,8,FF,FB,3F,00,30,F0,FF,FB,
41556619,000000CE,false,Rx,0,8,00,00,00,00,00,00,00,00,
41556811,000002B2,false,Rx,0,6,FF,FF,FF,FF,05,80,00,00,
41557003,000001A0,false,Rx,0,8,00,80,00,08,80,00,48,F2,
41558955,000000AE,false,Rx,0,6,B2,00,80,50,00,33,00,00,
41560656,00000130,false,Rx,0,5,41,43,35,3F,58,00,00,00,
41563062,000000C4,false,Rx,0,7,00,80,FD,00,80,E8,FF,00,
41564720,00000194,false,Rx,0,4,71,F3,80,FC,00,00,00,00,
41573049,000000C4,false,Rx,0,7,00,80,FD,00,80,10,FF,00,
41573519,000005E0,false,Rx,0,8,01,03,80,FF,FF,FF,FF,FF,
41574165,00000192,false,Rx,0,4,6A,00,80,F3,00,00,00,00,
41576094,000000B6,false,Rx,0,5,35,05,80,00,F8,00,00,00,
41576294,0000019E,false,Rx,0,8,FF,FB,3F,00,30,F0,FF,FB,
41576576,000000CE,false,Rx,0,8,00,00,00,00,00,00,00,00,
41576685,000001A6,false,Rx,0,2,00,00,00,00,00,00,00,00,
41576876,000002B2,false,Rx,0,6,FF,FF,FF,FF,05,80,00,00,
41577161,000001A0,false,Rx,0,8,00,80,00,08,80,00,58,03,
41579545,000000AE,false,Rx,0,6,B3,01,80,50,00,33,00,00,
41580505,00000380,false,Rx,0,7,44,44,37,38,35,35,37,00,
41582992,000000C4,false,Rx,0,7,00,80,FD,00,80,38,FF,00,
41585581,000005C0,false,Rx,0,8,48,0E,01,05,44,73,03,FE,
41587797,00000330,false,Rx,0,8,BA,61,03,04,00,0A,25,02,
41593045,000000C4,false,Rx,0,7,00,80,FD,00,80,60,FF,00,
41593518,000005E0,false,Rx,0,8,10,00,00,01,00,FF,FF,FF,
41596098,000000B6,false,Rx,0,5,36,06,80,00,F8,00,00,00,
41596390,0000019E,false,Rx,0,8,FF,FB,3F,00,30,F0,FF,FB,
41596582,000005A9,false,Rx,0,8,40,2A,00,00,FF,FF,FF,FF,
41596866,000000CE,false,Rx,0,8,00,00,00,00,00,00,00,00,
41597062,000002B2,false,Rx,0,6,FF,FF,FF,FF,05,80,00,00,
41597262,000001A0,false,Rx,0,8,00,80,00,08,80,00,68,13,
41599011,000000AE,false,Rx,0,6,B4,02,80,50,00,33,00,00,
41603064,000000C4,false,Rx,0,7,00,80,FD,00,80,88,FF,00,
41603627,00000192,false,Rx,0,4,6A,00,80,F4,00,00,00,00,
41605198,00000480,false,Rx,0,8,29,42,FF,00,00,00,02,01,
41613763,000000C4,false,Rx,0,7,00,80,FD,00,80,B2,FF,00,
41616074,000000B6,false,Rx,0,5,37,07,80,00,F8,00,00,00,
41616365,0000019E,false,Rx,0,8,FF,FB,3F,00,30,F0,FF,FB,
41616648,000000CE,false,Rx,0,8,00,00,00,00,00,00,00,00,
41616840,000002B2,false,Rx,0,6,FF,FF,FF,FF,05,80,00,00,
41617037,000001A0,false,Rx,0,8,00,80,00,08,80,00,78,23,
41619068,000000AE,false,Rx,0,6,B5,03,80,50,00,33,00,00,
41623768,000000C4,false,Rx,0,7,00,80,FD,00,80,DA,FF,00,
41633537,000000C4,false,Rx,0,7,00,80,FD,00,80,00,FF,00,
41633831,00000192,false,Rx,0,4,6A,00,80,F5,00,00,00,00,
41636121,000000B6,false,Rx,0,5,38,08,80,00,F8,00,00,00,
41636320,0000019E,false,Rx,0,8,FF,FB,3F,00,30,F0,FF,FB,
41636602,000000CE,false,Rx,0,8,00,00,00,00,00,00,00,00,
41636792,000002B2,false,Rx,0,6,FF,FF,FF,FF,05,80,00,00,
41636984,000001A0,false,Rx,0,8,00,80,00,08,80,00,88,33,
41639098,000000AE,false,Rx,0,6,B6,04,80,50,00,33,00,00,
41643315,000000C4,false,Rx,0,7,00,80,FD,00,80,28,FF,00,
41653062,000000C4,false,Rx,0,7,00,80,FD,00,80,50,FF,00,
41656125,000000B6,false,Rx,0,5,39,09,80,00,F8,00,00,00,
41656327,0000019E,false,Rx,0,8,FF,FB,3F,00,30,F0,FF,FB,
41656610,000000CE,false,Rx,0,8,00,00,00,00,00,00,00,00,
41656801,000002B2,false,Rx,0,6,FF,FF,FF,FF,05,80,00,00,
41657086,000001A0,false,Rx,0,8,00,80,00,08,80,00,98,43,
41659015,000000AE,false,Rx,0,6,B7,05,80,50,00,33,00,00,
41660043,00000130,false,Rx,0,5,41,43,35,3F,69,00,00,00,
41662976,000000C4,false,Rx,0,7,00,80,FD,00,80,78,FF,00,
41663450,00000192,false,Rx,0,4,6A,00,80,F6,00,00,00,00,
41673055,000000C4,false,Rx,0,7,00,80,FD,00,80,A0,FF,00,
41676081,000000B6,false,Rx,0,5,3A,0A,80,00,F8,00,00,00,
41676372,0000019E,false,Rx,0,8,FF,FB,4F,00,30,F0,FF,0C,
41676472,000001A6,false,Rx,0,2,00,00,00,00,00,00,00,00,
41676673,000005A9,false,Rx,0,8,40,33,00,00,FF,FF,FF,FF,
41676955,000000CE,false,Rx,0,8,00,00,00,00,00,00,00,00,
41677148,000002B2,false,Rx,0,6,FF,FF,FF,FF,05,80,00,00,
41677437,000001A0,false,Rx,0,8,00,80,00,08,80,00,A8,53,
41679088,000000AE,false,Rx,0,6,B8,06,80,50,00,33,00,00,
41683019,000000C4,false,Rx,0,7,00,80,FD,00,80,C8,FF,00,
41692961,00000192,false,Rx,0,4,6A,00,80,F7,00,00,00,00,
41693255,000000C4,false,Rx,0,7,00,80,FD,00,80,F0,FF,00,
41696109,000000B6,false,Rx,0,5,3B,0B,80,00,F8,00,00,00,
41696307,0000019E,false,Rx,0,8,FF,FB,4F,00,30,F0,FF,0C,
41696591,000000CE,false,Rx,0,8,00,00,00,00,00,00,00,00,
41696784,000002B2,false,Rx,0,6,FF,FF,FF,FF,05,80,00,00,
41696976,000001A0,false,Rx,0,8,00,80,00,08,80,00,B8,63,
41697270,000004A9,false,Rx,0,8,2A,52,FF,FF,FF,FF,FF,FF,
41699112,000000AE,false,Rx,0,6,B9,07,80,50,00,33,00,00,
41702985,000000C4,false,Rx,0,7,00,80,FD,00,80,18,FF,00,
41713022,000000C4,false,Rx,0,7,00,80,FD,00,80,40,FF,00,
41716067,000000B6,false,Rx,0,5,3C,0C,80,00,F8,00,00,00,
41716359,0000019E,false,Rx,0,8,FF,FB,4F,00,30,F0,FF,0C,
41716552,000000CE,false,Rx,0,8,00,00,00,00,00,00,00,00,
41716745,000002B2,false,Rx,0,6,FF,FF,FF,FF,05,80,00,00,
41717031,000001A0,false,Rx,0,8,00,80,00,08,80,00,C8,73,
41719158,000000AE,false,Rx,0,6,BA,08,80,50,00,33,00,00,
41722667,00000192,false,Rx,0,4,6A,00,80,F8,00,00,00,00,
41723135,000000C4,false,Rx,0,7,00,80,FD,00,80,68,FF,00,
41733075,000000C4,false,Rx,0,7,00,80,FD,00,80,90,FF,00,
41736112,000000B6,false,Rx,0,5,3D,0D,80,00,F8,00,00,00,
41736311,0000019E,false,Rx,0,8,FF,FB,4F,00,30,F0,FF,0C,
41736594,000000CE,false,Rx,0,8,00,00,00,00,00,00,00,00,
41736785,000002B2,false,Rx,0,6,FF,FF,FF,FF,05,80,00,00,
41737070,000001A0,false,Rx,0,8,00,80,00,08,80,00,D8,83,
41739183,000000AE,false,Rx,0,6,BB,09,80,50,00,33,00,00,
41743033,000000C4,false,Rx,0,7,00,80,FD,00,80,B8,FF,00,
41751208,00000192,false,Rx,0,4,6A,00,80,F9,00,00,00,00,
41753068,000000C4,false,Rx,0,7,00,80,FD,00,80,E0,FF,00,
41756098,000000B6,false,Rx,0,5,3E,0E,80,00,F8,00,00,00,
41756388,0000019E,false,Rx,0,8,FF,FB,4F,00,30,F0,FF,0C,
41756580,000005A9,false,Rx,0,8,40,B8,00,00,FF,FF,FF,FF,
41756862,000000CE,false,Rx,0,8,00,00,00,00,00,00,00,00,
41757056,000002B2,false,Rx,0,6,FF,FF,FF,FF,05,80,00,00,
41757254,000001A0,false,Rx,0,8,00,80,00,08,80,00,E8,93,
41759186,000000AE,false,Rx,0,6,BD,0A,80,50,00,34,00,00,
41760664,00000130,false,Rx,0,5,41,43,35,3F,7A,00,00,00,
41762414,000001B5,false,Rx,0,6,FF,FF,02,00,C8,FF,00,00,
41763062,000000C4,false,Rx,0,7,00,80,FD,00,80,08,FF,00,
41766733,00000194,false,Rx,0,4,72,F4,80,FC,00,00,00,00,
41773049,000000C4,false,Rx,0,7,00,80,FD,00,80,30,FF,00,
41776074,000000B6,false,Rx,0,5,30,00,80,00,F8,00,00,00,
41776364,0000019E,false,Rx,0,8,FF,FB,4F,00,30,F0,FF,0C,
41776555,000000CE,false,Rx,0,8,00,00,00,00,00,00,00,00,
41776760,000001A6,false,Rx,0,2,00,00,00,00,00,00,00,00,
41776952,000002B2,false,Rx,0,6,FF,FF,FF,FF,05,80,00,00,
41777146,000001A0,false,Rx,0,8,00,80,00,08,80,00,08,B2,
41779270,000000AE,false,Rx,0,6,BE,0B,80,50,00,34,00,00,
41780737,00000192,false,Rx,0,4,6A,00,80,FA,00,00,00,00,
41783101,000000C4,false,Rx,0,7,00,80,FD,00,80,58,FF,00,
41789470,000004AA,false,Rx,0,8,00,42,FF,FF,FF,FF,FF,FF,
41793061,000000C4,false,Rx,0,7,00,80,FD,00,80,80,FF,00,
41793626,000005E0,false,Rx,0,8,10,00,00,02,00,FF,FF,FF,
41796042,000000B6,false,Rx,0,5,31,01,80,00,F8,00,00,00,
41796333,0000019E,false,Rx,0,8,FF,FB,4F,00,30,F0,FF,0C,
41796526,000000CE,false,Rx,0,8,00,00,00,00,00,00,00,00,
41796718,000002B2,false,Rx,0,6,FF,FF,FF,FF,05,80,00,00,
41797002,000001A0,false,Rx,0,8,00,80,00,08,80,00,18,C2,
41799317,000000AE,false,Rx,0,6,BF,0C,80,50,00,34,00,00,
41802999,000000C4,false,Rx,0,7,00,80,FD,00,80,A8,FF,00,
41809549,00000192,false,Rx,0,4,6A,00,80,FB,00,00,00,00,
41812994,000000C4,false,Rx,0,7,00,80,FD,00,80,D0,FF,00,
41816022,000000B6,false,Rx,0,5,32,02,80,00,F8,00,00,00,
41816312,0000019E,false,Rx,0,8,FF,FB,4F,00,30,F0,FF,0C,
41816504,000000CE,false,Rx,0,8,00,00,00,00,00,00,00,00,
41816786,000002B2,false,Rx,0,6,FF,FF,FF,FF,05,80,00,00,
41816978,000001A0,false,Rx,0,8,00,80,00,08,80,00,28,D2,
41819281,000000AE,false,Rx,0,6,C0,0D,80,50,00,34,00,00,
41823033,000000C4,false,Rx,0,7,00,80,FD,00,80,F8,FF,00,
41833634,000000C4,false,Rx,0,7,00,80,FD,00,80,20,FF,00,
41836159,000000B6,false,Rx,0,5,33,03,80,00,F8,00,00,00,
41836359,0000019E,false,Rx,0,8,FF,FB,4F,00,30,F0,FF,0C,
41836644,000000CE,false,Rx,0,8,00,00,00,00,00,00,00,00,
41836837,000002B2,false,Rx,0,6,FF,FF,FF,FF,05,80,00,00,
41837123,000001A0,false,Rx,0,8,00,80,00,08,80,00,38,E2,
41838146,00000192,false,Rx,0,4,6A,00,80,FC,00,00,00,00,
41839541,000000AE,false,Rx,0,6,C1,0E,80,50,00,34,00,00,
41843043,000000C4,false,Rx,0,7,00,80,FD,00,80,48,FF,00,
41853013,000000C4,false,Rx,0,7,00,80,FD,00,80,70,FF,00,
41856080,000000B6,false,Rx,0,5,34,04,80,00,F8,00,00,00,
41856281,0000019E,false,Rx,0,8,FF,FB,4F,00,30,F0,FF,0C,
41856565,000000CE,false,Rx,0,8,00,00,00,00,00,00,00,00,
41856757,000002B2,false,Rx,0,6,FF,FF,FF,FF,05,80,00,00,
41857043,000001A0,false,Rx,0,8,00,80,00,08,80,00,48,F2,
41859279,000000AE,false,Rx,0,6,B3,00,80,50,00,34,00,00,
41860018,00000130,false,Rx,0,5,41,43,35,3F,8B,00,00,00,
41863062,000000C4,false,Rx,0,7,00,80,FD,00,80,98,FF,00,
41865184,00000480,false,Rx,0,8,29,42,FF,00,00,00,02,01,
41867678,00000192,false,Rx,0,4,6A,00,80,FD,00,00,00,00,
41873021,000000C4,false,Rx,0,7,00,80,FD,00,80,C0,FF,00,
41876076,000000B6,false,Rx,0,5,35,05,80,00,F8,00,00,00,
41876366,0000019E,false,Rx,0,8,FF,FB,5F,00,30,F0,FF,1C,
41876663,000000CE,false,Rx,0,8,00,00,00,00,00,00,00,00,
41876855,000002B2,false,Rx,0,6,FF,FF,FF,FF,05,80,00,00,
41877050,000001A0,false,Rx,0,8,00,80,00,08,80,00,58,03,
41877251,00000374,false,Rx,0,5,00,00,00,00,FC,00,00,00,
41877352,000001A6,false,Rx,0,2,00,00,00,00,00,00,00,00,
41879292,000000AE,false,Rx,0,6,B4,01,80,50,00,34,00,00,
41883257,000000C4,false,Rx,0,7,00,80,FD,00,80,E8,FF,00,
41885668,000005C0,false,Rx,0,8,48,0F,CA,F5,01,FD,44,00,
41893000,000000C4,false,Rx,0,7,00,80,FD,00,80,10,FF,00,
41896026,000000B6,false,Rx,0,5,36,06,80,00,F8,00,00,00,
41896315,0000019E,false,Rx,0,8,FF,FB,5F,00,30,F0,FF,1C,
41896597,000000CE,false,Rx,0,8,00,00,00,00,00,00,00,00,
41896789,000002B2,false,Rx,0,6,FF,FF,FF,FF,05,80,00,00,
41896980,000001A0,false,Rx,0,8,00,80,00,08,80,00,68,13,
41897633,00000192,false,Rx,0,4,6A,00,80,FE,00,00,00,00,
41899295,000000AE,false,Rx,0,6,B5,02,80,50,00,34,00,00,
41903048,000000C4,false,Rx,0,7,00,80,FD,00,80,38,FF,00,
41913021,000000C4,false,Rx,0,7,00,80,FD,00,80,60,FF,00,
41916139,000000B6,false,Rx,0,5,37,07,80,00,F8,00,00,00,
41916338,0000019E,false,Rx,0,8,FF,FB,5F,00,30,F0,FF,1C,
41916621,000000CE,false,Rx,0,8,00,00,00,00,00,00,00,00,
41916813,000002B2,false,Rx,0,6,FF,FF,FF,FF,05,80,00,00,
41917005,000001A0,false,Rx,0,8,00,80,00,08,80,00,78,23,
41919398,000000AE,false,Rx,0,6,B6,03,80,50,00,34,00,00,
41923062,000000C4,false,Rx,0,7,00,80,FD,00,80,88,FF,00,
41926733,00000192,false,Rx,0,4,6A,00,80,F1,00,00,00,00,
41933049,000000C4,false,Rx,0,7,00,80,FD,00,80,B0,FF,00,
41936153,000000B6,false,Rx,0,5,38,08,80,00,F8,00,00,00,
41936361,0000019E,false,Rx,0,8,FF,FB,5F,00,30,F0,FF,1C,
41936645,000000CE,false,Rx,0,8,00,00,00,00,00,00,00,00,
41936838,000002B2,false,Rx,0,6,FF,FF,FF,FF,05,80,00,00,
41937033,000001A0,false,Rx,0,8,00,80,00,08,80,00,88,33,
41939349,000000AE,false,Rx,0,6,B7,04,80,50,00,34,00,00,
41943034,000000C4,false,Rx,0,7,00,80,FD,00,80,D8,FF,00,
41953068,000000C4,false,Rx,0,7,00,80,FD,00,80,00,FF,00,
41953541,000005E0,false,Rx,0,8,10,00,00,02,00,FF,FF,FF,
41954952,00000192,false,Rx,0,4,6A,00,80,F2,00,00,00,00,
41956068,000000B6,false,Rx,0,5,39,09,80,00,F8,00,00,00,
41956268,0000019E,false,Rx,0,8,FF,FB,5F,00,30,F0,FF,1C,
41956565,000000CE,false,Rx,0,8,00,00,00,00,00,00,00,00,
41956757,000002B2,false,Rx,0,6,FF,FF,FF,FF,05,80,00,00,
41957043,000001A0,false,Rx,0,8,00,80,00,08,80,00,98,43,
41957244,000004A9,false,Rx,0,8,2A,52,FF,FF,FF,FF,FF,FF,
41959459,000000AE,false,Rx,0,6,B9,05,80,50,00,35,00,00,
41960389,00000130,false,Rx,0,5,41,43,35,3F,9C,00,00,00,
41963074,000000C4,false,Rx,0,7,00,80,FD,00,80,28,FF,00,
41970074,00000194,false,Rx,0,4,73,F5,80,FC,00,00,00,00,
41973027,000000C4,false,Rx,0,7,00,80,FD,00,80,50,FF,00,
41976074,000000B6,false,Rx,0,5,3A,0A,80,00,F8,00,00,00,
41976365,0000019E,false,Rx,0,8,FF,FB,5F,00,30,F0,FF,1C,
41976558,000000CE,false,Rx,0,8,00,00,00,00,00,00,00,00,
41976669,000001A6,false,Rx,0,2,00,00,00,00,00,00,00,00,
41976952,000002B2,false,Rx,0,6,FF,FF,FF,FF,05,80,00,00,
41977147,000001A0,false,Rx,0,8,00,80,00,08,80,00,A8,53,
41979367,000000AE,false,Rx,0,6,BA,06,80,50,00,35,00,00,
41983049,000000C4,false,Rx,0,7,00,80,FD,00,80,78,FF,00,
41984714,00000192,false,Rx,0,4,6A,00,80,F3,00,00,00,00,
41993517,000000C4,false,Rx,0,7,00,80,FD,00,80,A2,FF,00,
41996092,000000B6,false,Rx,0,5,3B,0B,80,00,F8,00,00,00,
41996382,0000019E,false,Rx,0,8,FF,FB,5F,00,30,F0,FF,1C,
41996574,000000CE,false,Rx,0,8,00,00,00,00,00,00,00,00,
41996765,000002B2,false,Rx,0,6,FF,FF,FF,FF,05,80,00,00,
41997049,000001A0,false,Rx,0,8,00,80,00,08,80,00,B8,63,
41999439,000000AE,false,Rx,0,6,BB,07,80,50,00,35,00,00,
42003103,000000C4,false,Rx,0,7,00,80,FD,00,80,C8,FF,00,
42012987,000000C4,false,Rx,0,7,00,80,FD,00,80,F0,FF,00,
42013462,00000192,false,Rx,0,4,6A,00,80,F4,00,00,00,00,
42016028,000000B6,false,Rx,0,5,3C,0C,80,00,F8,00,00,00,
42016317,0000019E,false,Rx,0,8,FF,FB,5F,00,30,F0,FF,1C,
42016509,000000CE,false,Rx,0,8,00,00,00,00,00,00,00,00,
42016790,000002B2,false,Rx,0,6,FF,FF,FF,FF,05,80,00,00,
42016982,000001A0,false,Rx,0,8,00,80,00,08,80,00,C8,73,
42019377,000000AE,false,Rx,0,6,BC,08,80,50,00,35,00,00,
42023038,000000C4,false,Rx,0,7,00,80,FD,00,80,18,FF,00,
42033015,000000C4,false,Rx,0,7,00,80,FD,00,80,40,FF,00,
42036934,000000B6,false,Rx,0,5,3D,0D,80,00,F8,00,00,00,
42037049,0000019E,false,Rx,0,8,FF,FB,5F,00,30,F0,FF,1C,
42037158,000000CE,false,Rx,0,8,00,00,00,00,00,00,00,00,
42037264,000002B2,false,Rx,0,6,FF,FF,FF,FF,05,80,00,00,
42037359,000001A0,false,Rx,0,8,00,80,00,08,80,00,D8,83,
42039487,000000AE,false,Rx,0,6,BD,09,80,50,00,35,00,00,
42040136,000001D6,false,Rx,0,2,C0,00,00,00,00,00,00,00,
42043093,000000C4,false,Rx,0,7,00,80,FD,00,80,68,FF,00,
42043475,00000192,false,Rx,0,4,6A,00,80,F5,00,00,00,00,
42049828,000004AA,false,Rx,0,8,00,52,FF,FF,FF,FF,FF,FF,
42052979,000000C4,false,Rx,0,7,00,80,FD,00,80,90,FF,00,
42056113,000000B6,false,Rx,0,5,3E,0E,80,00,F8,00,00,00,
42056314,0000019E,false,Rx,0,8,FF,FB,5F,00,30,F0,FF,1C,
42056598,000000CE,false,Rx,0,8,00,00,00,00,00,00,00,00,
42056790,000002B2,false,Rx,0,6,FF,FF,FF,FF,05,80,00,00,
42057077,000001A0,false,Rx,0,8,00,80,00,08,80,00,E8,93,
42059523,000000AE,false,Rx,0,6,BE,0A,80,50,00,35,00,00,
42060272,00000130,false,Rx,0,5,41,43,35,3F,AD,00,00,00,
42063049,000000C4,false,Rx,0,7,00,80,FD,00,80,B8,FF,00,
42072621,00000192,false,Rx,0,4,6A,00,80,F6,00,00,00,00,
42073089,000000C4,false,Rx,0,7,00,80,FD,00,80,E0,FF,00,
42076099,000000B6,false,Rx,0,5,30,00,80,00,F8,00,00,00,
42076300,0000019E,false,Rx,0,8,FF,FB,6F,00,30,F0,FF,2C,
42076582,000000CE,false,Rx,0,8,00,00,00,00,00,00,00,00,
42076693,000001A6,false,Rx,0,2,00,00,00,00,00,00,00,00,
42076884,000002B2,false,Rx,0,6,FF,FF,FF,FF,05,80,00,00,
42077170,000001A0,false,Rx,0,8,00,80,00,08,80,00,08,B2,
42079559,000000AE,false,Rx,0,6,BF,0B,80,50,00,35,00,00,
42083037,000000C4,false,Rx,0,7,00,80,FD,00,80,08,FF,00,
42088174,00000310,false,Rx,0,7,77,74,13,74,00,1F,18,00,
42093061,000000C4,false,Rx,0,7,00,80,FD,00,80,30,FF,00,
42096104,000000B6,false,Rx,0,5,31,01,80,00,F8,00,00,00,
42096305,0000019E,false,Rx,0,8,FF,FB,6F,00,30,F0,FF,2C,
42096589,000000CE,false,Rx,0,8,00,00,00,00,00,00,00,00,
42096780,000002B2,false,Rx,0,6,FF,FF,FF,FF,05,80,00,00,
42096973,000001A0,false,Rx,0,8,00,80,00,08,80,00,18,C2,
42099561,000000AE,false,Rx,0,6,C0,0C,80,50,00,35,00,00,
42101500,00000192,false,Rx,0,4,6A,00,80,F7,00,00,00,00,
42102975,000000C4,false,Rx,0,7,00,80,FD,00,80,58,FF,00,
42113106,000000C4,false,Rx,0,7,00,80,FD,00,80,80,FF,00,
42113671,000005E0,false,Rx,0,8,10,00,00,02,00,FF,FF,FF,
42116073,000000B6,false,Rx,0,5,32,02,80,00,F8,00,00,00,
42116274,0000019E,false,Rx,0,8,FF,FB,6F,00,30,F0,FF,2C,
42116558,000000CE,false,Rx,0,8,00,00,00,00,00,00,00,00,
42116751,000002B2,false,Rx,0,6,FF,FF,FF,FF,05,80,00,00,
42117037,000001A0,false,Rx,0,8,00,80,00,08,80,00,28,D2,
42119537,000000AE,false,Rx,0,6,C1,0D,80,50,00,35,00,00,
42123318,000000C4,false,Rx,0,7,00,80,FD,00,80,A8,FF,00,
42125264,00000480,false,Rx,0,8,29,42,FF,10,00,00,02,01,
42130705,00000192,false,Rx,0,4,6A,00,80,F8,00,00,00,00,
42133011,000000C4,false,Rx,0,7,00,80,FD,00,80,D0,FF,00,
42136054,000000B6,false,Rx,0,5,33,03,80,00,F8,00,00,00,
42136346,0000019E,false,Rx,0,8,FF,FB,6F,00,30,F0,FF,2C,
42136539,000000CE,false,Rx,0,8,00,00,00,00,00,00,00,00,
42136731,000002B2,false,Rx,0,6,FF,FF,FF,FF,05,80,00,00,
42137014,000001A0,false,Rx,0,8,00,80,00,08,80,00,38,E2,
42139617,000000AE,false,Rx,0,6,C2,0E,80,50,00,35,00,00,
42143015,000000C4,false,Rx,0,7,00,80,FD,00,80,F8,FF,00,
42152993,000000C4,false,Rx,0,7,00,80,FD,00,80,20,FF,00,
42156112,000000B6,false,Rx,0,5,34,04,80,00,F8,00,00,00,
42156401,0000019E,false,Rx,0,8,FF,FB,6F,00,30,F0,FF,2C,
42156593,000000CE,false,Rx,0,8,00,00,00,00,00,00,00,00,
42156875,000002B2,false,Rx,0,6,FF,FF,FF,FF,05,80,00,00,
42157068,000001A0,false,Rx,0,8,00,80,00,08,80,00,48,F2,
42159668,000000AE,false,Rx,0,6,B5,00,80,50,00,36,00,00,
42159860,00000192,false,Rx,0,4,6A,00,80,F9,00,00,00,00,
42162468,00000130,false,Rx,0,5,41,43,35,3F,BE,00,00,00,
42163022,000000C4,false,Rx,0,7,00,80,FD,00,80,48,FF,00,
42170715,00000194,false,Rx,0,4,74,F6,80,FC,00,00,00,00,
42173006,000000C4,false,Rx,0,7,00,80,FD,00,80,70,FF,00,
42176037,000000B6,false,Rx,0,5,35,05,80,00,F8,00,00,00,
42176325,0000019E,false,Rx,0,8,FF,FB,6F,00,30,F0,FF,2C,
42176517,000000CE,false,Rx,0,8,00,00,00,00,00,00,00,00,
42176716,000001A6,false,Rx,0,2,00,00,00,00,00,00,00,00,
42176908,000002B2,false,Rx,0,6,FF,FF,FF,FF,05,80,00,00,
42177101,000001A0,false,Rx,0,8,00,80,00,08,80,00,58,03,
42179672,000000AE,false,Rx,0,6,B6,01,80,50,00,36,00,00,
42183068,000000C4,false,Rx,0,7,00,80,FD,00,80,98,FF,00,
42185820,000005C0,false,Rx,0,8,48,00,B4,61,03,00,B7,61,
42188487,00000192,false,Rx,0,4,6A,00,80,FA,00,00,00,00,
42193063,000000C4,false,Rx,0,7,00,80,FD,00,80,C0,FF,00,
42196113,000000B6,false,Rx,0,5,36,06,80,00,F8,00,00,00,
42196314,0000019E,false,Rx,0,8,FF,FB,6F,00,30,F0,FF,2C,
42196597,000000CE,false,Rx,0,8,00,00,00,00,00,00,00,00,
42196790,000002B2,false,Rx,0,6,FF,FF,FF,FF,05,80,00,00,
42197076,000001A0,false,Rx,0,8,00,80,00,08,80,00,68,13,
42199662,000000AE,false,Rx,0,6,B7,02,80,50,00,36,00,00,
42203074,000000C4,false,Rx,0,7,00,80,FD,00,80,E8,FF,00,
42213109,000000C4,false,Rx,0,7,00,80,FD,00,80,10,FF,00,
42216061,000000B6,false,Rx,0,5,37,07,80,00,F8,00,00,00,
42216353,0000019E,false,Rx,0,8,FF,FB,6F,00,30,F0,FF,2C,
42216546,000000CE,false,Rx,0,8,00,00,00,00,00,00,00,00,
42216738,000002B2,false,Rx,0,6,FF,FF,FF,FF,05,80,00,00,
42217022,000001A0,false,Rx,0,8,00,80,00,08,80,00,78,23,
42217313,000004A9,false,Rx,0,8,2A,52,FF,FF,FF,FF,FF,FF,
42218055,00000192,false,Rx,0,4,6A,00,80,FB,00,00,00,00,
42219721,000000AE,false,Rx,0,6,B8,03,80,50,00,36,00,00,
42223038,000000C4,false,Rx,0,7,00,80,FD,00,80,38,FF,00,
42233070,000000C4,false,Rx,0,7,00,80,FD,00,80,60,FF,00,
42236113,000000B6,false,Rx,0,5,38,08,80,00,F8,00,00,00,
42236314,0000019E,false,Rx,0,8,FF,FB,6F,00,30,F0,FF,2C,
42236597,000000CE,false,Rx,0,8,00,00,00,00,00,00,00,00,
42236790,000002B2,false,Rx,0,6,FF,FF,FF,FF,05,80,00,00,
42237077,000001A0,false,Rx,0,8,00,80,00,08,80,00,88,33,
42240201,000000AE,false,Rx,0,6,B9,04,80,50,00,36,00,00,
42243067,000000C4,false,Rx,0,7,00,80,FD,00,80,88,FF,00,
42247097,00000192,false,Rx,0,4,6A,00,80,FC,00,00,00,00,
42253049,000000C4,false,Rx,0,7,00,80,FD,00,80,B0,FF,00,
42256080,000000B6,false,Rx,0,5,39,09,80,00,F8,00,00,00,
42256279,0000019E,false,Rx,0,8,FF,FB,6F,00,30,F0,FF,2C,
42256561,000000CE,false,Rx,0,8,00,00,00,00,00,00,00,00,
42256753,000002B2,false,Rx,0,6,FF,FF,FF,FF,05,80,00,00,
42257038,000001A0,false,Rx,0,8,00,80,00,08,80,00,98,43,
42259702,000000AE,false,Rx,0,6,BA,05,80,50,00,36,00,00,
42260446,00000130,false,Rx,0,5,41,43,35,3F,C0,00,00,00,
42263250,000000C4,false,Rx,0,7,00,80,FD,00,80,D8,FF,00,
42273049,000000C4,false,Rx,0,7,00,80,FD,00,80,00,FF,00,
42276074,000000B6,false,Rx,0,5,3A,0A,80,00,F8,00,00,00,
42276272,0000019E,false,Rx,0,8,FF,FB,7F,00,30,F0,FF,3C,
42276555,000000CE,false,Rx,0,8,00,00,00,00,00,00,00,00,
42276670,00000192,false,Rx,0,4,6A,00,80,FD,00,00,00,00,
42276859,000001A6,false,Rx,0,2,00,00,00,00,00,00,00,00,
42277055,000002B2,false,Rx,0,6,FF,FF,FF,FF,05,80,00,00,
42277254,000001A0,false,Rx,0,8,00,80,00,08,80,00,A8,53,
42279728,000000AE,false,Rx,0,6,BB,06,80,50,00,36,00,00,
42283027,000000C4,false,Rx,0,7,00,80,FD,00,80,28,FF,00,
42293089,000000C4,false,Rx,0,7,00,80,FD,00,80,50,FF,00,
42296044,000000B6,false,Rx,0,5,3B,0B,80,00,F8,00,00,00,
42296336,0000019E,false,Rx,0,8,FF,FB,7F,00,30,F0,FF,3C,
42296529,000000CE,false,Rx,0,8,00,00,00,00,00,00,00,00,
42296813,000002B2,false,Rx,0,6,FF,FF,FF,FF,05,80,00,00,
42297005,000001A0,false,Rx,0,8,00,80,00,08,80,00,B8,63,
42299864,000000AE,false,Rx,0,6,BC,07,80,50,00,36,00,00,
42303097,000000C4,false,Rx,0,7,00,80,FD,00,80,78,FF,00,
42305681,00000192,false,Rx,0,4,6A,00,80,FE,00,00,00,00,
42310037,000004AA,false,Rx,0,8,00,52,FF,FF,FF,FF,FF,FF,
42313080,000000C4,false,Rx,0,7,00,80,FD,00,80,A0,FF,00,
42313463,000005E0,false,Rx,0,8,10,00,00,01,00,FF,FF,FF,
42316043,000000B6,false,Rx,0,5,3C,0C,80,00,F8,00,00,00,
42316335,0000019E,false,Rx,0,8,FF,FB,7F,00,30,F0,FF,3C,
42316528,000000CE,false,Rx,0,8,00,00,00,00,00,00,00,00,
42316812,000002B2,false,Rx,0,6,FF,FF,FF,FF,05,80,00,00,
42317004,000001A0,false,Rx,0,8,00,80,00,08,80,00,C8,73,
42319954,000000AE,false,Rx,0,6,BD,08,80,50,00,36,00,00,
42322999,000000C4,false,Rx,0,7,00,80,FD,00,80,C8,FF,00,
42333037,000000C4,false,Rx,0,7,00,80,FD,00,80,F0,FF,00,
42333964,00000192,false,Rx,0,4,6A,00,80,F1,00,00,00,00,
42336092,000000B6,false,Rx,0,5,3D,0D,80,00,F8,00,00,00,
42336293,0000019E,false,Rx,0,8,FF,FB,7F,00,30,F0,FF,3C,
42336577,000000CE,false,Rx,0,8,00,00,00,00,00,00,00,00,
42336770,000002B2,false,Rx,0,6,FF,FF,FF,FF,05,80,00,00,
42336963,000001A0,false,Rx,0,8,00,80,00,08,80,00,D8,83,
42339737,000000AE,false,Rx,0,6,BE,09,80,50,00,36,00,00,
42343007,000000C4,false,Rx,0,7,00,80,FD,00,80,18,FF,00,
42353049,000000C4,false,Rx,0,7,00,80,FD,00,80,40,FF,00,
42356091,000000B6,false,Rx,0,5,3E,0E,80,00,F8,00,00,00,
42356292,0000019E,false,Rx,0,8,FF,FB,7F,00,30,F0,FF,3C,
42356576,000000CE,false,Rx,0,8,00,00,00,00,00,00,00,00,
42356769,000002B2,false,Rx,0,6,FF,FF,FF,FF,05,80,00,00,
42357055,000001A0,false,Rx,0,8,00,80,00,08,80,00,E8,93,
42359821,000000AE,false,Rx,0,6,C0,0A,80,50,00,37,00,00,
42360013,00000130,false,Rx,0,5,41,43,35,3F,D1,00,00,00,
42363277,000000C4,false,Rx,0,7,00,80,FD,00,80,68,FF,00,
42363742,00000192,false,Rx,0,4,6A,00,80,F2,00,00,00,00,
42370693,00000194,false,Rx,0,4,75,F7,80,FC,00,00,00,00,
42372999,000000C4,false,Rx,0,7,00,80,FD,00,80,90,FF,00,
42376043,000000B6,false,Rx,0,5,30,00,80,00,F8,00,00,00,
42376334,0000019E,false,Rx,0,8,FF,FB,7F,00,30,F0,FF,3C,
42376620,000000CE,false,Rx,0,8,00,00,00,00,00,00,00,00,
42376727,000001A6,false,Rx,0,2,00,00,00,00,00,00,00,00,
42376919,000002B2,false,Rx,0,6,FF,FF,FF,FF,05,80,00,00,
42377203,000001A0,false,Rx,0,8,00,80,00,08,80,00,08,B2,
42379888,000000AE,false,Rx,0,6,C1,0B,80,50,00,37,00,00,
42383026,000000C4,false,Rx,0,7,00,80,FD,00,80,B8,FF,00,
42385251,00000480,false,Rx,0,8,29,42,FF,20,00,00,02,01,
42392685,00000192,false,Rx,0,4,6A,00,80,F3,00,00,00,00,
42393086,000000C4,false,Rx,0,7,00,80,FD,00,80,E0,FF,00,
42396126,000000B6,false,Rx,0,5,31,01,80,00,F8,00,00,00,
42396596,0000019E,false,Rx,0,8,FF,FB,7F,00,30,F0,FF,3C,
42396877,000000CE,false,Rx,0,8,00,00,00,00,00,00,00,00,
42397070,000002B2,false,Rx,0,6,FF,FF,FF,FF,05,80,00,00,
42397269,000001A0,false,Rx,0,8,00,80,00,08,80,00,18,C2,
42399833,000000AE,false,Rx,0,6,C2,0C,80,50,00,37,00,00,
42403043,000000C4,false,Rx,0,7,00,80,FD,00,80,08,FF,00,
42413015,000000C4,false,Rx,0,7,00,80,FD,00,80,30,FF,00,
42416043,000000B6,false,Rx,0,5,32,02,80,00,F8,00,00,00,
42416332,0000019E,false,Rx,0,8,FF,FB,7F,00,30,F0,FF,3C,
42416614,000000CE,false,Rx,0,8,00,00,00,00,00,00,00,00,
42416806,000002B2,false,Rx,0,6,FF,FF,FF,FF,05,80,00,00,
42416997,000001A0,false,Rx,0,8,00,80,00,08,80,00,28,D2,
42419935,000000AE,false,Rx,0,6,C3,0D,80,50,00,37,00,00,
42421865,00000192,false,Rx,0,4,6A,00,80,F4,00,00,00,00,
42423068,000000C4,false,Rx,0,7,00,80,FD,00,80,58,FF,00,
42433037,000000C4,false,Rx,0,7,00,80,FD,00,80,80,FF,00,
42436068,000000B6,false,Rx,0,5,33,03,80,00,F8,00,00,00,
42436268,0000019E,false,Rx,0,8,FF,FB,7F,00,30,F0,FF,3C,
42436550,000000CE,false,Rx,0,8,00,00,00,00,00,00,00,00,
42436741,000002B2,false,Rx,0,6,FF,FF,FF,FF,05,80,00,00,
42437023,000001A0,false,Rx,0,8,00,80,00,08,80,00,38,E2,
42439866,000000AE,false,Rx,0,6,C4,0E,80,50,00,37,00,00,
42443494,000000C4,false,Rx,0,7,00,80,FD,00,80,A8,FF,00,
42451165,00000192,false,Rx,0,4,6A,00,80,F5,00,00,00,00,
42453012,000000C4,false,Rx,0,7,00,80,FD,00,80,D0,FF,00,
42456061,000000B6,false,Rx,0,5,34,04,80,00,F8,00,00,00,
42456262,0000019E,false,Rx,0,8,FF,FB,7F,00,30,F0,FF,3C,
42456547,000000CE,false,Rx,0,8,00,00,00,00,00,00,00,00,
42456740,000002B2,false,Rx,0,6,FF,FF,FF,FF,05,80,00,00,
42457024,000001A0,false,Rx,0,8,00,80,00,08,80,00,48,F2,
42459884,000000AE,false,Rx,0,6,B6,00,80,50,00,37,00,00,
42460080,00000130,false,Rx,0,5,41,43,35,3F,E2,00,00,00,
42463325,000000C4,false,Rx,0,7,00,80,FD,00,80,F8,FF,00,
42473037,000000C4,false,Rx,0,7,00,80,FD,00,80,20,FF,00,
42473511,000005E0,false,Rx,0,8,10,00,00,01,00,FF,FF,FF,
42476092,000001A6,false,Rx,0,2,00,00,00,00,00,00,00,00,
42476290,000000B6,false,Rx,0,5,35,05,80,00,F8,00,00,00,
42476483,0000019E,false,Rx,0,8,FF,FB,8F,00,30,F0,FF,4C,
42476781,000000CE,false,Rx,0,8,00,00,00,00,00,00,00,00,
42476974,000002B2,false,Rx,0,6,FF,FF,FF,FF,05,80,00,00,
42477270,000001A0,false,Rx,0,8,00,80,00,08,80,00,58,03,
42477463,000004A9,false,Rx,0,8,2A,52,FF,FF,FF,FF,FF,FF,
42479950,000000AE,false,Rx,0,6,B7,01,80,50,00,37,00,00,
42481439,00000192,false,Rx,0,4,6A,00,80,F6,00,00,00,00,
42483006,000000C4,false,Rx,0,7,00,80,FD,00,80,48,FF,00,
42493045,000000C4,false,Rx,0,7,00,80,FD,00,80,70,FF,00,
42496070,000000B6,false,Rx,0,5,36,06,80,00,F8,00,00,00,
42496276,0000019E,false,Rx,0,8,FF,FB,8F,00,30,F0,FF,4C,
42496558,000000CE,false,Rx,0,8,00,00,00,00,00,00,00,00,
42496750,000002B2,false,Rx,0,6,FF,FF,FF,FF,05,80,00,00,
42497034,000001A0,false,Rx,0,8,00,80,00,08,80,00,68,13,
42499968,000000AE,false,Rx,0,6,B8,02,80,50,00,37,00,00,
42502999,000000C4,false,Rx,0,7,00,80,FD,00,80,98,FF,00,
42509866,00000192,false,Rx,0,4,6A,00,80,F7,00,00,00,00,
42513080,000000C4,false,Rx,0,7,00,80,FD,00,80,C0,FF,00,
42516107,000000B6,false,Rx,0,5,37,07,80,00,F8,00,00,00,
42516307,0000019E,false,Rx,0,8,FF,FB,8F,00,30,F0,FF,4C,
42516588,000000CE,false,Rx,0,8,00,00,00,00,00,00,00,00,
42516780,000002B2,false,Rx,0,6,FF,FF,FF,FF,05,80,00,00,
42517064,000001A0,false,Rx,0,8,00,80,00,08,80,00,78,23,
42520183,000000AE,false,Rx,0,6,B9,03,80,50,00,37,00,00,
42523027,000000C4,false,Rx,0,7,00,80,FD,00,80,E8,FF,00,
42533100,000000C4,false,Rx,0,7,00,80,FD,00,80,10,FF,00,
42536032,000000B6,false,Rx,0,5,38,08,80,00,F8,00,00,00,
42536323,0000019E,false,Rx,0,8,FF,FB,8F,00,30,F0,FF,4C,
42536514,000000CE,false,Rx,0,8,00,00,00,00,00,00,00,00,
42536796,000002B2,false,Rx,0,6,FF,FF,FF,FF,05,80,00,00,
42536988,000001A0,false,Rx,0,8,00,80,00,08,80,00,88,33,
42539473,00000192,false,Rx,0,4,6A,00,80,F8,00,00,00,00,
42540028,000000AE,false,Rx,0,6,BA,04,80,50,00,37,00,00,
42543053,000000C4,false,Rx,0,7,00,80,FD,00,80,38,FF,00,
42553075,000000C4,false,Rx,0,7,00,80,FD,00,80,60,FF,00,
42556130,000000B6,false,Rx,0,5,39,09,80,00,F8,00,00,00,
42556329,0000019E,false,Rx,0,8,FF,FB,8F,00,30,F0,FF,4C,
42556613,000000CE,false,Rx,0,8,00,00,00,00,00,00,00,00,
42556806,000002B2,false,Rx,0,6,FF,FF,FF,FF,05,80,00,00,
42556999,000001A0,false,Rx,0,8,00,80,00,08,80,00,98,43,
42560043,000000AE,false,Rx,0,6,BC,05,80,50,00,38,00,00,
42560697,00000130,false,Rx,0,5,41,43,35,3F,F3,00,00,00,
42563032,000000C4,false,Rx,0,7,00,80,FD,00,80,88,FF,00,
42569710,00000192,false,Rx,0,4,6A,00,80,F9,00,00,00,00,
42570368,000004AA,false,Rx,0,8,00,52,FF,FF,FF,FF,FF,FF,
42570924,00000194,false,Rx,0,4,76,F8,80,FC,00,00,00,00,
42572981,000000C4,false,Rx,0,7,00,80,FD,00,80,B0,FF,00,
42576118,000000B6,false,Rx,0,5,3A,0A,80,00,F8,00,00,00,
42576318,0000019E,false,Rx,0,8,FF,FB,8F,00,30,F0,FF,4C,
42576604,000000CE,false,Rx,0,8,00,00,00,00,00,00,00,00,
42576712,000001A6,false,Rx,0,2,00,00,00,00,00,00,00,00,
42576904,000002B2,false,Rx,0,6,FF,FF,FF,FF,05,80,00,00,
42577189,000001A0,false,Rx,0,8,00,80,00,08,80,00,A8,53,
42580138,000000AE,false,Rx,0,6,BD,06,80,50,00,38,00,00,
42582999,000000C4,false,Rx,0,7,00,80,FD,00,80,D8,FF,00,
42593081,000000C4,false,Rx,0,7,00,80,FD,00,80,00,FF,00,
42596098,000000B6,false,Rx,0,5,3B,0B,80,00,F8,00,00,00,
42596316,0000019E,false,Rx,0,8,FF,FB,8F,00,30,F0,FF,4C,
42596509,000000CE,false,Rx,0,8,00,00,00,00,00,00,00,00,
42596701,000002B2,false,Rx,0,6,FF,FF,FF,FF,05,80,00,00,
42596985,000001A0,false,Rx,0,8,00,80,00,08,80,00,B8,63,
42598101,00000192,false,Rx,0,4,6A,00,80,FA,00,00,00,00,
42600042,000000AE,false,Rx,0,6,BE,07,80,50,00,38,00,00,
42602992,000000C4,false,Rx,0,7,00,80,FD,00,80,28,FF,00,
42613028,000000C4,false,Rx,0,7,00,80,FD,00,80,50,FF,00,
42616073,000000B6,false,Rx,0,5,3C,0C,80,00,F8,00,00,00,
42616365,0000019E,false,Rx,0,8,FF,FB,8F,00,30,F0,FF,4C,
42616557,000000CE,false,Rx,0,8,00,00,00,00,00,00,00,00,
42616841,000002B2,false,Rx,0,6,FF,FF,FF,FF,05,80,00,00,
42617037,000001A0,false,Rx,0,8,00,80,00,08,80,00,C8,73,
42620080,000000AE,false,Rx,0,6,BF,08,80,50,00,38,00,00,
42623033,000000C4,false,Rx,0,7,00,80,FD,00,80,78,FF,00,
42626907,00000192,false,Rx,0,4,6A,00,80,FB,00,00,00,00,
42633092,000000C4,false,Rx,0,7,00,80,FD,00,80,A0,FF,00,
42633474,000005E0,false,Rx,0,8,10,00,00,01,00,FF,FF,FF,
42636055,000000B6,false,Rx,0,5,3D,0D,80,00,F8,00,00,00,
42636345,0000019E,false,Rx,0,8,FF,FB,8F,00,30,F0,FF,4C,
42636538,000000CE,false,Rx,0,8,00,00,00,00,00,00,00,00,
42636822,000002B2,false,Rx,0,6,FF,FF,FF,FF,05,80,00,00,
42637015,000001A0,false,Rx,0,8,00,80,00,08,80,00,D8,83,
42640061,000000AE,false,Rx,0,6,C0,09,80,50,00,38,00,00,
42643104,000000C4,false,Rx,0,7,00,80,FD,00,80,C8,FF,00,
42645234,00000480,false,Rx,0,8,29,42,FF,20,00,00,02,01,
42653034,000000C4,false,Rx,0,7,00,80,FD,00,80,F0,FF,00,
42656074,000000B6,false,Rx,0,5,3E,0E,80,00,F8,00,00,00,
42656272,0000019E,false,Rx,0,8,FF,FB,8F,00,30,F0,FF,4C,
42656555,000000CE,false,Rx,0,8,00,00,00,00,00,00,00,00,
42656656,00000192,false,Rx,0,4,6A,00,80,FC,00,00,00,00,
42656936,000002B2,false,Rx,0,6,FF,FF,FF,FF,05,80,00,00,
42657130,000001A0,false,Rx,0,8,00,80,00,08,80,00,E8,93,
42660069,000000AE,false,Rx,0,6,C1,0A,80,50,00,38,00,00,
42660269,00000130,false,Rx,0,5,41,43,35,3F,04,00,00,00,
42663106,000000C4,false,Rx,0,7,00,80,FD,00,80,18,FF,00,
42673086,000000C4,false,Rx,0,7,00,80,FD,00,80,40,FF,00,
42676042,000000B6,false,Rx,0,5,30,00,80,00,F8,00,00,00,
42676331,0000019E,false,Rx,0,8,FF,FB,9F,00,30,F0,FF,5C,
42676523,000000CE,false,Rx,0,8,00,00,00,00,00,00,00,00,
42676726,000001A6,false,Rx,0,2,00,00,00,00,00,00,00,00,
42676917,000002B2,false,Rx,0,6,FF,FF,FF,FF,05,80,00,00,
42677113,000001A0,false,Rx,0,8,00,80,00,08,80,00,08,B2,
42680140,000000AE,false,Rx,0,6,C2,0B,80,50,00,38,00,00,
42683080,000000C4,false,Rx,0,7,00,80,FD,00,80,68,FF,00,
42685923,00000192,false,Rx,0,4,6A,00,80,FD,00,00,00,00,
42693062,000000C4,false,Rx,0,7,00,80,FD,00,80,90,FF,00,
42696087,000000B6,false,Rx,0,5,31,01,80,00,F8,00,00,00,
42696287,0000019E,false,Rx,0,8,FF,FB,9F,00,30,F0,FF,5C,
42696569,000000CE,false,Rx,0,8,00,00,00,00,00,00,00,00,
42697630,000002B2,false,Rx,0,6,FF,FF,FF,FF,05,80,00,00,
42697744,000001A0,false,Rx,0,8,00,80,00,08,80,00,18,C2,
42700152,000000AE,false,Rx,0,6,C3,0C,80,50,00,38,00,00,
42703010,000000C4,false,Rx,0,7,00,80,FD,00,80,B8,FF,00,
42713044,000000C4,false,Rx,0,7,00,80,FD,00,80,E0,FF,00,
42715452,00000192,false,Rx,0,4,6A,00,80,FE,00,00,00,00,
42716099,000000B6,false,Rx,0,5,32,02,80,00,F8,00,00,00,
42716300,0000019E,false,Rx,0,8,FF,FB,9F,00,30,F0,FF,5C,
42716584,000000CE,false,Rx,0,8,00,00,00,00,00,00,00,00,
42716776,000002B2,false,Rx,0,6,FF,FF,FF,FF,05,80,00,00,
42716969,000001A0,false,Rx,0,8,00,80,00,08,80,00,28,D2,
42720200,000000AE,false,Rx,0,6,C4,0D,80,50,00,38,00,00,
42723061,000000C4,false,Rx,0,7,00,80,FD,00,80,08,FF,00,
42733090,000000C4,false,Rx,0,7,00,80,FD,00,80,30,FF,00,
42736044,000000B6,false,Rx,0,5,33,03,80,00,F8,00,00,00,
42736334,0000019E,false,Rx,0,8,FF,FB,9F,00,30,F0,FF,5C,
42736616,000000CE,false,Rx,0,8,00,00,00,00,00,00,00,00,
42736809,000002B2,false,Rx,0,6,FF,FF,FF,FF,05,80,00,00,
42737001,000001A0,false,Rx,0,8,00,80,00,08,80,00,38,E2,
42737297,000004A9,false,Rx,0,8,2A,52,FF,FF,FF,FF,FF,FF,
42740342,000000AE,false,Rx,0,6,C5,0E,80,50,00,38,00,00,
42743010,000000C4,false,Rx,0,7,00,80,FD,00,80,58,FF,00,
42744768,00000192,false,Rx,0,4,6A,00,80,F1,00,00,00,00,
42753043,000000C4,false,Rx,0,7,00,80,FD,00,80,80,FF,00,
42756080,000000B6,false,Rx,0,5,34,04,80,00,F8,00,00,00,
42756280,0000019E,false,Rx,0,8,FF,FB,9F,00,30,F0,FF,5C,
42756562,000000CE,false,Rx,0,8,00,00,00,00,00,00,00,00,
42756753,000002B2,false,Rx,0,6,FF,FF,FF,FF,05,80,00,00,
42756944,000001A0,false,Rx,0,8,00,80,00,08,80,00,48,F2,
42760256,000000AE,false,Rx,0,6,B8,00,80,50,00,39,00,00,
42760448,00000130,false,Rx,0,5,41,43,35,3F,15,00,00,00,
42762101,000001B5,false,Rx,0,6,FF,FF,02,00,C8,FF,00,00,
42763026,000000C4,false,Rx,0,7,00,80,FD,00,80,A8,FF,00,
42771653,00000194,false,Rx,0,4,77,F9,80,FC,00,00,00,00,
42773032,000000C4,false,Rx,0,7,00,80,FD,00,80,D0,FF,00,
42773413,00000192,false,Rx,0,4,6A,00,80,F2,00,00,00,00,
42776108,000000B6,false,Rx,0,5,35,05,80,00,F8,00,00,00,
42776315,0000019E,false,Rx,0,8,FF,FB,9F,00,30,F0,FF,5C,
42776506,000000CE,false,Rx,0,8,00,00,00,00,00,00,00,00,
42776703,000001A6,false,Rx,0,2,00,00,00,00,00,00,00,00,
42776894,000002B2,false,Rx,0,6,FF,FF,FF,FF,05,80,00,00,
42777087,000001A0,false,Rx,0,8,00,80,00,08,80,00,58,03,
42780203,000000AE,false,Rx,0,6,B9,01,80,50,00,39,00,00,
42783049,000000C4,false,Rx,0,7,00,80,FD,00,80,F8,FF,00,
42793112,000000C4,false,Rx,0,7,00,80,FD,00,80,20,FF,00,
42796139,000000B6,false,Rx,0,5,36,06,80,00,F8,00,00,00,
42796338,0000019E,false,Rx,0,8,FF,FB,9F,00,30,F0,FF,5C,
42796620,000000CE,false,Rx,0,8,00,00,00,00,00,00,00,00,
42796811,000002B2,false,Rx,0,6,FF,FF,FF,FF,05,80,00,00,
42797096,000001A0,false,Rx,0,8,00,80,00,08,80,00,68,13,
42800290,000000AE,false,Rx,0,6,BA,02,80,50,00,39,00,00,
42802420,00000192,false,Rx,0,4,6A,00,80,F3,00,00,00,00,
42803069,000000C4,false,Rx,0,7,00,80,FD,00,80,48,FF,00,
42813011,000000C4,false,Rx,0,7,00,80,FD,00,80,70,FF,00,
42816055,000000B6,false,Rx,0,5,37,07,80,00,F8,00,00,00,
42816255,0000019E,false,Rx,0,8,FF,FB,9F,00,30,F0,FF,5C,
42816538,000000CE,false,Rx,0,8,00,00,00,00,00,00,00,00,
42816730,000002B2,false,Rx,0,6,FF,FF,FF,FF,05,80,00,00,
42817014,000001A0,false,Rx,0,8,00,80,00,08,80,00,78,23,
42820535,000000AE,false,Rx,0,6,BB,03,80,50,00,39,00,00,
42823308,000000C4,false,Rx,0,7,00,80,FD,00,80,98,FF,00,
42830672,000004AA,false,Rx,0,8,00,52,FF,FF,FF,FF,FF,FF,
42831511,00000192,false,Rx,0,4,6A,00,80,F4,00,00,00,00,
42833080,000000C4,false,Rx,0,7,00,80,FD,00,80,C0,FF,00,
42836121,000000B6,false,Rx,0,5,38,08,80,00,F8,00,00,00,
42836322,0000019E,false,Rx,0,8,FF,FB,9F,00,30,F0,FF,5C,
42836607,000000CE,false,Rx,0,8,00,00,00,00,00,00,00,00,
42836798,000002B2,false,Rx,0,6,FF,FF,FF,FF,05,80,00,00,
42836991,000001A0,false,Rx,0,8,00,80,00,08,80,00,88,33,
42840318,000000AE,false,Rx,0,6,BC,04,80,50,00,39,00,00,
42842992,000000C4,false,Rx,0,7,00,80,FD,00,80,E8,FF,00,
42853101,000000C4,false,Rx,0,7,00,80,FD,00,80,10,FF,00,
42853492,000005E0,false,Rx,0,8,10,00,00,02,00,FF,FF,FF,
42856064,000000B6,false,Rx,0,5,39,09,80,00,F8,00,00,00,
42856263,0000019E,false,Rx,0,8,FF,FB,9F,00,30,F0,FF,5C,
42856546,000000CE,false,Rx,0,8,00,00,00,00,00,00,00,00,
42856738,000002B2,false,Rx,0,6,FF,FF,FF,FF,05,80,00,00,
42857020,000001A0,false,Rx,0,8,00,80,00,08,80,00,98,43,
42859865,00000192,false,Rx,0,4,6A,00,80,F5,00,00,00,00,
42860151,00000130,false,Rx,0,5,41,43,35,3F,36,00,00,00,
42860350,000000AE,false,Rx,0,6,BD,05,80,50,00,39,00,00,
42863100,000000C4,false,Rx,0,7,00,80,FD,00,80,38,FF,00,
42873092,000000C4,false,Rx,0,7,00,80,FD,00,80,60,FF,00,
42876120,000000B6,false,Rx,0,5,3A,0A,80,00,F8,00,00,00,
42876353,0000019E,false,Rx,0,8,FF,FB,AF,00,30,F0,FF,6C,
42876545,000000CE,false,Rx,0,8,00,00,00,00,00,00,00,00,
42876744,000002B2,false,Rx,0,6,FF,FF,FF,FF,05,80,00,00,
42877027,000001A0,false,Rx,0,8,00,80,00,08,80,00,A8,53,
42877219,00000374,false,Rx,0,5,00,00,00,00,FC,00,00,00,
42877326,000001A6,false,Rx,0,2,00,00,00,00,00,00,00,00,
42880372,000000AE,false,Rx,0,6,BE,06,80,50,00,39,00,00,
42883123,000000C4,false,Rx,0,7,00,80,FD,00,80,88,FF,00,
42889875,00000192,false,Rx,0,4,6A,00,80,F6,00,00,00,00,
42893095,000000C4,false,Rx,0,7,00,80,FD,00,80,B0,FF,00,
42896125,000000B6,false,Rx,0,5,3B,0B,80,00,F8,00,00,00,
42896325,0000019E,false,Rx,0,8,FF,FB,AF,00,30,F0,FF,6C,
42896607,000000CE,false,Rx,0,8,00,00,00,00,00,00,00,00,
42896800,000002B2,false,Rx,0,6,FF,FF,FF,FF,05,80,00,00,
42896992,000001A0,false,Rx,0,8,00,80,00,08,80,00,B8,63,
42900925,000000AE,false,Rx,0,6,BF,07,80,50,00,39,00,00,
42903089,000000C4,false,Rx,0,7,00,80,FD,00,80,D8,FF,00,
42905220,00000480,false,Rx,0,8,29,42,FF,20,00,00,02,01,
42913074,000000C4,false,Rx,0,7,00,80,FD,00,80,00,FF,00,
42916037,000000B6,false,Rx,0,5,3C,0C,80,00,F8,00,00,00,
42916329,0000019E,false,Rx,0,8,FF,FB,AF,00,30,F0,FF,6C,
42916522,000000CE,false,Rx,0,8,00,00,00,00,00,00,00,00,
42916715,000002B2,false,Rx,0,6,FF,FF,FF,FF,05,80,00,00,
42916999,000001A0,false,Rx,0,8,00,80,00,08,80,00,C8,73,
42918490,00000192,false,Rx,0,4,6A,00,80,F7,00,00,00,00,
42920528,000000AE,false,Rx,0,6,C0,08,80,50,00,39,00,00,
42923025,000000C4,false,Rx,0,7,00,80,FD,00,80,28,FF,00,
42933087,000000C4,false,Rx,0,7,00,80,FD,00,80,50,FF,00,
42936050,000000B6,false,Rx,0,5,3D,0D,80,00,F8,00,00,00,
42936343,0000019E,false,Rx,0,8,FF,FB,AF,00,30,F0,FF,6C,
42936536,000000CE,false,Rx,0,8,00,00,00,00,00,00,00,00,
42936729,000002B2,false,Rx,0,6,FF,FF,FF,FF,05,80,00,00,
42937014,000001A0,false,Rx,0,8,00,80,00,08,80,00,D8,83,
42940534,000000AE,false,Rx,0,6,C1,09,80,50,00,39,00,00,
42943031,000000C4,false,Rx,0,7,00,80,FD,00,80,78,FF,00,
42947657,00000192,false,Rx,0,4,6A,00,80,F8,00,00,00,00,
42953114,000000C4,false,Rx,0,7,00,80,FD,00,80,A0,FF,00,
42956068,000000B6,false,Rx,0,5,3E,0E,80,00,F8,00,00,00,
42956268,0000019E,false,Rx,0,8,FF,FB,AF,00,30,F0,FF,6C,
42956550,000000CE,false,Rx,0,8,00,00,00,00,00,00,00,00,
42956742,000002B2,false,Rx,0,6,FF,FF,FF,FF,05,80,00,00,
42957026,000001A0,false,Rx,0,8,00,80,00,08,80,00,E8,93,
42960152,00000130,false,Rx,0,5,41,43,35,3F,47,00,00,00,
42960441,000000AE,false,Rx,0,6,C3,0A,80,50,00,3A,00,00,
42963010,000000C4,false,Rx,0,7,00,80,FD,00,80,C8,FF,00,
42971648,00000194,false,Rx,0,4,78,FA,80,FC,00,00,00,00,
42973030,000000C4,false,Rx,0,7,00,80,FD,00,80,F0,FF,00,
42976063,000000B6,false,Rx,0,5,30,00,80,00,F8,00,00,00,
42976261,0000019E,false,Rx,0,8,FF,FB,AF,00,30,F0,FF,6C,
42976544,000000CE,false,Rx,0,8,00,00,00,00,00,00,00,00,
42976651,00000192,false,Rx,0,4,6A,00,80,F9,00,00,00,00,
42976843,000001A6,false,Rx,0,2,00,00,00,00,00,00,00,00,
42977037,000002B2,false,Rx,0,6,FF,FF,FF,FF,05,80,00,00,
42977327,000001A0,false,Rx,0,8,00,80,00,08,80,00,08,B2,
42980415,000000AE,false,Rx,0,6,C4,0B,80,50,00,3A,00,00,
42983076,000000C4,false,Rx,0,7,00,80,FD,00,80,18,FF,00,
42993071,000000C4,false,Rx,0,7,00,80,FD,00,80,40,FF,00,
42996103,000000B6,false,Rx,0,5,31,01,80,00,F8,00,00,00,
42996303,0000019E,false,Rx,0,8,FF,FB,AF,00,30,F0,FF,6C,
42996586,000000CE,false,Rx,0,8,00,00,00,00,00,00,00,00,
42996778,000002B2,false,Rx,0,6,FF,FF,FF,FF,05,80,00,00,
42997064,000001A0,false,Rx,0,8,00,80,00,08,80,00,18,C2,
42997264,000004A9,false,Rx,0,8,2A,52,FF,FF,FF,FF,FF,FF,
43000479,000000AE,false,Rx,0,6,C5,0C,80,50,00,3A,00,00,
43003024,000000C4,false,Rx,0,7,00,80,FD,00,80,68,FF,00,
43004884,00000192,false,Rx,0,4,6A,00,80,FA,00,00,00,00,
43013106,000000C4,false,Rx,0,7,00,80,FD,00,80,90,FF,00,
43013491,000005E0,false,Rx,0,8,10,00,00,02,00,FF,FF,FF,
43016082,000000B6,false,Rx,0,5,32,02,80,00,F8,00,00,00,
43016375,0000019E,false,Rx,0,8,FF,FB,AF,00,30,F0,FF,6C,
43016568,000000CE,false,Rx,0,8,00,00,00,00,00,00,00,00,
43016761,000002B2,false,Rx,0,6,FF,FF,FF,FF,05,80,00,00,
43017049,000001A0,false,Rx,0,8,00,80,00,08,80,00,28,D2,
43020476,000000AE,false,Rx,0,6,C6,0D,80,50,00,3A,00,00,
43023063,000000C4,false,Rx,0,7,00,80,FD,00,80,B8,FF,00,
43033037,000000C4,false,Rx,0,7,00,80,FD,00,80,E0,FF,00,
43034983,00000192,false,Rx,0,4,6A,00,80,FB,00,00,00,00,
43036101,000000B6,false,Rx,0,5,33,03,80,00,F8,00,00,00,
43036302,0000019E,false,Rx,0,8,FF,FB,AF,00,30,F0,FF,6C,
43036587,000000CE,false,Rx,0,8,00,00,00,00,00,00,00,00,
43036780,000002B2,false,Rx,0,6,FF,FF,FF,FF,05,80,00,00,
43037068,000001A0,false,Rx,0,8,00,80,00,08,80,00,38,E2,
43040494,000000AE,false,Rx,0,6,C7,0E,80,50,00,3A,00,00,
43041884,000001D6,false,Rx,0,2,C0,00,00,00,00,00,00,00,
43043095,000000C4,false,Rx,0,7,00,80,FD,00,80,08,FF,00,
43053725,000000C4,false,Rx,0,7,00,80,FD,00,80,32,FF,00,
43056117,000000B6,false,Rx,0,5,34,04,80,00,F8,00,00,00,
43056318,0000019E,false,Rx,0,8,FF,FB,AF,00,30,F0,FF,6C,
43056510,000000CE,false,Rx,0,8,00,00,00,00,00,00,00,00,
43056793,000002B2,false,Rx,0,6,FF,FF,FF,FF,05,80,00,00,
43056985,000001A0,false,Rx,0,8,00,80,00,08,80,00,48,F2,
43060016,00000130,false,Rx,0,5,41,43,35,3F,58,00,00,00,
43060579,000000AE,false,Rx,0,6,B9,00,80,50,00,3A,00,00,
43063061,000000C4,false,Rx,0,7,00,80,FD,00,80,58,FF,00,
43063441,00000192,false,Rx,0,4,6A,00,80,FC,00,00,00,00,
43073081,000000C4,false,Rx,0,7,00,80,FD,00,80,80,FF,00,
43076044,000000B6,false,Rx,0,5,35,05,80,00,F8,00,00,00,
43076242,0000019E,false,Rx,0,8,FF,FB,BF,00,30,F0,FF,7C,
43076525,000000CE,false,Rx,0,8,00,00,00,00,00,00,00,00,
43076631,000001A6,false,Rx,0,2,00,00,00,00,00,00,00,00,
43076914,000002B2,false,Rx,0,6,FF,FF,FF,FF,05,80,00,00,
43077109,000001A0,false,Rx,0,8,00,80,00,08,80,00,58,03,
43080602,000000AE,false,Rx,0,6,BA,01,80,50,00,3A,00,00,
43083022,000000C4,false,Rx,0,7,00,80,FD,00,80,A8,FF,00,
43087809,00000310,false,Rx,0,7,78,75,13,74,00,1F,18,00,
43090933,000004AA,false,Rx,0,8,00,52,FF,FF,FF,FF,FF,FF,
43092686,00000192,false,Rx,0,4,6A,00,80,FD,00,00,00,00,
43093062,000000C4,false,Rx,0,7,00,80,FD,00,80,D0,FF,00,
43096002,000000B6,false,Rx,0,5,36,06,80,00,F8,00,00,00,
43096294,0000019E,false,Rx,0,8,FF,FB,BF,00,30,F0,FF,7C,
43096576,000000CE,false,Rx,0,8,00,00,00,00,00,00,00,00,
43096769,000002B2,false,Rx,0,6,FF,FF,FF,FF,05,80,00,00,
43096961,000001A0,false,Rx,0,8,00,80,00,08,80,00,68,13,
43100641,000000AE,false,Rx,0,6,BB,02,80,50,00,3A,00,00,
43103032,000000C4,false,Rx,0,7,00,80,FD,00,80,F8,FF,00,
43113059,000000C4,false,Rx,0,7,00,80,FD,00,80,20,FF,00,
43116117,000000B6,false,Rx,0,5,37,07,80,00,F8,00,00,00,
43116410,0000019E,false,Rx,0,8,FF,FB,BF,00,30,F0,FF,7C,
43116603,000000CE,false,Rx,0,8,00,00,00,00,00,00,00,00,
43116796,000002B2,false,Rx,0,6,FF,FF,FF,FF,05,80,00,00,
43117082,000001A0,false,Rx,0,8,00,80,00,08,80,00,78,23,
43121008,000000AE,false,Rx,0,6,BC,03,80,50,00,3A,00,00,
43121218,00000192,false,Rx,0,4,6A,00,80,FE,00,00,00,00,
43123062,000000C4,false,Rx,0,7,00,80,FD,00,80,48,FF,00,
43133796,000000C4,false,Rx,0,7,00,80,FD,00,80,73,FF,00,
43136000,000000B6,false,Rx,0,5,38,08,80,00,F8,00,00,00,
43136288,0000019E,false,Rx,0,8,FF,FB,BF,00,30,F0,FF,7C,
43136569,000000CE,false,Rx,0,8,00,00,00,00,00,00,00,00,
43136760,000002B2,false,Rx,0,6,FF,FF,FF,FF,05,80,00,00,
43136952,000001A0,false,Rx,0,8,00,80,00,08,80,00,88,33,
43140624,000000AE,false,Rx,0,6,BD,04,80,50,00,3A,00,00,
43143742,000000C4,false,Rx,0,7,00,80,FD,00,80,9A,FF,00,
43150703,00000192,false,Rx,0,4,6A,00,80,F1,00,00,00,00,
43153638,000000C4,false,Rx,0,7,00,80,FD,00,80,C1,FF,00,
43156063,000000B6,false,Rx,0,5,39,09,80,00,F8,00,00,00,
43156362,0000019E,false,Rx,0,8,FF,FB,BF,00,30,F0,FF,7C,
43156555,000000CE,false,Rx,0,8,00,00,00,00,00,00,00,00,
43156747,000002B2,false,Rx,0,6,FF,FF,FF,FF,05,80,00,00,
43157033,000001A0,false,Rx,0,8,00,80,00,08,80,00,98,43,
43160076,00000130,false,Rx,0,5,41,43,35,3F,69,00,00,00,
43160732,000000AE,false,Rx,0,6,BF,05,80,50,00,3B,00,00,
43163318,000000C4,false,Rx,0,7,00,80,FD,00,80,E8,FF,00,
43165263,00000480,false,Rx,0,8,29,42,FF,20,00,00,02,01,
43171439,00000194,false,Rx,0,4,79,FB,80,FC,00,00,00,00,
43173100,000000C4,false,Rx,0,7,00,80,FD,00,80,10,FF,00,
43173484,000005E0,false,Rx,0,8,10,00,00,02,00,FF,FF,FF,
43176068,000000B6,false,Rx,0,5,3A,0A,80,00,F8,00,00,00,
43176268,0000019E,false,Rx,0,8,FF,FB,BF,00,30,F0,FF,7C,
43176552,000000CE,false,Rx,0,8,00,00,00,00,00,00,00,00,
43176662,000001A6,false,Rx,0,2,00,00,00,00,00,00,00,00,
43176854,000002B2,false,Rx,0,6,FF,FF,FF,FF,05,80,00,00,
43177140,000001A0,false,Rx,0,8,00,80,00,08,80,00,A8,53,
43178897,00000192,false,Rx,0,4,6A,00,80,F2,00,00,00,00,
43180748,000000AE,false,Rx,0,6,C0,06,80,50,00,3B,00,00,
43183054,000000C4,false,Rx,0,7,00,80,FD,00,80,38,FF,00,
43185597,00000380,false,Rx,0,7,44,44,37,38,35,35,37,00,
43190114,00000130,false,Rx,0,5,45,43,35,BF,3A,00,00,00,
43190951,0000023A,false,Rx,0,4,22,FF,00,FF,00,00,00,00,
43193080,000000C4,false,Rx,0,7,00,80,FD,00,80,60,FF,00,
43196123,000000B6,false,Rx,0,5,3B,0B,80,00,F8,00,00,00,
43196324,0000019E,false,Rx,0,8,FF,FB,BF,00,30,F0,FF,7C,
43196607,000000CE,false,Rx,0,8,00,00,00,00,00,00,00,00,
43196708,000000CA,false,Rx,0,2,00,01,00,00,00,00,00,00,
43196900,000002B2,false,Rx,0,6,FF,FF,FF,FF,05,00,00,00,
43197185,000001A0,false,Rx,0,8,00,80,00,08,80,00,B8,63,
43200049,0000021A,false,Rx,0,3,00,20,FC,00,00,00,00,00,
43200796,000000AE,false,Rx,0,6,C1,07,80,50,00,3B,00,00,
43203103,000000C4,false,Rx,0,7,00,80,FD,00,80,88,FF,00,
43207919,00000192,false,Rx,0,4,6A,00,80,F3,00,00,00,00,
43213055,000000C4,false,Rx,0,7,00,80,FD,00,80,B0,FF,00,
43216081,000000B6,false,Rx,0,5,3C,0C,80,00,F8,00,00,00,
43216280,0000019E,false,Rx,0,8,FF,FB,BF,00,30,F0,FF,7C,
43216563,000000CE,false,Rx,0,8,00,00,00,00,00,00,00,00,
43216663,000000CA,false,Rx,0,2,00,02,00,00,00,00,00,00,
43216945,000002B2,false,Rx,0,6,FF,FF,FF,FF,05,00,00,00,
43217140,000001A0,false,Rx,0,8,00,80,00,08,80,00,C8,73,
43220722,000000AE,false,Rx,0,6,C2,08,80,50,00,3B,00,00,
43223107,000000C4,false,Rx,0,7,00,80,FD,00,80,D8,FF,00,
43232993,000000C4,false,Rx,0,7,00,80,FD,00,80,00,FF,00,
43236301,000000B6,false,Rx,0,5,3D,0D,80,00,F8,00,00,00,
43236492,0000019E,false,Rx,0,8,FF,FB,BF,00,30,F0,FF,7C,
43236775,000000CE,false,Rx,0,8,00,00,00,00,00,00,00,00,
43236876,000000CA,false,Rx,0,2,00,03,00,00,00,00,00,00,
43237070,000002B2,false,Rx,0,6,FF,FF,FF,FF,05,00,00,00,
43237360,000001A0,false,Rx,0,8,00,80,00,08,80,00,D8,83,
43237552,000000CB,false,Rx,0,6,0B,03,00,80,3D,FE,00,00,
43237834,00000192,false,Rx,0,4,6A,00,80,F4,00,00,00,00,
43240407,00000130,false,Rx,0,5,45,43,39,BF,8B,00,00,00,
43240689,000000AE,false,Rx,0,6,C3,09,80,50,00,3B,00,00,
43243074,000000C4,false,Rx,0,7,00,80,FD,00,80,28,FF,00,
43253048,000000C4,false,Rx,0,7,00,80,FD,00,80,50,FF,00,
43256698,000000B6,false,Rx,0,5,3E,0E,80,00,F8,00,00,00,
43256809,0000019E,false,Rx,0,8,FF,FB,BF,00,30,F0,FF,7C,
43256925,000000CE,false,Rx,0,8,00,00,00,00,00,00,00,00,
43257021,000000CA,false,Rx,0,2,00,04,00,00,00,00,00,00,
43257123,000002B2,false,Rx,0,6,FF,FF,FF,FF,05,80,00,00,
43257218,000000CB,false,Rx,0,6,08,04,00,80,3D,FE,00,00,
43257419,000001A0,false,Rx,0,8,00,80,00,08,80,00,E8,93,
43257612,000004A9,false,Rx,0,8,2A,42,FF,FF,FF,FF,FF,FF,
43260104,00000130,false,Rx,0,5,45,43,39,BF,9C,00,00,00,
43260759,000000AE,false,Rx,0,6,C4,0A,80,50,00,3B,00,00,
43263068,000000C4,false,Rx,0,7,00,80,FD,00,80,78,FF,00,
43266757,00000192,false,Rx,0,4,6A,00,80,F5,00,00,00,00,
43273124,000000C4,false,Rx,0,7,00,80,FD,00,80,A0,FF,00,
43276078,000000B6,false,Rx,0,5,30,00,80,00,F8,00,00,00,
43276278,0000019E,false,Rx,0,8,FF,FB,CF,00,30,F0,FF,8C,
43276562,000000CE,false,Rx,0,8,00,00,00,00,00,00,00,00,
43276670,000000CA,false,Rx,0,2,00,05,00,00,00,00,00,00,
43276861,000001A6,false,Rx,0,2,00,00,00,00,00,00,00,00,
43277056,000002B2,false,Rx,0,6,FF,FF,FF,FF,05,80,00,00,
43277256,000000CB,false,Rx,0,6,08,05,00,80,3D,FE,00,00,
43277449,000001A0,false,Rx,0,8,00,80,00,08,80,00,08,B2,
43280853,000000AE,false,Rx,0,6,C5,0B,80,50,00,3B,00,00,
43283074,000000C4,false,Rx,0,7,00,80,FD,00,80,C8,FF,00,
43285107,000003B4,false,Rx,0,8,B7,03,00,53,FE,04,31,16,
43287635,000002F8,false,Rx,0,8,FF,FF,FF,FF,FF,FF,FF,F2,
43288763,000001B4,false,Rx,0,8,00,10,E0,F1,02,00,80,1B,
43290524,00000310,false,Rx,0,7,78,75,13,74,00,1F,18,00,
43291082,00000334,false,Rx,0,3,D8,FD,44,00,00,00,00,00,
43293114,000000C4,false,Rx,0,7,00,80,FD,00,80,F0,FF,00,
43296068,000000B6,false,Rx,0,5,31,01,80,00,F8,00,00,00,
43296266,0000019E,false,Rx,0,8,FF,FB,CF,00,30,F0,FF,8C,
43296550,000000CE,false,Rx,0,8,00,00,00,00,00,00,00,00,
43296651,000000CA,false,Rx,0,2,00,06,00,00,00,00,00,00,
43296843,00000192,false,Rx,0,4,6A,00,80,F6,00,00,00,00,
43297219,000000CB,false,Rx,0,6,08,06,00,80,3D,FE,00,00,
43297419,000002B2,false,Rx,0,6,FF,FF,FF,FF,05,80,00,00,
43297703,000001A0,false,Rx,0,8,00,80,00,08,80,00,18,C2,
43301113,000000AE,false,Rx,0,6,C6,0C,80,50,00,3B,00,00,
43303055,000000C4,false,Rx,0,7,00,80,FD,00,80,18,FF,00,
43313074,000000C4,false,Rx,0,7,00,80,FD,00,80,40,FF,00,
43316106,000000B6,false,Rx,0,5,32,02,80,00,F8,00,00,00,
43316577,0000019E,false,Rx,0,8,FF,FB,CF,00,30,F0,FF,8C,
43316768,000000CE,false,Rx,0,8,00,00,00,00,00,00,00,00,
43316960,000000CA,false,Rx,0,2,00,07,00,00,00,00,00,00,
43317153,000002B2,false,Rx,0,6,FF,FF,FF,FF,05,80,00,00,
43317353,000001A0,false,Rx,0,8,00,80,00,08,80,00,28,D2,
43317635,000000CB,false,Rx,0,6,08,07,00,80,3D,FE,00,00,
43321026,000000AE,false,Rx,0,6,C7,0D,80,50,00,3B,00,00,
43323049,000000C4,false,Rx,0,7,00,80,FD,00,80,68,FF,00,
43325896,00000192,false,Rx,0,4,6A,00,80,F7,00,00,00,00,
43333152,000000C4,false,Rx,0,7,00,80,FD,00,80,90,FF,00,
43336086,000000B6,false,Rx,0,5,33,03,80,00,F8,00,00,00,
43336285,0000019E,false,Rx,0,8,FF,FB,CF,00,30,F0,FF,8C,
43336568,000000CE,false,Rx,0,8,00,00,00,00,00,00,00,00,
43336668,000000CA,false,Rx,0,2,00,08,00,00,00,00,00,00,
43336950,000002B2,false,Rx,0,6,FF,FF,FF,FF,05,80,00,00,
43337145,000000CB,false,Rx,0,6,08,08,00,80,3D,FE,00,00,
43337344,000001A0,false,Rx,0,8,00,80,00,08,80,00,38,E2,
43341005,000000AE,false,Rx,0,6,C8,0E,80,50,00,3B,00,00,
43343118,000000C4,false,Rx,0,7,00,80,FD,00,80,B8,FF,00,
43351177,000004AA,false,Rx,0,8,00,42,FF,FF,FF,FF,FF,FF,
43353107,000000C4,false,Rx,0,7,00,80,FD,00,80,E0,FF,00,
43354944,00000192,false,Rx,0,4,6A,00,80,F8,00,00,00,00,
43356055,000000B6,false,Rx,0,5,34,04,80,00,F8,00,00,00,
43356345,0000019E,false,Rx,0,8,FF,FB,CF,00,30,F0,FF,8C,
43356536,000000CE,false,Rx,0,8,00,00,00,00,00,00,00,00,
43356728,000000CA,false,Rx,0,2,00,09,00,00,00,00,00,00,
43356919,000002B2,false,Rx,0,6,FF,FF,FF,FF,05,80,00,00,
43357113,000001A0,false,Rx,0,8,00,80,00,08,80,00,48,F2,
43357312,000000CB,false,Rx,0,6,08,09,00,80,3D,FE,00,00,
43360884,000000AE,false,Rx,0,6,BB,00,80,50,00,3C,00,00,
43361731,00000130,false,Rx,0,5,45,43,39,BF,AD,00,00,00,
43363027,000000C4,false,Rx,0,7,00,80,FD,00,80,08,FF,00,
43371766,00000194,false,Rx,0,4,7A,FC,80,FC,00,00,00,00,
43373055,000000C4,false,Rx,0,7,00,80,FD,00,80,30,FF,00,
43376172,000000B6,false,Rx,0,5,35,05,80,00,F8,00,00,00,
43376372,0000019E,false,Rx,0,8,FF,FB,CF,00,30,F0,FF,8C,
43376666,000000CE,false,Rx,0,8,00,00,00,00,00,00,00,00,
43376766,000000CA,false,Rx,0,2,00,0A,00,00,00,00,00,00,
43376867,000001A6,false,Rx,0,2,00,00,00,00,00,00,00,00,
43377153,000002B2,false,Rx,0,6,FF,FF,FF,FF,05,80,00,00,
43377352,000001A0,false,Rx,0,8,00,80,00,08,80,00,58,03,
43377544,000000CB,false,Rx,0,6,08,0A,00,80,3D,FE,00,00,
43380844,000000AE,false,Rx,0,6,BC,01,80,50,00,3C,00,00,
43383050,000000C4,false,Rx,0,7,00,80,FD,00,80,58,FF,00,
43384754,00000192,false,Rx,0,4,6A,00,80,F9,00,00,00,00,
43387508,000001B4,false,Rx,0,8,00,10,E0,F2,02,00,80,1C,
43393043,000000C4,false,Rx,0,7,00,80,FD,00,80,80,FF,00,
43396069,000000B6,false,Rx,0,5,36,06,80,00,F8,00,00,00,
43396357,0000019E,false,Rx,0,8,FF,FB,CF,00,30,30,00,CB,
43396549,000000CE,false,Rx,0,8,00,00,00,00,00,00,00,00,
43396740,000000CA,false,Rx,0,2,00,0B,00,00,00,00,00,00,
43396931,000002B2,false,Rx,0,6,00,00,00,00,05,80,00,00,
43397124,000001A0,false,Rx,0,8,00,80,00,00,80,00,68,0B,
43397324,000000CB,false,Rx,0,6,08,0B,00,80,3D,FE,00,00,
43401171,000000AE,false,Rx,0,6,BD,02,80,50,00,3C,00,00,
43403101,000000C4,false,Rx,0,7,00,80,FD,00,80,A8,FF,00,
43413005,00000192,false,Rx,0,4,6A,00,80,FA,00,00,00,00,
43413303,000000C4,false,Rx,0,7,00,80,FD,00,80,D0,FF,00,
43416067,000000B6,false,Rx,0,5,37,07,80,00,F8,00,00,00,
43416359,0000019E,false,Rx,0,8,00,E8,CF,00,30,00,00,88,
43416552,000005A9,false,Rx,0,8,40,23,00,15,FF,FF,FF,FF,
43416836,000000CE,false,Rx,0,8,00,00,00,00,00,00,00,00,
43416937,000000CA,false,Rx,0,2,01,0C,00,00,00,00,00,00,
43417131,000002B2,false,Rx,0,6,00,00,00,00,05,80,00,00,
43417605,000000CB,false,Rx,0,6,08,0C,00,80,3D,FE,00,00,
43418075,000001A0,false,Rx,0,8,00,80,00,00,80,00,78,1B,
43421119,000000AE,false,Rx,0,6,BE,03,80,50,00,3C,00,00,
43423062,000000C4,false,Rx,0,7,00,80,FD,00,80,F8,FF,00,
43425287,00000480,false,Rx,0,8,29,42,FF,01,00,00,02,01,
43433108,000000C4,false,Rx,0,7,00,80,FD,00,80,20,FF,00,
43436152,000000B6,false,Rx,0,5,38,08,80,00,F8,00,00,00,
43436443,0000019E,false,Rx,0,8,00,68,CF,00,30,00,00,08,
43436636,000005A9,false,Rx,0,8,40,47,00,15,FF,FF,FF,FF,
43436920,000000CE,false,Rx,0,8,00,00,00,00,00,00,00,00,
43437022,000000CA,false,Rx,0,2,00,0D,00,00,00,00,00,00,
43437214,000002B2,false,Rx,0,6,00,00,00,00,05,80,00,00,
43437506,000001A0,false,Rx,0,8,00,B0,01,00,80,00,88,5C,
43437699,000000CB,false,Rx,0,6,0B,0D,00,80,3D,FE,00,00,
43441107,000000AE,false,Rx,0,6,BF,04,80,50,00,3C,00,00,
43441853,00000192,false,Rx,0,4,6A,00,80,FB,00,00,00,00,
43443251,000000C4,false,Rx,0,7,00,80,FD,00,80,48,FF,00,
43453662,000000C4,false,Rx,0,7,00,80,FD,00,80,71,FF,00,
43456153,000000B6,false,Rx,0,5,39,09,80,00,F8,00,00,00,
43456354,0000019E,false,Rx,0,8,00,68,CF,00,30,00,00,08,
43456638,000005A9,false,Rx,0,8,30,02,00,AC,FF,F1,00,03,
43456830,000000CE,false,Rx,0,8,00,00,00,00,00,00,00,00,
43457024,000000CA,false,Rx,0,2,01,0E,00,00,00,00,00,00,
43457216,000002B2,false,Rx,0,6,00,00,00,00,05,80,00,00,
43457415,000001A0,false,Rx,0,8,00,B0,00,00,80,00,98,6B,
43457608,000000CB,false,Rx,0,6,08,0E,00,80,3D,FE,00,00,
43460507,00000130,false,Rx,0,5,45,43,39,BF,CE,00,00,00,
43461078,000000AE,false,Rx,0,6,C0,05,80,50,00,3C,00,00,
43463559,000000C4,false,Rx,0,7,00,80,FD,00,80,9A,FF,00,
43471534,00000192,false,Rx,0,4,6A,00,80,FC,00,00,00,00,
43473005,000000C4,false,Rx,0,7,00,80,FD,00,80,C0,FF,00,
43476123,000000B6,false,Rx,0,5,3A,0A,80,00,F8,00,00,00,
43476414,0000019E,false,Rx,0,8,00,68,DF,00,30,00,00,18,
43476514,000001A6,false,Rx,0,2,00,00,00,00,00,00,00,00,
43476803,000005A9,false,Rx,0,8,30,06,00,A9,03,F1,0A,03,
43476995,000000CE,false,Rx,0,8,00,00,00,00,00,00,00,00,
43477187,000000CA,false,Rx,0,2,00,0F,00,00,00,00,00,00,
43477386,000002B2,false,Rx,0,6,00,00,00,00,05,80,00,00,
43477758,000000CB,false,Rx,0,6,0B,0F,00,80,3D,FE,00,00,
43478043,000001A0,false,Rx,0,8,00,B0,00,00,80,00,A8,7B,
43480976,000000AE,false,Rx,0,6,C1,06,80,50,00,3C,00,00,
43483091,000000C4,false,Rx,0,7,00,80,FD,00,80,E8,FF,00,
43487582,000001B4,false,Rx,0,8,00,10,E0,F3,02,00,80,1D,
43493578,000000C4,false,Rx,0,7,00,80,FD,00,80,10,FF,00,
43493861,000005F8,false,Rx,0,8,30,04,00,9F,08,01,33,02,
43496068,000000B6,false,Rx,0,5,3B,0B,80,00,F8,00,00,00,
43496358,0000019E,false,Rx,0,8,00,68,DF,00,30,00,00,18,
43496550,000000CE,false,Rx,0,8,00,00,00,00,00,00,00,00,
43496741,000000CA,false,Rx,0,2,01,10,00,00,00,00,00,00,
43496933,000002B2,false,Rx,0,6,00,00,00,00,05,80,00,00,
43497127,000001A0,false,Rx,0,8,00,B0,00,00,80,00,B8,8B,
43497418,000000CB,false,Rx,0,6,08,10,00,80,3D,FE,00,00,
43500987,000000AE,false,Rx,0,6,C2,07,80,50,00,3C,00,00,
43501183,00000192,false,Rx,0,4,6A,00,80,FD,00,00,00,00,
43503756,000000C4,false,Rx,0,7,00,80,FD,00,80,3A,FF,00,
43513069,000000C4,false,Rx,0,7,00,80,FD,00,80,60,FF,00,
43516134,000000B6,false,Rx,0,5,3C,0C,80,00,F8,00,00,00,
43516426,0000019E,false,Rx,0,8,00,68,DF,00,30,00,00,18,
43516709,000000CE,false,Rx,0,8,00,00,00,00,00,00,00,00,
43516811,000000CA,false,Rx,0,2,00,11,00,00,00,00,00,00,
43517003,000002B2,false,Rx,0,6,00,00,00,00,05,80,00,00,
43517298,000001A0,false,Rx,0,8,00,B0,FF,0F,80,00,C8,AA,
43517671,000000CB,false,Rx,0,6,0B,11,00,80,3D,FE,00,00,
43517864,000004A9,false,Rx,0,8,2A,42,FF,FF,FF,FF,FF,FF,
43521005,000000AE,false,Rx,0,6,C3,08,80,50,00,3C,00,00,
43523316,000000C4,false,Rx,0,7,00,80,FD,00,80,88,FF,00,
43530951,00000192,false,Rx,0,4,6A,00,80,FE,00,00,00,00,
43533544,000000C4,false,Rx,0,7,00,80,FD,00,80,B2,FF,00,
43536123,000000B6,false,Rx,0,5,3D,0D,80,00,F8,00,00,00,
43536415,0000019E,false,Rx,0,8,00,68,DF,00,30,00,00,18,
43536608,000000CE,false,Rx,0,8,00,00,00,00,00,00,00,00,
43536800,000000CA,false,Rx,0,2,01,12,00,00,00,00,00,00,
43536992,000002B2,false,Rx,0,6,00,00,00,00,05,80,00,00,
43537186,000000CB,false,Rx,0,6,08,12,00,80,3D,FE,00,00,
43537387,000001A0,false,Rx,0,8,00,B0,FF,0F,80,00,D8,BA,
43541074,000000AE,false,Rx,0,6,C4,09,80,50,00,3C,00,00,
43543013,000000C4,false,Rx,0,7,00,80,FD,00,80,D8,FF,00,
43553602,000000C4,false,Rx,0,7,00,80,FD,00,80,00,FF,00,
43556093,000000B6,false,Rx,0,5,3E,0E,80,00,F8,00,00,00,
43556385,0000019E,false,Rx,0,8,00,68,DF,00,30,00,00,18,
43556578,000000CE,false,Rx,0,8,00,00,00,00,00,00,00,00,
43556770,000000CA,false,Rx,0,2,00,13,00,00,00,00,00,00,
43556963,000002B2,false,Rx,0,6,00,00,00,00,05,80,00,00,
43557159,000001A0,false,Rx,0,8,00,B0,FF,0F,80,00,E8,CA,
43557452,000000CB,false,Rx,0,6,0B,13,00,80,3D,FE,00,00,
43560123,00000130,false,Rx,0,5,45,43,39,BF,D0,00,00,00,
43561612,00000192,false,Rx,0,4,6A,00,80,F1,00,00,00,00,
43561718,000000AE,false,Rx,0,6,C6,0A,80,50,00,3D,00,00,
43563144,000000C4,false,Rx,0,7,00,80,FD,00,80,28,FF,00,
43572764,00000194,false,Rx,0,4,7B,FD,80,FC,00,00,00,00,
43573049,000000C4,false,Rx,0,7,00,80,FD,00,80,50,FF,00,
43576165,000000B6,false,Rx,0,5,30,00,80,00,F8,00,00,00,
43576365,0000019E,false,Rx,0,8,00,68,DF,00,30,00,00,18,
43576656,000000CE,false,Rx,0,8,00,00,00,00,00,00,00,00,
43576756,000000CA,false,Rx,0,2,01,14,00,00,00,00,00,00,
43576856,000001A6,false,Rx,0,2,00,00,00,00,00,00,00,00,
43577141,000002B2,false,Rx,0,6,00,00,00,00,05,80,00,00,
43577793,000000CB,false,Rx,0,6,08,14,00,80,3D,FE,00,00,
43577984,000001A0,false,Rx,0,8,00,B0,FF,0F,80,00,08,E9,
43581291,000000AE,false,Rx,0,6,C7,0B,80,50,00,3D,00,00,
43583033,000000C4,false,Rx,0,7,00,80,FD,00,80,78,FF,00,
43587782,000001B4,false,Rx,0,8,00,10,E0,F4,02,00,80,1E,
43590903,00000192,false,Rx,0,4,6A,00,80,F2,00,00,00,00,
43593123,000000C4,false,Rx,0,7,00,80,FD,00,80,A0,FF,00,
43596176,000000B6,false,Rx,0,5,31,01,80,00,F8,00,00,00,
43596376,0000019E,false,Rx,0,8,00,68,DF,00,30,00,00,18,
43596657,000000CE,false,Rx,0,8,00,00,00,00,00,00,00,00,
43596758,000000CA,false,Rx,0,2,00,15,00,00,00,00,00,00,
43596949,000002B2,false,Rx,0,6,00,00,00,00,05,80,00,00,
43597244,000001A0,false,Rx,0,8,00,B0,FF,0F,80,00,18,F9,
43597436,000000CB,false,Rx,0,6,0B,15,00,80,3D,FE,00,00,
43601098,000000AE,false,Rx,0,6,C8,0C,80,50,00,3D,00,00,
43603029,000000C4,false,Rx,0,7,00,80,FD,00,80,C8,FF,00,
43611457,000004AA,false,Rx,0,8,00,42,FF,FF,FF,FF,FF,FF,
43613278,000000C4,false,Rx,0,7,00,80,FD,00,80,F0,FF,00,
43616136,000000B6,false,Rx,0,5,32,02,80,00,F8,00,00,00,
43616335,0000019E,false,Rx,0,8,00,68,DF,00,30,00,00,18,
43616619,000000CE,false,Rx,0,8,00,00,00,00,00,00,00,00,
43616721,000000CA,false,Rx,0,2,01,16,00,00,00,00,00,00,
43616912,000002B2,false,Rx,0,6,00,00,00,00,05,80,00,00,
43617198,000001A0,false,Rx,0,8,00,B0,FF,0F,80,00,28,0A,
43617399,000000CB,false,Rx,0,6,08,16,00,80,3D,FE,00,00,
43620901,00000192,false,Rx,0,4,6A,00,80,F3,00,00,00,00,
43621095,000000AE,false,Rx,0,6,C9,0D,80,50,00,3D,00,00,
43623129,000000C4,false,Rx,0,7,00,80,FD,00,80,18,FF,00,
43633074,000000C4,false,Rx,0,7,00,80,FD,00,80,40,FF,00,
43636104,000000B6,false,Rx,0,5,33,03,80,00,F8,00,00,00,
43636433,0000019E,false,Rx,0,8,00,68,DF,00,30,00,00,18,
43636647,000000CE,false,Rx,0,8,00,00,00,00,00,00,00,00,
43636748,000000CA,false,Rx,0,2,00,17,00,00,00,00,00,00,
43636940,000002B2,false,Rx,0,6,00,00,00,00,05,80,00,00,
43637232,000001A0,false,Rx,0,8,00,B0,FF,0F,80,00,38,1A,
43637424,000000CB,false,Rx,0,6,0B,17,00,80,3D,FE,00,00,
43641176,000000AE,false,Rx,0,6,CA,0E,80,50,00,3D,00,00,
43643014,000000C4,false,Rx,0,7,00,80,FD,00,80,68,FF,00,
43650979,00000192,false,Rx,0,4,6A,00,80,F4,00,00,00,00,
43653091,000000C4,false,Rx,0,7,00,80,FD,00,80,90,FF,00,
43656118,000000B6,false,Rx,0,5,34,04,80,00,F8,00,00,00,
43656588,0000019E,false,Rx,0,8,00,68,DF,00,30,00,00,18,
43656870,000000CE,false,Rx,0,8,00,00,00,00,00,00,00,00,
43656971,000000CA,false,Rx,0,2,01,18,00,00,00,00,00,00,
43657263,000002B2,false,Rx,0,6,00,00,00,00,05,80,00,00,
43657455,000001A0,false,Rx,0,8,00,B0,FF,0F,80,00,48,2A,
43657646,000000CB,false,Rx,0,6,08,18,00,80,3D,FE,00,00,
43660402,00000130,false,Rx,0,5,45,43,39,BF,E1,00,00,00,
43661139,000000AE,false,Rx,0,6,BC,00,80,50,00,3D,00,00,
43663352,000000C4,false,Rx,0,7,00,80,FD,00,80,B8,FF,00,
43673050,000000C4,false,Rx,0,7,00,80,FD,00,80,E0,FF,00,
43676098,000000B6,false,Rx,0,5,35,05,80,00,F8,00,00,00,
43676389,0000019E,false,Rx,0,8,00,68,EF,00,30,00,00,28,
43676680,000000CE,false,Rx,0,8,00,00,00,00,00,00,00,00,
43676782,000000CA,false,Rx,0,2,00,19,00,00,00,00,00,00,
43676883,000001A6,false,Rx,0,2,00,00,00,00,00,00,00,00,
43677080,000002B2,false,Rx,0,6,00,00,00,00,05,80,00,00,
43677280,000000CB,false,Rx,0,6,0B,19,00,80,3D,FE,00,00,
43677564,000001A0,false,Rx,0,8,00,B0,FF,0F,80,00,58,3A,
43680972,00000192,false,Rx,0,4,6A,00,80,F5,00,00,00,00,
43681280,000000AE,false,Rx,0,6,BD,01,80,50,00,3D,00,00,
43683074,000000C4,false,Rx,0,7,00,80,FD,00,80,08,FF,00,
43685199,00000480,false,Rx,0,8,29,42,FF,01,00,00,02,01,
43687511,000001B4,false,Rx,0,8,00,10,F2,F5,02,00,80,31,
43693037,000000C4,false,Rx,0,7,00,80,FD,00,80,30,FF,00,
43696103,000000B6,false,Rx,0,5,36,06,80,00,F8,00,00,00,
43696395,0000019E,false,Rx,0,8,00,68,EF,00,30,00,00,28,
43696587,000000CE,false,Rx,0,8,00,00,00,00,00,00,00,00,
43696779,000000CA,false,Rx,0,2,01,1A,00,00,00,00,00,00,
43696993,000002B2,false,Rx,0,6,00,00,00,00,05,80,00,00,
43697188,000000CB,false,Rx,0,6,08,1A,00,80,3D,FE,00,00,
43697389,000001A0,false,Rx,0,8,00,B0,FF,0F,80,00,68,4A,
43701165,000000AE,false,Rx,0,6,BE,02,80,50,00,3D,00,00,
43703107,000000C4,false,Rx,0,7,00,80,FD,00,80,58,FF,00,
43710935,00000192,false,Rx,0,4,6A,00,80,F6,00,00,00,00,
43713061,000000C4,false,Rx,0,7,00,80,FD,00,80,80,FF,00,
43716075,000000B6,false,Rx,0,5,37,07,80,00,F8,00,00,00,
43716372,0000019E,false,Rx,0,8,00,68,EF,00,30,00,00,28,
43716564,000000CE,false,Rx,0,8,00,00,00,00,00,00,00,00,
43716756,000000CA,false,Rx,0,2,00,1B,00,00,00,00,00,00,
43716947,000002B2,false,Rx,0,6,00,00,00,00,05,80,00,00,
43717141,000001A0,false,Rx,0,8,00,B0,FF,0F,80,00,78,5A,
43717612,000000CB,false,Rx,0,6,0B,1B,00,80,3D,FE,00,00,
43721281,000000AE,false,Rx,0,6,BF,03,80,50,00,3D,00,00,
43723022,000000C4,false,Rx,0,7,00,80,FD,00,80,A8,FF,00,
43726962,000005E7,false,Rx,0,8,01,01,AA,00,00,00,00,00,
43733102,000000C4,false,Rx,0,7,00,80,FD,00,80,D0,FF,00,
43736128,000000B6,false,Rx,0,5,38,08,80,00,F8,00,00,00,
43736327,0000019E,false,Rx,0,8,00,68,EF,00,30,00,00,28,
43736610,000000CE,false,Rx,0,8,00,00,00,00,00,00,00,00,
43736710,000000CA,false,Rx,0,2,01,1C,00,00,00,00,00,00,
43736901,000002B2,false,Rx,0,6,00,00,00,00,05,80,00,00,
43737374,000000CB,false,Rx,0,6,08,1C,00,80,3D,FE,00,00,
43737657,000001A0,false,Rx,0,8,00,B0,FF,0F,80,00,88,6A,
43740956,00000192,false,Rx,0,4,6A,00,80,F7,00,00,00,00,
43741341,000000AE,false,Rx,0,6,C0,04,80,50,00,3D,00,00,
43743083,000000C4,false,Rx,0,7,00,80,FD,00,80,F8,FF,00,
43753062,000000C4,false,Rx,0,7,00,80,FD,00,80,20,FF,00,
43756183,000000B6,false,Rx,0,5,39,09,80,00,F8,00,00,00,
43756381,0000019E,false,Rx,0,8,00,68,EF,00,30,00,00,28,
43756664,000000CE,false,Rx,0,8,00,00,00,00,00,00,00,00,
43756765,000000CA,false,Rx,0,2,00,1D,00,00,00,00,00,00,
43757049,000002B2,false,Rx,0,6,00,00,00,00,05,80,00,00,
43757249,000001A0,false,Rx,0,8,00,B0,FF,0F,80,00,98,7A,
43757441,000000CB,false,Rx,0,6,0B,1D,00,80,3D,FE,00,00,
43760466,00000130,false,Rx,0,5,45,43,39,BF,F2,00,00,00,
43761301,000000AE,false,Rx,0,6,C2,05,80,50,00,3E,00,00,
43762129,000001B5,false,Rx,0,6,FF,FF,02,00,C8,FF,00,00,
43763055,000000C4,false,Rx,0,7,00,80,FD,00,80,48,FF,00,
43771057,00000192,false,Rx,0,4,6A,00,80,F8,00,00,00,00,
43773013,000000C4,false,Rx,0,7,00,80,FD,00,80,70,FF,00,
43774954,00000194,false,Rx,0,4,7C,FE,80,FC,00,00,00,00,
43776159,000000B6,false,Rx,0,5,3A,0A,80,00,F8,00,00,00,
43776360,0000019E,false,Rx,0,8,00,68,EF,00,30,00,00,28,
43776656,000000CE,false,Rx,0,8,00,00,00,00,00,00,00,00,
43776757,000000CA,false,Rx,0,2,01,1E,00,00,00,00,00,00,
43776858,000001A6,false,Rx,0,2,00,00,00,00,00,00,00,00,
43777055,000002B2,false,Rx,0,6,00,00,00,00,05,80,00,00,
43777254,000000CB,false,Rx,0,6,08,1E,00,80,3D,FE,00,00,
43777538,000001A0,false,Rx,0,8,00,B0,FF,0F,80,00,A8,8A,
43777731,000004A9,false,Rx,0,8,2A,42,FF,FF,FF,FF,FF,FF,
43781420,000000AE,false,Rx,0,6,C3,06,80,50,00,3E,00,00,
43783081,000000C4,false,Rx,0,7,00,80,FD,00,80,98,FF,00,
43787506,000001B4,false,Rx,0,8,00,10,F2,F6,46,00,80,76,
43793037,000000C4,false,Rx,0,7,00,80,FD,00,80,C0,FF,00,
43796172,000000B6,false,Rx,0,5,3B,0B,80,00,F8,00,00,00,
43796645,0000019E,false,Rx,0,8,00,68,EF,00,30,00,00,28,
43796838,000000CE,false,Rx,0,8,00,00,00,00,00,00,00,00,
43797033,000000CA,false,Rx,0,2,00,1F,00,00,00,00,00,00,
43797233,000002B2,false,Rx,0,6,00,00,00,00,05,80,00,00,
43797425,000001A0,false,Rx,0,8,00,B0,00,00,80,00,B8,8B,
43797708,000000CB,false,Rx,0,6,0B,1F,00,80,3D,FE,00,00,
43800982,00000192,false,Rx,0,4,6A,00,80,F9,00,00,00,00,
43801458,000000AE,false,Rx,0,6,C4,07,80,50,00,3E,00,00,
43803026,000000C4,false,Rx,0,7,00,80,FD,00,80,E8,FF,00,
43813061,000000C4,false,Rx,0,7,00,80,FD,00,80,10,FF,00,
43816127,000000B6,false,Rx,0,5,3C,0C,80,00,F8,00,00,00,
43816330,0000019E,false,Rx,0,8,00,68,EF,00,30,00,00,28,
43816620,000000CE,false,Rx,0,8,00,00,00,00,00,00,00,00,
43816727,000000CA,false,Rx,0,2,01,20,00,00,00,00,00,00,
43817075,000002B2,false,Rx,0,6,00,00,00,00,05,80,00,00,
43817176,000001A0,false,Rx,0,8,00,B0,00,00,80,00,C8,9B,
43817376,000000CB,false,Rx,0,6,08,20,00,80,3D,FE,00,00,
43821588,000000AE,false,Rx,0,6,C5,08,80,50,00,3E,00,00,
43823062,000000C4,false,Rx,0,7,00,80,FD,00,80,38,FF,00,
43832213,00000192,false,Rx,0,4,6A,00,80,FA,00,00,00,00,
43833049,000000C4,false,Rx,0,7,00,80,FD,00,80,60,FF,00,
43836165,000000B6,false,Rx,0,5,3D,0D,80,00,F8,00,00,00,
43836365,0000019E,false,Rx,0,8,00,68,EF,00,30,00,00,28,
43836648,000000CE,false,Rx,0,8,00,00,00,00,00,00,00,00,
43836749,000000CA,false,Rx,0,2,00,21,00,00,00,00,00,00,
43836940,000002B2,false,Rx,0,6,00,00,00,00,05,80,00,00,
43837233,000001A0,false,Rx,0,8,00,B0,00,00,80,00,D8,AB,
43837424,000000CB,false,Rx,0,6,0B,21,00,80,3D,FE,00,00,
43841365,000000AE,false,Rx,0,6,C6,09,80,50,00,3E,00,00,
43843119,000000C4,false,Rx,0,7,00,80,FD,00,80,88,FF,00,
43853098,000000C4,false,Rx,0,7,00,80,FD,00,80,B0,FF,00,
43856123,000000B6,false,Rx,0,5,3E,0E,80,00,F8,00,00,00,
43856414,0000019E,false,Rx,0,8,00,68,EF,00,30,00,00,28,
43856605,000000CE,false,Rx,0,8,00,00,00,00,00,00,00,00,
43856796,000000CA,false,Rx,0,2,01,22,00,00,00,00,00,00,
43856987,000002B2,false,Rx,0,6,00,00,00,00,05,80,00,00,
43857182,000001A0,false,Rx,0,8,00,B0,00,00,80,00,E8,BB,
43857381,000000CB,false,Rx,0,6,08,22,00,80,00,80,00,00,
43860127,00000130,false,Rx,0,5,45,43,39,BF,03,00,00,00,
43861334,000000AE,false,Rx,0,6,C7,0A,80,50,00,3E,00,00,
43863076,000000C4,false,Rx,0,7,00,80,FD,00,80,D8,FF,00,
43863456,00000192,false,Rx,0,4,6A,00,80,FB,00,00,00,00,
43871713,000004AA,false,Rx,0,8,00,42,FF,FF,FF,FF,FF,FF,
43873571,000000C4,false,Rx,0,7,00,80,FD,00,80,00,FF,00,
43876061,000000B6,false,Rx,0,5,30,00,80,00,F8,00,00,00,
43876353,0000019E,false,Rx,0,8,00,68,0F,00,30,00,00,47,
43876546,000000CE,false,Rx,0,8,00,00,00,00,00,00,00,00,
43876750,000000CA,false,Rx,0,2,00,23,00,00,00,00,00,00,
43876943,000002B2,false,Rx,0,6,00,00,00,00,05,80,00,00,
43877140,000001A0,false,Rx,0,8,00,B0,00,00,80,00,08,DA,
43877341,000000CB,false,Rx,0,6,09,23,00,80,00,80,00,00,
43877533,00000374,false,Rx,0,5,00,02,0E,10,FC,00,00,00,
43877725,000001A6,false,Rx,0,2,00,00,00,00,00,00,00,00,
43881415,000000AE,false,Rx,0,6,C8,0B,80,50,00,3E,00,00,
43883634,000000C4,false,Rx,0,7,00,80,FD,00,80,29,FF,00,
43887516,000001B4,false,Rx,0,8,00,10,F2,F7,46,00,80,77,
43892210,00000192,false,Rx,0,4,6A,00,80,FC,00,00,00,00,
43893049,000000C4,false,Rx,0,7,00,80,FD,00,80,50,FF,00,
43896373,000000B6,false,Rx,0,5,31,01,80,00,F8,00,00,00,
43896657,0000019E,false,Rx,0,8,00,68,0F,00,30,00,00,47,
43896850,000000CE,false,Rx,0,8,00,00,00,00,00,00,00,00,
43897045,000000CA,false,Rx,0,2,01,24,00,00,00,00,00,00,
43897244,000002B2,false,Rx,0,6,00,00,00,00,05,80,00,00,
43897437,000001A0,false,Rx,0,8,00,B0,00,00,80,00,18,EA,
43897630,000000CB,false,Rx,0,6,08,24,00,80,00,80,00,00,
43901505,000000AE,false,Rx,0,6,C9,0C,80,50,00,3E,00,00,
43903086,000000C4,false,Rx,0,7,00,80,FD,00,80,78,FF,00,
43907940,000002FA,false,Rx,0,5,EC,FF,FF,FF,FF,00,00,00,
43913164,000000C4,false,Rx,0,7,00,80,FD,00,80,A0,FF,00,
43916097,000000B6,false,Rx,0,5,32,02,80,00,F8,00,00,00,
43916388,0000019E,false,Rx,0,8,00,69,0F,00,30,00,00,48,
43916580,000000CE,false,Rx,0,8,00,00,00,00,00,00,00,00,
43917599,000000CA,false,Rx,0,2,00,25,00,00,00,00,00,00,
43917703,000002B2,false,Rx,0,6,00,00,00,00,05,80,00,00,
43917819,000000CB,false,Rx,0,6,09,25,00,80,00,80,00,00,
43917921,000001A0,false,Rx,0,8,00,B0,00,00,80,00,28,FA,
43918397,000002FA,false,Rx,0,5,EC,E3,FF,FF,FF,00,00,00,
43918589,000002FA,false,Rx,0,5,EC,E3,E3,FF,E3,00,00,00,
43921453,000000AE,false,Rx,0,6,CA,0D,80,50,00,3E,00,00,
43922746,00000192,false,Rx,0,4,6A,00,80,FD,00,00,00,00,
43923033,000000C4,false,Rx,0,7,00,80,FD,00,80,C8,FF,00,
43932973,000000C4,false,Rx,0,7,00,80,FD,00,80,F0,FF,00,
43936109,000000B6,false,Rx,0,5,33,03,80,00,F8,00,00,00,
43936308,0000019E,false,Rx,0,8,00,69,0F,00,30,00,00,48,
43936592,000000CE,false,Rx,0,8,00,00,00,00,00,00,00,00,
43936875,000000CA,false,Rx,0,2,01,26,00,00,00,00,00,00,
43937070,000002B2,false,Rx,0,6,00,00,00,00,05,80,00,00,
43937270,000001A0,false,Rx,0,8,00,B0,00,00,80,00,38,0B,
43937644,000000CB,false,Rx,0,6,08,26,00,80,00,80,00,00,
43941426,000000AE,false,Rx,0,6,CB,0E,80,50,00,3E,00,00,
43943087,000000C4,false,Rx,0,7,00,80,FD,00,80,18,FF,00,
43945309,00000480,false,Rx,0,8,29,42,FF,01,00,00,02,01,
43951935,00000192,false,Rx,0,4,6A,00,80,FE,00,00,00,00,
43953330,000000C4,false,Rx,0,7,00,80,FD,00,80,40,FF,00,
43956092,000000B6,false,Rx,0,5,34,04,80,00,F8,00,00,00,
43956657,0000019E,false,Rx,0,8,00,69,0F,00,30,00,00,48,
43956850,000000CE,false,Rx,0,8,00,00,00,00,00,00,00,00,
43957044,000000CA,false,Rx,0,2,00,27,00,00,00,00,00,00,
43957244,000002B2,false,Rx,0,6,00,00,00,00,05,80,00,00,
43957437,000001A0,false,Rx,0,8,00,B0,01,00,80,00,48,1C,
43957721,000000CB,false,Rx,0,6,0B,27,00,80,00,80,00,00,
43960762,00000130,false,Rx,0,5,45,43,39,BF,14,00,00,00,
43961510,000000AE,false,Rx,0,6,AF,00,80,50,00,30,00,00,
43963635,000000C4,false,Rx,0,7,00,80,FD,00,80,6A,FF,00,
43973045,000000C4,false,Rx,0,7,00,80,FD,00,80,90,FF,00,
43976086,000000B6,false,Rx,0,5,35,05,80,00,F8,00,00,00,
43976376,0000019E,false,Rx,0,8,00,69,0F,00,30,00,00,48,
43976667,000000CE,false,Rx,0,8,00,00,00,00,00,00,00,00,
43976768,000000CA,false,Rx,0,2,01,28,00,00,00,00,00,00,
43976958,00000194,false,Rx,0,4,6E,F0,80,FC,00,00,00,00,
43977062,000001A6,false,Rx,0,2,00,00,00,00,00,00,00,00,
43977261,000000CB,false,Rx,0,6,08,28,00,80,00,80,00,00,
43977453,000002B2,false,Rx,0,6,00,00,00,00,05,80,00,00,
43977734,000001A0,false,Rx,0,8,00,B0,01,00,80,00,58,2C,
43980669,00000192,false,Rx,0,4,6A,00,80,F1,00,00,00,00,
43981776,000000AE,false,Rx,0,6,B0,01,80,50,00,30,00,00,
43983068,000000C4,false,Rx,0,7,00,80,FD,00,80,B8,FF,00,
43987563,000001B4,false,Rx,0,8,00,10,F2,F8,46,02,80,7A,
43993055,000000C4,false,Rx,0,7,00,80,FD,00,80,E0,FF,00,
43996177,000000B6,false,Rx,0,5,36,06,80,00,F8,00,00,00,
43996376,0000019E,false,Rx,0,8,00,69,0F,00,30,00,00,48,
43996658,000000CE,false,Rx,0,8,00,00,00,00,00,00,00,00,
43996759,000000CA,false,Rx,0,2,00,29,00,00,00,00,00,00,
43996950,000002B2,false,Rx,0,6,00,00,00,00,05,80,00,00,
43997244,000001A0,false,Rx,0,8,00,B0,00,00,80,00,68,3B,
43997798,000000CB,false,Rx,0,6,09,29,00,80,00,80,00,00,
44001558,000000AE,false,Rx,0,6,B1,02,80,50,00,30,00,00,
44003041,000000C4,false,Rx,0,7,00,80,FD,00,80,08,FF,00,
44009032,00000192,false,Rx,0,4,6A,00,80,F2,00,00,00,00,
44013068,000000C4,false,Rx,0,7,00,80,FD,00,80,30,FF,00,
44016098,000000B6,false,Rx,0,5,37,07,80,00,F8,00,00,00,
44016387,0000019E,false,Rx,0,8,00,69,0F,00,30,00,00,48,
44016669,000000CE,false,Rx,0,8,00,00,00,00,00,00,00,00,
44016770,000000CA,false,Rx,0,2,01,2A,00,00,00,00,00,00,
44016961,000002B2,false,Rx,0,6,00,00,00,00,05,80,00,00,
44017253,000001A0,false,Rx,0,8,00,B0,01,00,80,00,78,4C,
44017444,000000CB,false,Rx,0,6,08,2A,00,80,00,80,00,00,
44021569,000000AE,false,Rx,0,6,B2,03,80,50,00,30,00,00,
44023055,000000C4,false,Rx,0,7,00,80,FD,00,80,58,FF,00,
44032992,000000C4,false,Rx,0,7,00,80,FD,00,80,80,FF,00,
44036128,000000B6,false,Rx,0,5,38,08,80,00,F8,00,00,00,
44036328,0000019E,false,Rx,0,8,00,69,0F,00,30,00,00,48,
44036612,000000CE,false,Rx,0,8,00,00,00,00,00,00,00,00,
44036713,000000CA,false,Rx,0,2,00,2B,00,00,00,00,00,00,
44036906,000002B2,false,Rx,0,6,00,00,00,00,05,80,00,00,
44037193,000001A0,false,Rx,0,8,00,B0,00,00,80,00,88,5B,
44037393,000000CB,false,Rx,0,6,0B,2B,00,80,00,80,00,00,
44037586,000004A9,false,Rx,0,8,2A,42,FF,FF,FF,FF,FF,FF,
44038700,00000192,false,Rx,0,4,6A,00,80,F3,00,00,00,00,
44041561,000000AE,false,Rx,0,6,B3,04,80,50,00,30,00,00,
44041662,000001D6,false,Rx,0,2,C0,00,00,00,00,00,00,00,
44043049,000000C4,false,Rx,0,7,00,80,FD,00,80,A8,FF,00,
44053080,000000C4,false,Rx,0,7,00,80,FD,00,80,D0,FF,00,
44056121,000000B6,false,Rx,0,5,39,09,80,00,F8,00,00,00,
44056323,0000019E,false,Rx,0,8,00,69,0F,00,30,00,00,48,
44056607,000000CE,false,Rx,0,8,00,00,00,00,00,00,00,00,
44056708,000000CA,false,Rx,0,2,01,2C,00,00,00,00,00,00,
44056902,000002B2,false,Rx,0,6,00,00,00,00,05,80,00,00,
44057378,000000CB,false,Rx,0,6,08,2C,00,80,00,80,00,00,
44057570,000001A0,false,Rx,0,8,00,B0,01,00,80,00,98,6C,
44060152,00000130,false,Rx,0,5,45,43,39,BF,25,00,00,00,
44061545,000000AE,false,Rx,0,6,B4,05,80,50,00,30,00,00,
44063206,000000C4,false,Rx,0,7,00,80,FD,00,80,F8,FF,00,
44068464,00000192,false,Rx,0,4,6A,00,80,F4,00,00,00,00,
44073075,000000C4,false,Rx,0,7,00,80,FD,00,80,20,FF,00,
44076112,000001A6,false,Rx,0,2,00,00,00,00,00,00,00,00,
44076310,000000B6,false,Rx,0,5,3A,0A,80,00,F8,00,00,00,
44076501,0000019E,false,Rx,0,8,00,69,1F,00,30,00,00,58,
44076795,000000CE,false,Rx,0,8,00,00,00,00,00,00,00,00,
44077080,000000CA,false,Rx,0,2,00,2D,00,00,00,00,00,00,
44077278,000002B2,false,Rx,0,6,00,00,00,00,05,80,00,00,
44077470,000001A0,false,Rx,0,8,00,B0,00,00,80,00,A8,7B,
44077752,000000CB,false,Rx,0,6,09,2D,00,80,00,80,00,00,
44081606,000000AE,false,Rx,0,6,B5,06,80,50,00,30,00,00,
44083076,000000C4,false,Rx,0,7,00,80,FD,00,80,48,FF,00,
44087108,000001B4,false,Rx,0,8,00,10,F2,F9,46,02,80,7B,
44088213,00000310,false,Rx,0,7,78,76,13,74,00,1F,18,00,
44093072,000000C4,false,Rx,0,7,00,80,FD,00,80,70,FF,00,
44096100,000000B6,false,Rx,0,5,3B,0B,80,00,F8,00,00,00,
44096299,0000019E,false,Rx,0,8,00,69,1F,00,30,00,00,58,
44096583,000000CE,false,Rx,0,8,00,00,00,00,00,00,00,00,
44096684,000000CA,false,Rx,0,2,01,2E,00,00,00,00,00,00,
44096875,000002B2,false,Rx,0,6,00,00,00,00,05,80,00,00,
44097158,000001A0,false,Rx,0,8,00,B0,00,00,80,00,B8,8B,
44097358,000000CB,false,Rx,0,6,08,2E,00,80,00,80,00,00,
44098284,00000192,false,Rx,0,4,6A,00,80,F5,00,00,00,00,
44101606,000000AE,false,Rx,0,6,B6,07,80,50,00,30,00,00,
44103076,000000C4,false,Rx,0,7,00,80,FD,00,80,98,FF,00,
44113282,000000C4,false,Rx,0,7,00,80,FD,00,80,C0,FF,00,
44116118,000000B6,false,Rx,0,5,3C,0C,80,00,F8,00,00,00,
44116317,0000019E,false,Rx,0,8,00,69,1F,00,30,00,00,58,
44116599,000000CE,false,Rx,0,8,00,00,00,00,00,00,00,00,
44116700,000000CA,false,Rx,0,2,00,2F,00,00,00,00,00,00,
44116982,000002B2,false,Rx,0,6,00,00,00,00,05,80,00,00,
44117178,000001A0,false,Rx,0,8,00,B0,00,00,80,00,C8,9B,
44117468,000000CB,false,Rx,0,6,0B,2F,00,80,00,80,00,00,
44121669,000000AE,false,Rx,0,6,B7,08,80,50,00,30,00,00,
44123062,000000C4,false,Rx,0,7,00,80,FD,00,80,E8,FF,00,
44126929,00000192,false,Rx,0,4,6A,00,80,F6,00,00,00,00,
44131998,000004AA,false,Rx,0,8,00,42,FF,FF,FF,FF,FF,FF,
44133113,000000C4,false,Rx,0,7,00,80,FD,00,80,10,FF,00,
44136257,000000B6,false,Rx,0,5,3D,0D,80,00,F8,00,00,00,
44136541,0000019E,false,Rx,0,8,00,69,1F,00,30,00,00,58,
44136825,000000CE,false,Rx,0,8,00,00,00,00,00,00,00,00,
44136926,000000CA,false,Rx,0,2,01,30,00,00,00,00,00,00,
44137120,000002B2,false,Rx,0,6,00,00,00,00,05,80,00,00,
44137412,000001A0,false,Rx,0,8,00,B0,00,00,80,00,D8,AB,
44137605,000000CB,false,Rx,0,6,08,30,00,80,00,80,00,00,
44141763,000000AE,false,Rx,0,6,B8,09,80,50,00,30,00,00,
44143060,000000C4,false,Rx,0,7,00,80,FD,00,80,38,FF,00,
44153130,000000C4,false,Rx,0,7,00,80,FD,00,80,60,FF,00,
44156157,000000B6,false,Rx,0,5,3E,0E,80,00,F8,00,00,00,
44156356,0000019E,false,Rx,0,8,00,69,1F,00,30,00,00,58,
44156638,000000CE,false,Rx,0,8,00,00,00,00,00,00,00,00,
44156739,000000CA,false,Rx,0,2,00,31,00,00,00,00,00,00,
44156930,00000192,false,Rx,0,4,6A,00,80,F7,00,00,00,00,
44157123,000002B2,false,Rx,0,6,00,00,00,00,05,80,00,00,
44157323,000000CB,false,Rx,0,6,09,31,00,80,00,80,00,00,
44157605,000001A0,false,Rx,0,8,00,B0,00,00,80,00,E8,BB,
44160081,00000130,false,Rx,0,5,45,43,39,BF,36,00,00,00,
44161647,000000AE,false,Rx,0,6,BA,0A,80,50,00,31,00,00,
44163117,000000C4,false,Rx,0,7,00,80,FD,00,80,88,FF,00,
44173134,000000C4,false,Rx,0,7,00,80,FD,00,80,B0,FF,00,
44176097,000000B6,false,Rx,0,5,30,00,80,00,F8,00,00,00,
44176388,0000019E,false,Rx,0,8,00,69,1F,00,30,00,00,58,
44176580,000000CE,false,Rx,0,8,00,00,00,00,00,00,00,00,
44176784,000000CA,false,Rx,0,2,01,32,00,00,00,00,00,00,
44176885,000001A6,false,Rx,0,2,00,00,00,00,00,00,00,00,
44177081,000002B2,false,Rx,0,6,00,00,00,00,05,80,00,00,
44177282,000000CB,false,Rx,0,6,08,32,00,80,00,80,00,00,
44177566,000001A0,false,Rx,0,8,00,B0,00,00,80,00,08,DA,
44177759,00000194,false,Rx,0,4,6F,F1,80,FC,00,00,00,00,
44181725,000000AE,false,Rx,0,6,BB,0B,80,50,00,31,00,00,
44183020,000000C4,false,Rx,0,7,00,80,FD,00,80,D8,FF,00,
