Time Stamp,ID,Extended,Dir,Bus,LEN,D1,D2,D3,D4,D5,D6,D7,D8
5346951,00000480,false,Rx,0,8,00,01,FF,21,00,02,02,01,
5367609,00000192,false,Rx,0,4,6A,00,FF,F4,00,00,00,00,
5373588,000003B4,false,Rx,0,8,C0,03,09,53,FE,B1,33,16,
5394080,000001B5,false,Rx,0,6,FF,FF,02,00,C8,FF,00,00,
5401462,00000130,false,Rx,0,5,00,EF,34,3F,E1,00,00,00,
5416558,00000480,false,Rx,0,8,00,02,FF,21,00,00,02,01,
5421503,000001D6,false,Rx,0,2,FF,3F,00,00,00,00,00,00,
5422878,00000192,false,Rx,0,4,6A,00,FF,F6,00,00,00,00,
5429665,000000C4,false,Rx,0,7,00,80,FD,00,80,26,FF,00,
5430771,000001D6,false,Rx,0,2,FF,3F,00,00,00,00,00,00,
5439661,000000C4,false,Rx,0,7,00,80,FD,00,80,4E,FF,00,
5441771,00000130,false,Rx,0,5,80,EF,34,3F,82,00,00,00,
5449702,000000C4,false,Rx,0,7,00,80,FD,00,80,76,FF,00,
5453593,00000192,false,Rx,0,4,6A,00,E0,F7,00,00,00,00,
5455261,000001D6,false,Rx,0,2,C0,0C,00,00,00,00,00,00,
5456481,000001D6,false,Rx,0,2,C0,00,00,00,00,00,00,00,
5459698,000000C4,false,Rx,0,7,00,80,FD,00,80,9E,FF,00,
5469619,000000C4,false,Rx,0,7,00,80,FD,00,80,C6,FF,00,
5477692,000000B6,false,Rx,0,5,31,01,80,00,F8,00,00,00,
5477975,0000019E,false,Rx,0,8,FF,FB,0F,00,30,F3,FF,CE,
5478170,000000CE,false,Rx,0,8,00,80,00,80,00,80,00,80,
5478369,000002B2,false,Rx,0,6,FF,FF,FF,FF,05,80,00,00,
5478652,000001A0,false,Rx,0,8,FF,FF,00,08,80,00,18,42,
5481413,000000C4,false,Rx,0,7,00,80,FD,00,80,CB,FF,00,
5483530,00000192,false,Rx,0,4,6A,00,80,F8,00,00,00,00,
5490371,000000C4,false,Rx,0,7,00,80,FD,00,80,F2,FF,00,
5491480,000001D6,false,Rx,0,2,C0,00,00,00,00,00,00,00,
5491943,00000130,false,Rx,0,5,80,EF,36,3F,B3,00,00,00,
5497548,000000B6,false,Rx,0,5,32,02,80,00,F8,00,00,00,
5497740,0000019E,false,Rx,0,8,FF,FB,0F,00,30,F3,FF,CE,
5498023,000000CE,false,Rx,0,8,00,80,00,80,00,80,00,80,
5498217,000002B2,false,Rx,0,6,FF,FF,FF,FF,05,80,00,00,
5498507,000001A0,false,Rx,0,8,FF,FF,00,08,80,00,28,52,
5498700,000004A9,false,Rx,0,8,29,01,FF,FF,FF,FF,FF,FF,
5500351,000000C4,false,Rx,0,7,00,80,FD,00,80,19,FF,00,
5510511,000000C4,false,Rx,0,7,00,80,FD,00,80,43,FF,00,
5512442,00000192,false,Rx,0,4,6A,00,80,F9,00,00,00,00,
5517480,000000B6,false,Rx,0,5,33,03,80,00,F8,00,00,00,
5517762,0000019E,false,Rx,0,8,FF,FB,0F,00,30,F3,FF,CE,
5517953,000000CE,false,Rx,0,8,00,80,00,80,00,80,00,80,
5518146,000002B2,false,Rx,0,6,FF,FF,FF,FF,05,80,00,00,
5518435,000001A0,false,Rx,0,8,FF,FF,00,08,80,00,38,62,
5519901,000000C4,false,Rx,0,7,00,80,FD,00,80,69,FF,00,
5529884,000000C4,false,Rx,0,7,00,80,FD,00,80,91,FF,00,
5530075,000004AA,false,Rx,0,8,2A,01,FF,FF,FF,FF,FF,FF,
5537503,000000B6,false,Rx,0,5,34,04,80,00,F8,00,00,00,
5537784,0000019E,false,Rx,0,8,FF,FB,0F,00,30,F3,FF,CE,
5537975,000005A9,false,Rx,0,8,40,4A,00,00,FF,FF,FF,FF,
5538260,000000CE,false,Rx,0,8,00,80,00,80,00,80,00,80,
5538458,000002B2,false,Rx,0,6,FF,FF,FF,FF,05,80,00,00,
5538740,000001A0,false,Rx,0,8,FF,FF,00,08,80,00,48,72,
5539484,000000AE,false,Rx,0,6,70,00,80,50,C0,30,00,00,
5540128,000000C4,false,Rx,0,7,00,80,FD,00,80,B9,FF,00,
5541051,00000192,false,Rx,0,4,6A,00,80,FA,00,00,00,00,
5541432,000001D6,false,Rx,0,2,C0,00,00,00,00,00,00,00,
5544087,00000130,false,Rx,0,5,41,43,35,3F,04,00,00,00,
5547575,00000380,false,Rx,0,7,44,44,37,38,35,35,37,00,
5549866,000000C4,false,Rx,0,7,00,80,FD,00,80,E1,FF,00,
5553541,00000388,false,Rx,0,7,01,01,68,25,F2,01,24,00,
5554013,0000023A,false,Rx,0,4,22,FF,00,FF,00,00,00,00,
5554939,000000A8,false,Rx,0,8,CC,00,00,00,00,0F,0F,06,
5555224,000000A9,false,Rx,0,8,A9,00,00,00,00,00,00,00,
5555514,000000AA,false,Rx,0,8,AE,00,00,00,FF,FF,04,00,
5556805,00000492,false,Rx,0,8,12,01,FF,FF,FF,FF,FF,FF,
5557553,000000B6,false,Rx,0,5,35,05,80,00,F8,00,00,00,
5557835,0000019E,false,Rx,0,8,FF,FB,0F,00,30,F3,FF,CE,
5558027,000000CE,false,Rx,0,8,00,80,00,80,00,80,00,80,
5558220,000001A6,false,Rx,0,2,FF,FF,00,00,00,00,00,00,
5558419,000002B2,false,Rx,0,6,FF,FF,FF,FF,05,80,00,00,
5558610,000001A0,false,Rx,0,8,FF,FF,00,08,80,00,58,82,
5559540,000000AE,false,Rx,0,6,B0,01,80,50,00,30,00,00,
5560004,000000C4,false,Rx,0,7,00,80,FD,00,80,09,FF,00,
5561021,000005AA,false,Rx,0,8,40,36,00,05,FF,FF,FF,FF,
5564602,000001D0,false,Rx,0,8,FF,FF,00,CB,00,00,FD,00,
5564885,000000A8,false,Rx,0,8,CD,01,00,00,00,0F,0F,06,
5565076,000000A9,false,Rx,0,8,AA,01,00,00,00,00,00,00,
5565372,000000AA,false,Rx,0,8,AF,01,00,00,FF,FF,04,00,
5568506,00000330,false,Rx,0,8,FF,FF,FF,FF,FF,FF,F3,FF,
5570175,000000C4,false,Rx,0,7,00,80,FD,00,80,31,FF,00,
5570291,000002F8,false,Rx,0,8,FF,FF,FF,FF,FF,FF,FF,F0,
5571045,00000192,false,Rx,0,4,6A,00,80,FB,00,00,00,00,
5571970,00000194,false,Rx,0,4,6E,F0,80,FC,00,00,00,00,
5574726,000000A8,false,Rx,0,8,CE,02,00,00,00,0F,0F,06,
5575008,000000A9,false,Rx,0,8,AB,02,00,00,00,00,00,00,
5575292,000000AA,false,Rx,0,8,B0,02,00,00,FF,FF,04,00,
5577590,000000B6,false,Rx,0,5,36,06,80,00,F8,00,00,00,
5577782,0000019E,false,Rx,0,8,FF,FB,0F,00,30,F3,FF,CE,
5578063,000000CE,false,Rx,0,8,00,80,00,80,00,80,00,80,
5578257,000002B2,false,Rx,0,6,FF,FF,FF,FF,05,80,00,00,
5578455,000001A0,false,Rx,0,8,FF,FF,00,08,80,00,68,92,
5578737,000004A9,false,Rx,0,8,2A,02,FF,FF,FF,FF,FF,FF,
5579481,000000AE,false,Rx,0,6,B1,02,80,50,00,30,00,00,
5579852,000000C4,false,Rx,0,7,00,80,FD,00,80,59,FF,00,
5584702,000000A8,false,Rx,0,8,CF,03,00,00,00,0F,0F,06,
5584984,000000A9,false,Rx,0,8,AC,03,00,00,00,00,00,00,
5585268,000000AA,false,Rx,0,8,B1,03,00,00,FF,FF,04,00,
5589993,000000C4,false,Rx,0,7,00,80,FD,00,80,81,FF,00,
5592016,000001D6,false,Rx,0,2,C0,00,00,00,00,00,00,00,
5594772,000000A8,false,Rx,0,8,D0,04,00,00,00,0F,0F,06,
5595054,000000A9,false,Rx,0,8,AD,04,00,00,00,00,00,00,
5595346,000000AA,false,Rx,0,8,B2,04,00,00,FF,FF,04,00,
5597546,000000B6,false,Rx,0,5,37,07,80,00,F8,00,00,00,
5597827,0000019E,false,Rx,0,8,FF,FB,0F,00,30,F3,FF,CE,
5598018,000000CE,false,Rx,0,8,00,80,00,80,00,80,00,80,
5598214,000002B2,false,Rx,0,6,FF,FF,FF,FF,05,80,00,00,
5598503,000001A0,false,Rx,0,8,FF,FF,00,08,80,00,78,A2,
5599518,000000AE,false,Rx,0,6,B2,03,80,50,00,30,00,00,
5600163,000000C4,false,Rx,0,7,00,80,FD,00,80,A9,FF,00,
5600362,00000192,false,Rx,0,4,6A,00,80,FC,00,00,00,00,
5604782,000000A8,false,Rx,0,8,D1,05,00,00,00,0F,0F,06,
5604981,000000A9,false,Rx,0,8,AE,05,00,00,00,00,00,00,
5605268,000000AA,false,Rx,0,8,B3,05,00,00,FF,FF,04,00,
5609859,000000C4,false,Rx,0,7,00,80,FD,00,80,D1,FF,00,
5614729,000000A8,false,Rx,0,8,D2,06,00,00,00,0F,0F,06,
5615012,000000A9,false,Rx,0,8,AF,06,00,00,00,00,00,00,
5615578,000000AA,false,Rx,0,8,B4,06,00,00,FF,FF,04,00,
5617512,000000B6,false,Rx,0,5,38,08,80,00,F8,00,00,00,
5617795,0000019E,false,Rx,0,8,FF,FB,0F,00,30,F3,FF,CE,
5617988,000005A9,false,Rx,0,8,40,EC,00,00,FF,FF,FF,FF,
5618273,000000CE,false,Rx,0,8,00,80,00,80,00,80,00,80,
5618473,000002B2,false,Rx,0,6,FF,FF,FF,FF,05,80,00,00,
5618756,000001A0,false,Rx,0,8,FF,FF,00,08,80,00,88,B2,
5619412,000000AE,false,Rx,0,6,B3,04,80,50,00,30,00,00,
5620151,000000C4,false,Rx,0,7,00,80,FD,00,80,F9,FF,00,
5624747,000000A8,false,Rx,0,8,D3,07,00,00,00,0F,0F,06,
5625030,000000A9,false,Rx,0,8,B0,07,00,00,00,00,00,00,
5625315,000000AA,false,Rx,0,8,B5,07,00,00,FF,FF,04,00,
5629278,00000192,false,Rx,0,4,6A,00,80,FD,00,00,00,00,
5629841,000000C4,false,Rx,0,7,00,80,FD,00,80,21,FF,00,
5634705,000000A8,false,Rx,0,8,D4,08,00,00,00,0F,0F,06,
5634987,000000A9,false,Rx,0,8,B1,08,00,00,00,00,00,00,
5635292,000000AA,false,Rx,0,8,B6,08,00,00,FF,FF,04,00,
5637506,000000B6,false,Rx,0,5,39,09,80,00,F8,00,00,00,
5637790,0000019E,false,Rx,0,8,FF,FB,0F,00,30,F0,FF,CB,
5637982,000000CE,false,Rx,0,8,00,80,00,80,00,80,00,80,
5638177,000002B2,false,Rx,0,6,FF,FF,FF,FF,05,80,00,00,
5638468,000001A0,false,Rx,0,8,FF,FF,00,08,80,00,98,C2,
5639576,000000AE,false,Rx,0,6,B4,05,80,50,00,30,00,00,
5639858,000000C4,false,Rx,0,7,00,80,FD,00,80,49,FF,00,
5641704,000001D6,false,Rx,0,2,C0,00,00,00,00,00,00,00,
5641986,00000130,false,Rx,0,5,41,43,35,3F,15,00,00,00,
5644749,000000A8,false,Rx,0,8,D5,09,00,00,00,0F,0F,06,
5645033,000000A9,false,Rx,0,8,B2,09,00,00,00,00,00,00,
5645317,000000AA,false,Rx,0,8,B7,09,00,00,FF,FF,04,00,
5650091,000000C4,false,Rx,0,7,00,80,FD,00,80,71,FF,00,
5654599,00000592,false,Rx,0,8,40,22,00,21,FF,FF,FF,FF,
5654802,000000A8,false,Rx,0,8,D6,0A,00,00,00,0F,0F,06,
5655083,000000A9,false,Rx,0,8,B3,0A,00,00,00,00,00,00,
5655375,000000AA,false,Rx,0,8,B8,0A,00,00,FF,FF,04,00,
5657572,000000B6,false,Rx,0,5,3A,0A,80,00,F8,00,00,00,
5657764,0000019E,false,Rx,0,8,FF,FB,1F,00,30,F0,FF,DB,
5658045,000000CE,false,Rx,0,8,00,80,00,80,00,80,00,80,
5658148,000001A6,false,Rx,0,2,FF,FF,00,00,00,00,00,00,
5658347,000002B2,false,Rx,0,6,FF,FF,FF,FF,05,80,00,00,
5658538,00000192,false,Rx,0,4,6A,00,80,FE,00,00,00,00,
5658820,000001A0,false,Rx,0,8,FF,FF,00,08,80,00,A8,D2,
5659474,000000AE,false,Rx,0,6,B5,06,80,50,00,30,00,00,
5660117,000000C4,false,Rx,0,7,00,80,FD,00,80,99,FF,00,
5664603,000001D0,false,Rx,0,8,FF,FF,01,CB,00,00,FD,00,
5664885,000000A8,false,Rx,0,8,D7,0B,00,00,00,0F,0F,06,
5665169,000000A9,false,Rx,0,8,B4,0B,00,00,00,00,00,00,
5665367,000000AA,false,Rx,0,8,B9,0B,00,00,FF,FF,04,00,
5669265,00000310,false,Rx,0,7,FF,04,16,74,00,FF,FF,00,
5669919,000000C4,false,Rx,0,7,00,80,FD,00,80,C1,FF,00,
5670203,000004AA,false,Rx,0,8,12,02,FF,FF,FF,FF,FF,FF,
5674810,000000A8,false,Rx,0,8,D8,0C,00,00,00,0F,0F,06,
5675092,000000A9,false,Rx,0,8,B5,0C,00,00,00,00,00,00,
5675384,000000AA,false,Rx,0,8,BA,0C,00,00,FF,FF,04,00,
5676579,00000480,false,Rx,0,8,12,01,FF,01,00,00,02,01,
5677594,000000B6,false,Rx,0,5,3B,0B,80,00,F8,00,00,00,
5677785,0000019E,false,Rx,0,8,FF,FB,1F,00,30,F0,FF,DB,
5678067,000000CE,false,Rx,0,8,00,80,00,80,00,80,00,80,
5678261,000002B2,false,Rx,0,6,FF,FF,FF,FF,05,80,00,00,
5678460,000001A0,false,Rx,0,8,FF,FF,00,08,80,00,B8,E2,
5679564,000000AE,false,Rx,0,6,B6,07,80,50,00,30,00,00,
5680300,000000C4,false,Rx,0,7,00,80,FD,00,80,E9,FF,00,
5684697,000000A8,false,Rx,0,8,D9,0D,00,00,00,0F,0F,06,
5684979,000000A9,false,Rx,0,8,B6,0D,00,00,00,00,00,00,
5685263,000000AA,false,Rx,0,8,BB,0D,00,00,FF,FF,04,00,
5687474,00000192,false,Rx,0,4,6A,00,80,F1,00,00,00,00,
5689890,000000C4,false,Rx,0,7,00,80,FD,00,80,11,FF,00,
5694760,000000A8,false,Rx,0,8,DA,0E,00,00,00,0F,0F,06,
5695042,000000A9,false,Rx,0,8,B7,0E,00,00,00,00,00,00,
5695236,000000AA,false,Rx,0,8,BC,0E,00,00,FF,FF,04,00,
5697539,000000B6,false,Rx,0,5,3C,0C,80,00,F8,00,00,00,
5697821,0000019E,false,Rx,0,8,FF,FB,1F,00,30,F0,FF,DB,
5698012,000005A9,false,Rx,0,8,40,ED,00,00,FF,FF,FF,FF,
5698296,000000CE,false,Rx,0,8,00,80,00,80,00,80,00,80,
5698496,000002B2,false,Rx,0,6,FF,FF,FF,FF,05,80,00,00,
5698777,000001A0,false,Rx,0,8,FF,FF,00,08,80,00,C8,F2,
5699613,000000AE,false,Rx,0,6,B7,08,80,50,00,30,00,00,
5699804,000000C4,false,Rx,0,7,00,80,FD,00,80,39,FF,00,
5704711,000000A8,false,Rx,0,8,CC,00,00,00,00,0F,0F,06,
5705001,000000A9,false,Rx,0,8,A9,00,00,00,00,00,00,00,
5705285,000000AA,false,Rx,0,8,AE,00,00,00,FF,FF,04,00,
5709880,000000C4,false,Rx,0,7,00,80,FD,00,80,61,FF,00,
5714762,000000A8,false,Rx,0,8,CD,01,00,00,00,0F,0F,06,
5715045,000000A9,false,Rx,0,8,AA,01,00,00,00,00,00,00,
5715239,000000AA,false,Rx,0,8,AF,01,00,00,FF,FF,04,00,
5716449,00000192,false,Rx,0,4,6A,00,80,F2,00,00,00,00,
5717559,000000B6,false,Rx,0,5,3D,0D,80,00,F8,00,00,00,
5717751,0000019E,false,Rx,0,8,FF,FB,1F,00,30,F0,FF,DB,
5718033,000000CE,false,Rx,0,8,00,80,00,80,00,80,00,80,
5718227,000002B2,false,Rx,0,6,FF,FF,FF,FF,05,80,00,00,
5718517,000001A0,false,Rx,0,8,FF,FF,00,08,80,00,D8,02,
5719535,000000AE,false,Rx,0,6,B8,09,80,50,00,30,00,00,
5719908,000000C4,false,Rx,0,7,00,80,FD,00,80,89,FF,00,
5724777,000000A8,false,Rx,0,8,CE,02,00,00,00,0F,0F,06,
5724969,000000A9,false,Rx,0,8,AB,02,00,00,00,00,00,00,
5725256,000000AA,false,Rx,0,8,B0,02,00,00,FF,FF,04,00,
5729853,000000C4,false,Rx,0,7,00,80,FD,00,80,B1,FF,00,
5734722,000000A8,false,Rx,0,8,CF,03,00,00,00,0F,0F,06,
5735005,000000A9,false,Rx,0,8,AC,03,00,00,00,00,00,00,
5735302,000000AA,false,Rx,0,8,B1,03,00,00,FF,FF,04,00,
5737516,000000B6,false,Rx,0,5,3E,0E,80,00,F8,00,00,00,
5737799,0000019E,false,Rx,0,8,FF,FB,1F,00,30,F0,FF,DB,
5737990,000000CE,false,Rx,0,8,00,80,00,80,00,80,00,80,
5738185,000002B2,false,Rx,0,6,FF,FF,FF,FF,05,80,00,00,
5738476,000001A0,false,Rx,0,8,FF,FF,00,08,80,00,E8,13,
5739586,000000AE,false,Rx,0,6,BA,0A,80,50,00,31,00,00,
5739869,000000C4,false,Rx,0,7,00,80,FD,00,80,D9,FF,00,
5741068,000005AA,false,Rx,0,8,40,36,00,05,FF,FF,FF,FF,
5741723,00000130,false,Rx,0,5,41,43,35,3F,36,00,00,00,
5744754,000000A8,false,Rx,0,8,D0,04,00,00,00,0F,0F,06,
5745037,000000A9,false,Rx,0,8,AD,04,00,00,00,00,00,00,
5745322,000000AA,false,Rx,0,8,B2,04,00,00,FF,FF,04,00,
5745976,00000192,false,Rx,0,4,6A,00,80,F3,00,00,00,00,
5749928,000000C4,false,Rx,0,7,00,80,FD,00,80,01,FF,00,
5754804,000000A8,false,Rx,0,8,D1,05,00,00,00,0F,0F,06,
5755095,000000A9,false,Rx,0,8,AE,05,00,00,00,00,00,00,
5755390,000000AA,false,Rx,0,8,B3,05,00,00,FF,FF,04,00,
5756591,00000492,false,Rx,0,8,29,12,FF,FF,FF,FF,FF,FF,
5757518,000000B6,false,Rx,0,5,30,00,80,00,F8,00,00,00,
5757800,0000019E,false,Rx,0,8,FF,FB,1F,00,30,F0,FF,DB,
5757992,000000CE,false,Rx,0,8,00,80,00,80,00,80,00,80,
5758185,000001A6,false,Rx,0,2,FF,FF,00,00,00,00,00,00,
5758385,000002B2,false,Rx,0,6,FF,FF,FF,FF,05,80,00,00,
5758577,000001A0,false,Rx,0,8,FF,FF,00,08,80,00,08,32,
5759593,000000AE,false,Rx,0,6,BB,0B,80,50,00,31,00,00,
5759876,000000C4,false,Rx,0,7,00,80,FD,00,80,29,FF,00,
5764559,000001D0,false,Rx,0,8,FF,FF,02,CB,00,00,FD,00,
5764842,000000A8,false,Rx,0,8,D2,06,00,00,00,0F,0F,06,
5765125,000000A9,false,Rx,0,8,AF,06,00,00,00,00,00,00,
5765416,000000AA,false,Rx,0,8,B4,06,00,00,FF,FF,04,00,
5768535,00000330,false,Rx,0,8,FF,FF,FF,FF,FF,FF,F3,FF,
5769915,000000C4,false,Rx,0,7,00,80,FD,00,80,51,FF,00,
5770201,000002F8,false,Rx,0,8,FF,FF,FF,FF,FF,FF,FF,F0,
5774699,000000A8,false,Rx,0,8,D3,07,00,00,00,0F,0F,06,
5774982,000000A9,false,Rx,0,8,B0,07,00,00,00,00,00,00,
5775267,000000AA,false,Rx,0,8,B5,07,00,00,FF,FF,04,00,
5775467,00000192,false,Rx,0,4,6A,00,80,F4,00,00,00,00,
5775931,00000194,false,Rx,0,4,6F,F1,80,FC,00,00,00,00,
5777592,000000B6,false,Rx,0,5,31,01,80,00,F8,00,00,00,
5777875,0000019E,false,Rx,0,8,FF,FB,1F,00,30,F0,FF,DB,
5778068,000005A9,false,Rx,0,8,40,24,00,00,FF,FF,FF,FF,
5778360,000000CE,false,Rx,0,8,00,80,00,80,00,80,00,80,
5778553,000002B2,false,Rx,0,6,FF,FF,FF,FF,05,80,00,00,
5778745,000001A0,false,Rx,0,8,FF,FF,00,08,80,00,18,42,
5779670,000000AE,false,Rx,0,6,BC,0C,80,50,00,31,00,00,
5779861,000000C4,false,Rx,0,7,00,80,FD,00,80,79,FF,00,
5784721,000000A8,false,Rx,0,8,D4,08,00,00,00,0F,0F,06,
5785004,000000A9,false,Rx,0,8,B1,08,00,00,00,00,00,00,
5785289,000000AA,false,Rx,0,8,B6,08,00,00,FF,FF,04,00,
5789845,000000C4,false,Rx,0,7,00,80,FD,00,80,A1,FF,00,
5794756,000000A8,false,Rx,0,8,D5,09,00,00,00,0F,0F,06,
5795038,000000A9,false,Rx,0,8,B2,09,00,00,00,00,00,00,
5795231,000000AA,false,Rx,0,8,B7,09,00,00,FF,FF,04,00,
5797532,000000B6,false,Rx,0,5,32,02,80,00,F8,00,00,00,
5797724,0000019E,false,Rx,0,8,FF,FB,1F,00,30,F0,FF,DB,
5798005,000000CE,false,Rx,0,8,00,80,00,80,00,80,00,80,
5798200,000002B2,false,Rx,0,6,FF,FF,FF,FF,05,80,00,00,
5798400,000001A0,false,Rx,0,8,FF,FF,00,08,80,00,28,52,
5799596,000000AE,false,Rx,0,6,BD,0D,80,50,00,31,00,00,
5799878,000000C4,false,Rx,0,7,00,80,FD,00,80,C9,FF,00,
5804003,00000192,false,Rx,0,4,6A,00,80,F5,00,00,00,00,
5805304,000000A8,false,Rx,0,8,D6,0A,00,00,00,0F,0F,06,
5805420,000000A9,false,Rx,0,8,B3,0A,00,00,00,00,00,00,
5805522,000000AA,false,Rx,0,8,B8,0A,00,00,FF,FF,04,00,
5809860,000000C4,false,Rx,0,7,00,80,FD,00,80,F1,FF,00,
5814729,000000A8,false,Rx,0,8,D7,0B,00,00,00,0F,0F,06,
5815011,000000A9,false,Rx,0,8,B4,0B,00,00,00,00,00,00,
5815297,000000AA,false,Rx,0,8,B9,0B,00,00,FF,FF,04,00,
5817601,000000B6,false,Rx,0,5,33,03,80,00,F8,00,00,00,
5817792,0000019E,false,Rx,0,8,FF,FB,1F,00,30,F0,FF,DB,
5818074,000000CE,false,Rx,0,8,00,80,00,80,00,80,00,80,
5818269,000002B2,false,Rx,0,6,FF,FF,FF,FF,05,80,00,00,
5818469,000001A0,false,Rx,0,8,FF,FF,00,08,80,00,38,62,
5819759,000000AE,false,Rx,0,6,BE,0E,80,50,00,31,00,00,
5819951,000000C4,false,Rx,0,7,00,80,FD,00,80,19,FF,00,
5824753,000000A8,false,Rx,0,8,D8,0C,00,00,00,0F,0F,06,
5825036,000000A9,false,Rx,0,8,B5,0C,00,00,00,00,00,00,
5825320,000000AA,false,Rx,0,8,BA,0C,00,00,FF,FF,04,00,
5829925,000000C4,false,Rx,0,7,00,80,FD,00,80,41,FF,00,
5833322,00000192,false,Rx,0,4,6A,00,80,F6,00,00,00,00,
5834709,000000A8,false,Rx,0,8,D9,0D,00,00,00,0F,0F,06,
5834992,000000A9,false,Rx,0,8,B6,0D,00,00,00,00,00,00,
5835280,000000AA,false,Rx,0,8,BB,0D,00,00,FF,FF,04,00,
5837505,000000B6,false,Rx,0,5,34,04,80,00,F8,00,00,00,
5837788,0000019E,false,Rx,0,8,FF,FB,1F,00,30,F0,FF,DB,
5837981,000000CE,false,Rx,0,8,00,80,00,80,00,80,00,80,
5838265,000002B2,false,Rx,0,6,FF,FF,FF,FF,05,80,00,00,
5838465,000001A0,false,Rx,0,8,FF,FF,00,08,80,00,48,72,
5838747,000004A9,false,Rx,0,8,2A,02,FF,FF,FF,FF,FF,FF,
5839677,000000AE,false,Rx,0,6,B0,00,80,50,00,31,00,00,
5839960,000000C4,false,Rx,0,7,00,80,FD,00,80,69,FF,00,
5841802,00000130,false,Rx,0,5,41,43,35,3F,47,00,00,00,
5844746,000000A8,false,Rx,0,8,DA,0E,00,00,00,0F,0F,06,
5845027,000000A9,false,Rx,0,8,B7,0E,00,00,00,00,00,00,
5845313,000000AA,false,Rx,0,8,BC,0E,00,00,FF,FF,04,00,
5849911,000000C4,false,Rx,0,7,00,80,FD,00,80,91,FF,00,
5854504,000005E0,false,Rx,0,8,10,00,00,01,00,FF,FF,FF,
5854787,000000A8,false,Rx,0,8,CC,00,00,00,00,0F,0F,06,
5854979,000000A9,false,Rx,0,8,A9,00,00,00,00,00,00,00,
5856098,000000AA,false,Rx,0,8,AE,00,00,00,FF,FF,04,00,
5857525,000000B6,false,Rx,0,5,35,05,80,00,F8,00,00,00,
5857806,0000019E,false,Rx,0,8,FF,FB,2F,00,30,F0,FF,EB,
5857907,000001A6,false,Rx,0,2,FF,FF,00,00,00,00,00,00,
5858190,000005A9,false,Rx,0,8,40,23,00,00,FF,FF,FF,FF,
5858390,000000CE,false,Rx,0,8,00,80,00,80,00,80,00,80,
5858581,000002B2,false,Rx,0,6,FF,FF,FF,FF,05,80,00,00,
5858863,000001A0,false,Rx,0,8,FF,FF,00,08,80,00,58,82,
5859787,000000AE,false,Rx,0,6,B1,01,80,50,00,31,00,00,
5860161,000000C4,false,Rx,0,7,00,80,FD,00,80,B9,FF,00,
5862822,00000192,false,Rx,0,4,6A,00,80,F7,00,00,00,00,
5864571,000001D0,false,Rx,0,8,FF,FF,03,CB,00,00,FD,00,
5864852,000000A8,false,Rx,0,8,CD,01,00,00,00,0F,0F,06,
5865136,000000A9,false,Rx,0,8,AA,01,00,00,00,00,00,00,
5865425,000000AA,false,Rx,0,8,AF,01,00,00,FF,FF,04,00,
5868545,00000330,false,Rx,0,8,BA,61,03,FF,FF,FF,F3,FF,
5869831,000000C4,false,Rx,0,7,00,80,FD,00,80,E1,FF,00,
5870113,000002F8,false,Rx,0,8,FF,FF,FF,FF,FF,FF,FF,F2,
5874690,000000A8,false,Rx,0,8,CE,02,00,00,00,0F,0F,06,
5874972,000000A9,false,Rx,0,8,AB,02,00,00,00,00,00,00,
5875255,000000AA,false,Rx,0,8,B0,02,00,00,FF,FF,04,00,
5877558,000000B6,false,Rx,0,5,36,06,80,00,F8,00,00,00,
5877840,0000019E,false,Rx,0,8,FF,FB,2F,00,30,F0,FF,EB,
5878031,000000CE,false,Rx,0,8,00,80,00,80,00,80,00,80,
5878225,000002B2,false,Rx,0,6,FF,FF,FF,FF,05,80,00,00,
5878515,000001A0,false,Rx,0,8,FF,FF,00,08,80,00,68,92,
5879710,000000AE,false,Rx,0,6,B2,02,80,50,00,31,00,00,
5879992,000000C4,false,Rx,0,7,00,80,FD,00,80,09,FF,00,
5884755,000000A8,false,Rx,0,8,CF,03,00,00,00,0F,0F,06,
5885035,000000A9,false,Rx,0,8,AC,03,00,00,00,00,00,00,
5885228,000000AA,false,Rx,0,8,B1,03,00,00,FF,FF,04,00,
5889899,000000C4,false,Rx,0,7,00,80,FD,00,80,31,FF,00,
5892285,00000192,false,Rx,0,4,6A,00,80,F8,00,00,00,00,
5894702,000000A8,false,Rx,0,8,D0,04,00,00,00,0F,0F,06,
5894984,000000A9,false,Rx,0,8,AD,04,00,00,00,00,00,00,
5895269,000000AA,false,Rx,0,8,B2,04,00,00,FF,FF,04,00,
5897496,000000B6,false,Rx,0,5,37,07,80,00,F8,00,00,00,
5897778,0000019E,false,Rx,0,8,FF,FB,2F,00,30,F0,FF,EB,
5898060,000000CE,false,Rx,0,8,00,80,00,80,00,80,00,80,
5898254,000002B2,false,Rx,0,6,FF,FF,FF,FF,05,80,00,00,
5898454,000001A0,false,Rx,0,8,FF,FF,00,08,80,00,78,A2,
5899829,000000AE,false,Rx,0,6,B3,03,80,50,00,31,00,00,
5900020,000000C4,false,Rx,0,7,00,80,FD,00,80,59,FF,00,
5904690,000000A8,false,Rx,0,8,D1,05,00,00,00,0F,0F,06,
5904972,000000A9,false,Rx,0,8,AE,05,00,00,00,00,00,00,
5905256,000000AA,false,Rx,0,8,B3,05,00,00,FF,FF,04,00,
5910033,000000C4,false,Rx,0,7,00,80,FD,00,80,81,FF,00,
5914728,000000A8,false,Rx,0,8,D2,06,00,00,00,0F,0F,06,
5915011,000000A9,false,Rx,0,8,AF,06,00,00,00,00,00,00,
5915297,000000AA,false,Rx,0,8,B4,06,00,00,FF,FF,04,00,
5917601,000000B6,false,Rx,0,5,38,08,80,00,F8,00,00,00,
5917885,0000019E,false,Rx,0,8,FF,FB,2F,00,30,F0,FF,EB,
5918077,000000CE,false,Rx,0,8,00,80,00,80,00,80,00,80,
5918273,000002B2,false,Rx,0,6,FF,FF,FF,FF,05,80,00,00,
5918564,000001A0,false,Rx,0,8,FF,FF,00,08,80,00,88,B2,
5919852,000000C4,false,Rx,0,7,00,80,FD,00,80,A9,FF,00,
5920044,000000AE,false,Rx,0,6,B4,04,80,50,00,31,00,00,
5921528,00000192,false,Rx,0,4,6A,00,80,F9,00,00,00,00,
5924747,000000A8,false,Rx,0,8,D3,07,00,00,00,0F,0F,06,
5925031,000000A9,false,Rx,0,8,B0,07,00,00,00,00,00,00,
5925225,000000AA,false,Rx,0,8,B5,07,00,00,FF,FF,04,00,
5929922,000000C4,false,Rx,0,7,00,80,FD,00,80,D1,FF,00,
5930207,000004AA,false,Rx,0,8,00,02,FF,FF,FF,FF,FF,FF,
5934711,000000A8,false,Rx,0,8,D4,08,00,00,00,0F,0F,06,
5934994,000000A9,false,Rx,0,8,B1,08,00,00,00,00,00,00,
5935280,000000AA,false,Rx,0,8,B6,08,00,00,FF,FF,04,00,
5937596,000000B6,false,Rx,0,5,39,09,80,00,F8,00,00,00,
5937879,0000019E,false,Rx,0,8,FF,FB,2F,00,30,F0,FF,EB,
5938071,000005A9,false,Rx,0,8,40,18,00,00,FF,FF,FF,FF,
5938367,000000CE,false,Rx,0,8,00,80,00,80,00,80,00,80,
5938559,000002B2,false,Rx,0,6,FF,FF,FF,FF,05,80,00,00,
5938751,000001A0,false,Rx,0,8,FF,FF,00,08,80,00,98,C2,
5939860,000000AE,false,Rx,0,6,B6,05,80,50,00,32,00,00,
5940052,000000C4,false,Rx,0,7,00,80,FD,00,80,F9,FF,00,
5942079,00000130,false,Rx,0,5,41,43,35,3F,58,00,00,00,
5944753,000000A8,false,Rx,0,8,D5,09,00,00,00,0F,0F,06,
5945035,000000A9,false,Rx,0,8,B2,09,00,00,00,00,00,00,
5945229,000000AA,false,Rx,0,8,B7,09,00,00,FF,FF,04,00,
5949825,000000C4,false,Rx,0,7,00,80,FD,00,80,21,FF,00,
5951025,00000192,false,Rx,0,4,6A,00,80,FA,00,00,00,00,
5954705,000000A8,false,Rx,0,8,D6,0A,00,00,00,0F,0F,06,
5954988,000000A9,false,Rx,0,8,B3,0A,00,00,00,00,00,00,
5955274,000000AA,false,Rx,0,8,B8,0A,00,00,FF,FF,04,00,
5957785,000000B6,false,Rx,0,5,3A,0A,80,00,F8,00,00,00,
5957893,0000019E,false,Rx,0,8,FF,FB,2F,00,30,F0,FF,EB,
5958103,000000CE,false,Rx,0,8,00,80,00,80,00,80,00,80,
5958216,000001A6,false,Rx,0,2,FF,FF,00,00,00,00,00,00,
5958414,000002B2,false,Rx,0,6,FF,FF,FF,FF,05,80,00,00,
5958607,000001A0,false,Rx,0,8,FF,FF,00,08,80,00,A8,D2,
5959867,000000C4,false,Rx,0,7,00,80,FD,00,80,49,FF,00,
5960058,000000AE,false,Rx,0,6,B7,06,80,50,00,32,00,00,
5964559,000001D0,false,Rx,0,8,FF,FF,04,CB,00,00,FD,00,
5964841,000000A8,false,Rx,0,8,D7,0B,00,00,00,0F,0F,06,
5965123,000000A9,false,Rx,0,8,B4,0B,00,00,00,00,00,00,
5965415,000000AA,false,Rx,0,8,B9,0B,00,00,FF,FF,04,00,
5968985,00000330,false,Rx,0,8,BA,61,03,FF,FF,FF,F3,FF,
5970090,000000C4,false,Rx,0,7,00,80,FD,00,80,71,FF,00,
5974765,000000A8,false,Rx,0,8,D8,0C,00,00,00,0F,0F,06,
5974957,000000A9,false,Rx,0,8,B5,0C,00,00,00,00,00,00,
5975242,000000AA,false,Rx,0,8,BA,0C,00,00,FF,FF,04,00,
5976990,00000194,false,Rx,0,4,70,F2,80,FC,00,00,00,00,
5977642,000000B6,false,Rx,0,5,3B,0B,80,00,F8,00,00,00,
5977833,0000019E,false,Rx,0,8,FF,FB,2F,00,30,F0,FF,EB,
5978115,000000CE,false,Rx,0,8,00,80,00,80,00,80,00,80,
5978312,000002B2,false,Rx,0,6,FF,FF,FF,FF,05,80,00,00,
5978511,000001A0,false,Rx,0,8,FF,FF,00,08,80,00,B8,E2,
5979796,000000AE,false,Rx,0,6,B8,07,80,50,00,32,00,00,
5980078,000000C4,false,Rx,0,7,00,80,FD,00,80,99,FF,00,
5980462,00000192,false,Rx,0,4,6A,00,80,FB,00,00,00,00,
5984669,000000A8,false,Rx,0,8,D9,0D,00,00,00,0F,0F,06,
5984951,000000A9,false,Rx,0,8,B6,0D,00,00,00,00,00,00,
5985235,000000AA,false,Rx,0,8,BB,0D,00,00,FF,FF,04,00,
5989816,000000C4,false,Rx,0,7,00,80,FD,00,80,C1,FF,00,
5994759,000000A8,false,Rx,0,8,DA,0E,00,00,00,0F,0F,06,
5994951,000000A9,false,Rx,0,8,B7,0E,00,00,00,00,00,00,
5995236,000000AA,false,Rx,0,8,BC,0E,00,00,FF,FF,04,00,
5997654,000000B6,false,Rx,0,5,3C,0C,80,00,F8,00,00,00,
5997845,0000019E,false,Rx,0,8,FF,FB,2F,00,30,F0,FF,EB,
5998127,000000CE,false,Rx,0,8,00,80,00,80,00,80,00,80,
5998319,000002B2,false,Rx,0,6,FF,FF,FF,FF,05,80,00,00,
5998519,000001A0,false,Rx,0,8,FF,FF,00,08,80,00,C8,F2,
5999842,000000C4,false,Rx,0,7,00,80,FD,00,80,E9,FF,00,
6000033,000000AE,false,Rx,0,6,B9,08,80,50,00,32,00,00,
6004702,000000A8,false,Rx,0,8,CC,00,00,00,00,0F,0F,06,
6004985,000000A9,false,Rx,0,8,A9,00,00,00,00,00,00,00,
6005269,000000AA,false,Rx,0,8,AE,00,00,00,FF,FF,04,00,
6006564,00000480,false,Rx,0,8,12,02,FF,00,00,00,02,01,
6009374,00000192,false,Rx,0,4,6A,00,80,FC,00,00,00,00,
6009845,000000C4,false,Rx,0,7,00,80,FD,00,80,11,FF,00,
6014530,000005E0,false,Rx,0,8,10,00,00,01,00,FF,FF,FF,
6014723,000000A8,false,Rx,0,8,CD,01,00,00,00,0F,0F,06,
6015006,000000A9,false,Rx,0,8,AA,01,00,00,00,00,00,00,
6015292,000000AA,false,Rx,0,8,AF,01,00,00,FF,FF,04,00,
6017599,000000B6,false,Rx,0,5,3D,0D,80,00,F8,00,00,00,
6017881,0000019E,false,Rx,0,8,FF,FB,2F,00,30,F0,FF,EB,
6018074,000005A9,false,Rx,0,8,40,47,00,00,FF,FF,FF,FF,
6018368,000000CE,false,Rx,0,8,00,80,00,80,00,80,00,80,
6018741,000002B2,false,Rx,0,6,FF,FF,FF,FF,05,80,00,00,
6019024,000001A0,false,Rx,0,8,FF,FF,00,08,80,00,D8,02,
6019865,000000AE,false,Rx,0,6,BA,09,80,50,00,32,00,00,
6020151,000000C4,false,Rx,0,7,00,80,FD,00,80,39,FF,00,
6024747,000000A8,false,Rx,0,8,CE,02,00,00,00,0F,0F,06,
6025029,000000A9,false,Rx,0,8,AB,02,00,00,00,00,00,00,
6025224,000000AA,false,Rx,0,8,B0,02,00,00,FF,FF,04,00,
6029827,000000C4,false,Rx,0,7,00,80,FD,00,80,61,FF,00,
6034692,000000A8,false,Rx,0,8,CF,03,00,00,00,0F,0F,06,
6034975,000000A9,false,Rx,0,8,AC,03,00,00,00,00,00,00,
6035261,000000AA,false,Rx,0,8,B1,03,00,00,FF,FF,04,00,
6037581,000000B6,false,Rx,0,5,3E,0E,80,00,F8,00,00,00,
6037864,0000019E,false,Rx,0,8,FF,FB,2F,00,30,F0,FF,EB,
6038056,000000CE,false,Rx,0,8,00,80,00,80,00,80,00,80,
6038251,00000192,false,Rx,0,4,6A,00,80,FD,00,00,00,00,
6038450,000002B2,false,Rx,0,6,FF,FF,FF,FF,05,80,00,00,
6038731,000001A0,false,Rx,0,8,FF,FF,00,08,80,00,E8,13,
6040021,000000AE,false,Rx,0,6,BB,0A,80,50,00,32,00,00,
6040306,000000C4,false,Rx,0,7,00,80,FD,00,80,8B,FF,00,
6041785,00000130,false,Rx,0,5,41,43,35,3F,69,00,00,00,
6044729,000000A8,false,Rx,0,8,D0,04,00,00,00,0F,0F,06,
6045012,000000A9,false,Rx,0,8,AD,04,00,00,00,00,00,00,
6045297,000000AA,false,Rx,0,8,B2,04,00,00,FF,FF,04,00,
6050349,000000C4,false,Rx,0,7,00,80,FD,00,80,B2,FF,00,
6054753,000000A8,false,Rx,0,8,D1,05,00,00,00,0F,0F,06,
6054945,000000A9,false,Rx,0,8,AE,05,00,00,00,00,00,00,
6055231,000000AA,false,Rx,0,8,B3,05,00,00,FF,FF,04,00,
6057535,000000B6,false,Rx,0,5,30,00,80,00,F8,00,00,00,
6057819,0000019E,false,Rx,0,8,FF,FB,3F,00,30,F0,FF,FB,
6058011,000000CE,false,Rx,0,8,00,80,00,80,00,80,00,80,
6058205,000001A6,false,Rx,0,2,FF,FF,00,00,00,00,00,00,
6058404,000002B2,false,Rx,0,6,FF,FF,FF,FF,05,80,00,00,
6059429,000001A0,false,Rx,0,8,FF,FF,00,08,80,00,08,32,
6060269,000000AE,false,Rx,0,6,BC,0B,80,50,00,32,00,00,
6060469,000000C4,false,Rx,0,7,00,80,FD,00,80,D9,FF,00,
6064596,000001D0,false,Rx,0,8,FF,FF,05,CB,00,00,FD,00,
6064788,000000A8,false,Rx,0,8,D2,06,00,00,00,0F,0F,06,
6065071,000000A9,false,Rx,0,8,AF,06,00,00,00,00,00,00,
6065365,000000AA,false,Rx,0,8,B4,06,00,00,FF,FF,04,00,
6067291,00000192,false,Rx,0,4,6A,00,80,FE,00,00,00,00,
6070049,000000C4,false,Rx,0,7,00,80,FD,00,80,01,FF,00,
6074727,000000A8,false,Rx,0,8,D3,07,00,00,00,0F,0F,06,
6075009,000000A9,false,Rx,0,8,B0,07,00,00,00,00,00,00,
6075294,000000AA,false,Rx,0,8,B5,07,00,00,FF,FF,04,00,
6077611,000000B6,false,Rx,0,5,31,01,80,00,F8,00,00,00,
6077803,0000019E,false,Rx,0,8,FF,FB,3F,00,30,F0,FF,FB,
6078086,000000CE,false,Rx,0,8,00,00,00,00,00,00,00,00,
6078280,000002B2,false,Rx,0,6,FF,FF,FF,FF,05,80,00,00,
6078480,000001A0,false,Rx,0,8,00,80,00,08,80,00,18,C2,
6079858,000000C4,false,Rx,0,7,00,80,FD,00,80,29,FF,00,
6080049,000000AE,false,Rx,0,6,BD,0C,80,50,00,32,00,00,
6084727,000000A8,false,Rx,0,8,D4,08,00,00,00,0F,0F,06,
6085010,000000A9,false,Rx,0,8,B1,08,00,00,00,00,00,00,
6085294,000000AA,false,Rx,0,8,B6,08,00,00,FF,FF,04,00,
6089880,000000C4,false,Rx,0,7,00,80,FD,00,80,51,FF,00,
6094743,000000A8,false,Rx,0,8,D5,09,00,00,00,0F,0F,06,
6095024,000000A9,false,Rx,0,8,B2,09,00,00,00,00,00,00,
6095311,000000AA,false,Rx,0,8,B7,09,00,00,FF,FF,04,00,
6095872,00000192,false,Rx,0,4,6A,00,80,F1,00,00,00,00,
6096528,00000492,false,Rx,0,8,29,52,FF,FF,FF,FF,FF,FF,
6097636,000000B6,false,Rx,0,5,32,02,80,00,F8,00,00,00,
6097919,0000019E,false,Rx,0,8,FF,FB,3F,00,30,F0,FF,FB,
6098111,000005A9,false,Rx,0,8,40,D7,00,00,FF,FF,FF,FF,
6098404,000000CE,false,Rx,0,8,00,00,00,00,00,00,00,00,
6098596,000002B2,false,Rx,0,6,FF,FF,FF,FF,05,80,00,00,
6098879,000001A0,false,Rx,0,8,00,80,00,08,80,00,28,D2,
6099831,000000C4,false,Rx,0,7,00,80,FD,00,80,79,FF,00,
6100114,000000AE,false,Rx,0,6,BE,0D,80,50,00,32,00,00,
6104722,000000A8,false,Rx,0,8,D6,0A,00,00,00,0F,0F,06,
6105004,000000A9,false,Rx,0,8,B3,0A,00,00,00,00,00,00,
6105291,000000AA,false,Rx,0,8,B8,0A,00,00,FF,FF,04,00,
6110252,000000C4,false,Rx,0,7,00,80,FD,00,80,A1,FF,00,
6114687,000000A8,false,Rx,0,8,D7,0B,00,00,00,0F,0F,06,
6115132,000000A9,false,Rx,0,8,B4,0B,00,00,00,00,00,00,
6115234,000000AA,false,Rx,0,8,B9,0B,00,00,FF,FF,04,00,
6117532,000000B6,false,Rx,0,5,33,03,80,00,F8,00,00,00,
6117814,0000019E,false,Rx,0,8,FF,FB,3F,00,30,F0,FF,FB,
6118095,000000CE,false,Rx,0,8,00,00,00,00,00,00,00,00,
6118289,000002B2,false,Rx,0,6,FF,FF,FF,FF,05,80,00,00,
6118489,000001A0,false,Rx,0,8,00,80,00,08,80,00,38,E2,
6119865,000000C4,false,Rx,0,7,00,80,FD,00,80,C9,FF,00,
6120242,000000AE,false,Rx,0,6,BF,0E,80,50,00,32,00,00,
6124733,000000A8,false,Rx,0,8,D8,0C,00,00,00,0F,0F,06,
6125015,000000A9,false,Rx,0,8,B5,0C,00,00,00,00,00,00,
6125300,000000AA,false,Rx,0,8,BA,0C,00,00,FF,FF,04,00,
6125409,00000192,false,Rx,0,4,6A,00,80,F2,00,00,00,00,
6129900,000000C4,false,Rx,0,7,00,80,FD,00,80,F1,FF,00,
6134664,000000A8,false,Rx,0,8,D9,0D,00,00,00,0F,0F,06,
6134946,000000A9,false,Rx,0,8,B6,0D,00,00,00,00,00,00,
6135230,000000AA,false,Rx,0,8,BB,0D,00,00,FF,FF,04,00,
6137629,000000B6,false,Rx,0,5,34,04,80,00,F8,00,00,00,
6137820,0000019E,false,Rx,0,8,FF,FB,3F,00,30,F0,FF,FB,
6138101,000000CE,false,Rx,0,8,00,00,00,00,00,00,00,00,
6138294,000002B2,false,Rx,0,6,FF,FF,FF,FF,05,80,00,00,
6138583,000001A0,false,Rx,0,8,00,80,00,08,80,00,48,F2,
6139866,000000C4,false,Rx,0,7,00,80,FD,00,80,19,FF,00,
6140242,000000AE,false,Rx,0,6,B2,00,80,50,00,33,00,00,
6141803,00000130,false,Rx,0,5,41,43,35,3F,7A,00,00,00,
6144732,000000A8,false,Rx,0,8,DA,0E,00,00,00,0F,0F,06,
6145013,000000A9,false,Rx,0,8,B7,0E,00,00,00,00,00,00,
6145296,000000AA,false,Rx,0,8,BC,0E,00,00,FF,FF,04,00,
6149866,000000C4,false,Rx,0,7,00,80,FD,00,80,41,FF,00,
6154713,000000A8,false,Rx,0,8,CC,00,00,00,00,0F,0F,06,
6154903,00000192,false,Rx,0,4,6A,00,80,F3,00,00,00,00,
6155094,000000A9,false,Rx,0,8,A9,00,00,00,00,00,00,00,
6155385,000000AA,false,Rx,0,8,AE,00,00,00,FF,FF,04,00,
6157581,000000B6,false,Rx,0,5,35,05,80,00,F8,00,00,00,
6157772,0000019E,false,Rx,0,8,FF,FB,3F,00,30,F0,FF,FB,
6158053,000000CE,false,Rx,0,8,00,00,00,00,00,00,00,00,
6158156,000001A6,false,Rx,0,2,00,00,00,00,00,00,00,00,
6158445,000002B2,false,Rx,0,6,FF,FF,FF,FF,05,80,00,00,
6158636,000001A0,false,Rx,0,8,00,80,00,08,80,00,58,03,
6159828,000000C4,false,Rx,0,7,00,80,FD,00,80,69,FF,00,
6160109,000000AE,false,Rx,0,6,B3,01,80,50,00,33,00,00,
6164604,000001D0,false,Rx,0,8,FF,FF,06,CB,00,00,FD,00,
6164807,000000A8,false,Rx,0,8,CD,01,00,00,00,0F,0F,06,
6165089,000000A9,false,Rx,0,8,AA,01,00,00,00,00,00,00,
6165378,000000AA,false,Rx,0,8,AF,01,00,00,FF,FF,04,00,
6168946,00000330,false,Rx,0,8,BA,61,03,04,00,0A,25,02,
6169869,000000C4,false,Rx,0,7,00,80,FD,00,80,91,FF,00,
6174455,000005E0,false,Rx,0,8,01,03,80,FF,FF,FF,FF,FF,
6174737,000000A8,false,Rx,0,8,CE,02,00,00,00,0F,0F,06,
6175019,000000A9,false,Rx,0,8,AB,02,00,00,00,00,00,00,
6175305,000000AA,false,Rx,0,8,B0,02,00,00,FF,FF,04,00,
6177511,00000194,false,Rx,0,4,71,F3,80,FC,00,00,00,00,
6177702,000000B6,false,Rx,0,5,36,06,80,00,F8,00,00,00,
6177985,0000019E,false,Rx,0,8,FF,FB,3F,00,30,F0,FF,FB,
6178179,000005A9,false,Rx,0,8,40,2A,00,00,FF,FF,FF,FF,
6178469,000000CE,false,Rx,0,8,00,00,00,00,00,00,00,00,
6178661,000002B2,false,Rx,0,6,FF,FF,FF,FF,05,80,00,00,
6178942,000001A0,false,Rx,0,8,00,80,00,08,80,00,68,13,
6179134,000004A9,false,Rx,0,8,2A,52,FF,FF,FF,FF,FF,FF,
6180056,000000AE,false,Rx,0,6,B4,02,80,50,00,33,00,00,
6180250,000000C4,false,Rx,0,7,00,80,FD,00,80,B9,FF,00,
6181907,00000380,false,Rx,0,7,44,44,37,38,35,35,37,00,
6183565,00000192,false,Rx,0,4,6A,00,80,F4,00,00,00,00,
6184670,000000A8,false,Rx,0,8,CF,03,00,00,00,0F,0F,06,
6184952,000000A9,false,Rx,0,8,AC,03,00,00,00,00,00,00,
6185236,000000AA,false,Rx,0,8,B1,03,00,00,FF,FF,04,00,
6189823,000000C4,false,Rx,0,7,00,80,FD,00,80,E1,FF,00,
6194494,000005E0,false,Rx,0,8,10,00,00,01,00,FF,FF,FF,
6194686,000000A8,false,Rx,0,8,D0,04,00,00,00,0F,0F,06,
6194968,000000A9,false,Rx,0,8,AD,04,00,00,00,00,00,00,
6195254,000000AA,false,Rx,0,8,B2,04,00,00,FF,FF,04,00,
6197642,000000B6,false,Rx,0,5,37,07,80,00,F8,00,00,00,
6197833,0000019E,false,Rx,0,8,FF,FB,3F,00,30,F0,FF,FB,
6198116,000000CE,false,Rx,0,8,00,00,00,00,00,00,00,00,
6198311,000002B2,false,Rx,0,6,FF,FF,FF,FF,05,80,00,00,
6198601,000001A0,false,Rx,0,8,00,80,00,08,80,00,78,23,
6199888,000000C4,false,Rx,0,7,00,80,FD,00,80,09,FF,00,
6200079,000000AE,false,Rx,0,6,B5,03,80,50,00,33,00,00,
6204707,000000A8,false,Rx,0,8,D1,05,00,00,00,0F,0F,06,
6204989,000000A9,false,Rx,0,8,AE,05,00,00,00,00,00,00,
6205273,000000AA,false,Rx,0,8,B3,05,00,00,FF,FF,04,00,
6209850,000000C4,false,Rx,0,7,00,80,FD,00,80,31,FF,00,
6212887,00000192,false,Rx,0,4,6A,00,80,F5,00,00,00,00,
6214738,000000A8,false,Rx,0,8,D2,06,00,00,00,0F,0F,06,
6214930,000000A9,false,Rx,0,8,AF,06,00,00,00,00,00,00,
6215216,000000AA,false,Rx,0,8,B4,06,00,00,FF,FF,04,00,
6217548,000000B6,false,Rx,0,5,38,08,80,00,F8,00,00,00,
6217831,0000019E,false,Rx,0,8,FF,FB,3F,00,30,F0,FF,FB,
6218023,000000CE,false,Rx,0,8,00,00,00,00,00,00,00,00,
6218309,000002B2,false,Rx,0,6,FF,FF,FF,FF,05,80,00,00,
6218509,000001A0,false,Rx,0,8,00,80,00,08,80,00,88,33,
6219891,000000C4,false,Rx,0,7,00,80,FD,00,80,59,FF,00,
6220083,000000AE,false,Rx,0,6,B6,04,80,50,00,33,00,00,
6224684,000000A8,false,Rx,0,8,D3,07,00,00,00,0F,0F,06,
6224966,000000A9,false,Rx,0,8,B0,07,00,00,00,00,00,00,
6225254,000000AA,false,Rx,0,8,B5,07,00,00,FF,FF,04,00,
6230040,000000C4,false,Rx,0,7,00,80,FD,00,80,81,FF,00,
6234729,000000A8,false,Rx,0,8,D4,08,00,00,00,0F,0F,06,
6235011,000000A9,false,Rx,0,8,B1,08,00,00,00,00,00,00,
6235213,000000AA,false,Rx,0,8,B6,08,00,00,FF,FF,04,00,
6237607,000000B6,false,Rx,0,5,39,09,80,00,F8,00,00,00,
6237889,0000019E,false,Rx,0,8,FF,FB,3F,00,30,F0,FF,FB,
6238081,000000CE,false,Rx,0,8,00,00,00,00,00,00,00,00,
6238275,000002B2,false,Rx,0,6,FF,FF,FF,FF,05,80,00,00,
6238565,000001A0,false,Rx,0,8,00,80,00,08,80,00,98,43,
6240128,000000C4,false,Rx,0,7,00,80,FD,00,80,A9,FF,00,
6240319,000000AE,false,Rx,0,6,B7,05,80,50,00,33,00,00,
6241709,00000130,false,Rx,0,5,41,43,35,3F,8B,00,00,00,
6242267,00000192,false,Rx,0,4,6A,00,80,F6,00,00,00,00,
6244664,000000A8,false,Rx,0,8,D5,09,00,00,00,0F,0F,06,
6244947,000000A9,false,Rx,0,8,B2,09,00,00,00,00,00,00,
6245231,000000AA,false,Rx,0,8,B7,09,00,00,FF,FF,04,00,
6246893,000005C0,false,Rx,0,8,48,0E,01,05,44,73,03,FE,
6249838,000000C4,false,Rx,0,7,00,80,FD,00,80,D1,FF,00,
6254705,000000A8,false,Rx,0,8,D6,0A,00,00,00,0F,0F,06,
6254988,000000A9,false,Rx,0,8,B3,0A,00,00,00,00,00,00,
6255273,000000AA,false,Rx,0,8,B8,0A,00,00,FF,FF,04,00,
6257580,000000B6,false,Rx,0,5,3A,0A,80,00,F8,00,00,00,
6257863,0000019E,false,Rx,0,8,FF,FB,4F,00,30,F0,FF,0C,
6257964,000001A6,false,Rx,0,2,00,00,00,00,00,00,00,00,
6258248,000005A9,false,Rx,0,8,40,33,00,00,FF,FF,FF,FF,
6258449,000000CE,false,Rx,0,8,00,00,00,00,00,00,00,00,
6258641,000002B2,false,Rx,0,6,FF,FF,FF,FF,05,80,00,00,
6258923,000001A0,false,Rx,0,8,00,80,00,08,80,00,A8,53,
6260122,000000C4,false,Rx,0,7,00,80,FD,00,80,F9,FF,00,
6260317,000000AE,false,Rx,0,6,B8,06,80,50,00,33,00,00,
6264558,000001D0,false,Rx,0,8,FF,FF,07,CB,00,00,FD,00,
6264758,000000A8,false,Rx,0,8,D7,0B,00,00,00,0F,0F,06,
6265039,000000A9,false,Rx,0,8,B4,0B,00,00,00,00,00,00,
6265322,000000AA,false,Rx,0,8,B9,0B,00,00,FF,FF,04,00,
6269816,000000C4,false,Rx,0,7,00,80,FD,00,80,21,FF,00,
6270650,000004AA,false,Rx,0,8,00,42,FF,FF,FF,FF,FF,FF,
6271755,00000192,false,Rx,0,4,6A,00,80,F7,00,00,00,00,
6274690,000000A8,false,Rx,0,8,D8,0C,00,00,00,0F,0F,06,
6274972,000000A9,false,Rx,0,8,B5,0C,00,00,00,00,00,00,
6275256,000000AA,false,Rx,0,8,BA,0C,00,00,FF,FF,04,00,
6277558,000000B6,false,Rx,0,5,3B,0B,80,00,F8,00,00,00,
6277839,0000019E,false,Rx,0,8,FF,FB,4F,00,30,F0,FF,0C,
6278031,000000CE,false,Rx,0,8,00,00,00,00,00,00,00,00,
6278223,000002B2,false,Rx,0,6,FF,FF,FF,FF,05,80,00,00,
6278513,000001A0,false,Rx,0,8,00,80,00,08,80,00,B8,63,
6279888,000000C4,false,Rx,0,7,00,80,FD,00,80,49,FF,00,
6280173,000000AE,false,Rx,0,6,B9,07,80,50,00,33,00,00,
6284665,000000A8,false,Rx,0,8,D9,0D,00,00,00,0F,0F,06,
6284947,000000A9,false,Rx,0,8,B6,0D,00,00,00,00,00,00,
6285231,000000AA,false,Rx,0,8,BB,0D,00,00,FF,FF,04,00,
6289816,000000C4,false,Rx,0,7,00,80,FD,00,80,71,FF,00,
6294669,000000A8,false,Rx,0,8,DA,0E,00,00,00,0F,0F,06,
6294952,000000A9,false,Rx,0,8,B7,0E,00,00,00,00,00,00,
6295236,000000AA,false,Rx,0,8,BC,0E,00,00,FF,FF,04,00,
6297624,000000B6,false,Rx,0,5,3C,0C,80,00,F8,00,00,00,
6297814,0000019E,false,Rx,0,8,FF,FB,4F,00,30,F0,FF,0C,
6298097,000000CE,false,Rx,0,8,00,00,00,00,00,00,00,00,
6298292,000002B2,false,Rx,0,6,FF,FF,FF,FF,05,80,00,00,
6298492,000001A0,false,Rx,0,8,00,80,00,08,80,00,C8,73,
6299868,000000C4,false,Rx,0,7,00,80,FD,00,80,99,FF,00,
6300152,000000AE,false,Rx,0,6,BA,08,80,50,00,33,00,00,
6301534,00000192,false,Rx,0,4,6A,00,80,F8,00,00,00,00,
6304682,000000A8,false,Rx,0,8,CC,00,00,00,00,0F,0F,06,
6304965,000000A9,false,Rx,0,8,A9,00,00,00,00,00,00,00,
6305249,000000AA,false,Rx,0,8,AE,00,00,00,FF,FF,04,00,
6309845,000000C4,false,Rx,0,7,00,80,FD,00,80,C1,FF,00,
6314708,000000A8,false,Rx,0,8,CD,01,00,00,00,0F,0F,06,
6314999,000000A9,false,Rx,0,8,AA,01,00,00,00,00,00,00,
6315196,000000AA,false,Rx,0,8,AF,01,00,00,FF,FF,04,00,
6317592,000000B6,false,Rx,0,5,3D,0D,80,00,F8,00,00,00,
6317874,0000019E,false,Rx,0,8,FF,FB,4F,00,30,F0,FF,0C,
6318066,000000CE,false,Rx,0,8,00,00,00,00,00,00,00,00,
6318260,000002B2,false,Rx,0,6,FF,FF,FF,FF,05,80,00,00,
6318551,000001A0,false,Rx,0,8,00,80,00,08,80,00,D8,83,
6319930,000000C4,false,Rx,0,7,00,80,FD,00,80,E9,FF,00,
6320215,000000AE,false,Rx,0,6,BB,09,80,50,00,33,00,00,
6324709,000000A8,false,Rx,0,8,CE,02,00,00,00,0F,0F,06,
6324991,000000A9,false,Rx,0,8,AB,02,00,00,00,00,00,00,
6325275,000000AA,false,Rx,0,8,B0,02,00,00,FF,FF,04,00,
6329783,000000C4,false,Rx,0,7,00,80,FD,00,80,11,FF,00,
6330205,00000192,false,Rx,0,4,6A,00,80,F9,00,00,00,00,
6334682,000000A8,false,Rx,0,8,CF,03,00,00,00,0F,0F,06,
6334963,000000A9,false,Rx,0,8,AC,03,00,00,00,00,00,00,
6335262,000000AA,false,Rx,0,8,B1,03,00,00,FF,FF,04,00,
6337663,000000B6,false,Rx,0,5,3E,0E,80,00,F8,00,00,00,
6337854,0000019E,false,Rx,0,8,FF,FB,4F,00,30,F0,FF,0C,
6338139,000005A9,false,Rx,0,8,40,B8,00,00,FF,FF,FF,FF,
6338330,000000CE,false,Rx,0,8,00,00,00,00,00,00,00,00,
6338529,000002B2,false,Rx,0,6,FF,FF,FF,FF,05,80,00,00,
6338810,000001A0,false,Rx,0,8,00,80,00,08,80,00,E8,93,
6340006,000000C4,false,Rx,0,7,00,80,FD,00,80,39,FF,00,
6340291,000000AE,false,Rx,0,6,BD,0A,80,50,00,34,00,00,
6342409,00000130,false,Rx,0,5,41,43,35,3F,9C,00,00,00,
6344703,000000A8,false,Rx,0,8,D0,04,00,00,00,0F,0F,06,
6344985,000000A9,false,Rx,0,8,AD,04,00,00,00,00,00,00,
6345269,000000AA,false,Rx,0,8,B2,04,00,00,FF,FF,04,00,
6346653,00000480,false,Rx,0,8,12,42,FF,00,00,00,02,01,
6349862,000000C4,false,Rx,0,7,00,80,FD,00,80,61,FF,00,
6354718,000000A8,false,Rx,0,8,D1,05,00,00,00,0F,0F,06,
6355001,000000A9,false,Rx,0,8,AE,05,00,00,00,00,00,00,
6355195,000000AA,false,Rx,0,8,B3,05,00,00,FF,FF,04,00,
6357585,000000B6,false,Rx,0,5,30,00,80,00,F8,00,00,00,
6357867,0000019E,false,Rx,0,8,FF,FB,4F,00,30,F0,FF,0C,
6358059,000000CE,false,Rx,0,8,00,00,00,00,00,00,00,00,
6358254,000001A6,false,Rx,0,2,00,00,00,00,00,00,00,00,
6358452,000002B2,false,Rx,0,6,FF,FF,FF,FF,05,80,00,00,
6358643,000001A0,false,Rx,0,8,00,80,00,08,80,00,08,B2,
6359751,00000192,false,Rx,0,4,6A,00,80,FA,00,00,00,00,
6360214,000000C4,false,Rx,0,7,00,80,FD,00,80,89,FF,00,
6360413,000000AE,false,Rx,0,6,BE,0B,80,50,00,34,00,00,
6364540,000001D0,false,Rx,0,8,FF,FF,08,CB,00,00,FD,00,
6364757,000000A8,false,Rx,0,8,D2,06,00,00,00,0F,0F,06,
6365325,000000A9,false,Rx,0,8,AF,06,00,00,00,00,00,00,
6365614,000000AA,false,Rx,0,8,B4,06,00,00,FF,FF,04,00,
6369838,000000C4,false,Rx,0,7,00,80,FD,00,80,B1,FF,00,
6374705,000000A8,false,Rx,0,8,D3,07,00,00,00,0F,0F,06,
6374988,000000A9,false,Rx,0,8,B0,07,00,00,00,00,00,00,
6375274,000000AA,false,Rx,0,8,B5,07,00,00,FF,FF,04,00,
6377025,00000194,false,Rx,0,4,72,F4,80,FC,00,00,00,00,
6377593,000000B6,false,Rx,0,5,31,01,80,00,F8,00,00,00,
6377785,0000019E,false,Rx,0,8,FF,FB,4F,00,30,F0,FF,0C,
6378068,000000CE,false,Rx,0,8,00,00,00,00,00,00,00,00,
6378262,000002B2,false,Rx,0,6,FF,FF,FF,FF,05,80,00,00,
6378462,000001A0,false,Rx,0,8,00,80,00,08,80,00,18,C2,
6379843,000000C4,false,Rx,0,7,00,80,FD,00,80,D9,FF,00,
6380222,000000AE,false,Rx,0,6,BF,0C,80,50,00,34,00,00,
6384730,000000A8,false,Rx,0,8,D4,08,00,00,00,0F,0F,06,
6384922,000000A9,false,Rx,0,8,B1,08,00,00,00,00,00,00,
6385206,000000AA,false,Rx,0,8,B6,08,00,00,FF,FF,04,00,
6388238,00000192,false,Rx,0,4,6A,00,80,FB,00,00,00,00,
6389989,000000C4,false,Rx,0,7,00,80,FD,00,80,01,FF,00,
6394125,000001B5,false,Rx,0,6,FF,FF,02,00,C8,FF,00,00,
6394688,000000A8,false,Rx,0,8,D5,09,00,00,00,0F,0F,06,
6394971,000000A9,false,Rx,0,8,B2,09,00,00,00,00,00,00,
6395256,000000AA,false,Rx,0,8,B7,09,00,00,FF,FF,04,00,
6395456,000005E0,false,Rx,0,8,10,00,00,02,00,FF,FF,FF,
6397574,000000B6,false,Rx,0,5,32,02,80,00,F8,00,00,00,
6397855,0000019E,false,Rx,0,8,FF,FB,4F,00,30,F0,FF,0C,
6398048,000000CE,false,Rx,0,8,00,00,00,00,00,00,00,00,
6398242,000002B2,false,Rx,0,6,FF,FF,FF,FF,05,80,00,00,
6398531,000001A0,false,Rx,0,8,00,80,00,08,80,00,28,D2,
6400003,000000C4,false,Rx,0,7,00,80,FD,00,80,29,FF,00,
6400288,000000AE,false,Rx,0,6,C0,0D,80,50,00,34,00,00,
6404698,000000A8,false,Rx,0,8,D6,0A,00,00,00,0F,0F,06,
6404980,000000A9,false,Rx,0,8,B3,0A,00,00,00,00,00,00,
6405266,000000AA,false,Rx,0,8,B8,0A,00,00,FF,FF,04,00,
6409812,000000C4,false,Rx,0,7,00,80,FD,00,80,51,FF,00,
6415242,000000A8,false,Rx,0,8,D7,0B,00,00,00,0F,0F,06,
6415355,000000A9,false,Rx,0,8,B4,0B,00,00,00,00,00,00,
6415454,000000AA,false,Rx,0,8,B9,0B,00,00,FF,FF,04,00,
6417014,00000192,false,Rx,0,4,6A,00,80,FC,00,00,00,00,
6417667,000000B6,false,Rx,0,5,33,03,80,00,F8,00,00,00,
6417859,0000019E,false,Rx,0,8,FF,FB,4F,00,30,F0,FF,0C,
6418146,000000CE,false,Rx,0,8,00,00,00,00,00,00,00,00,
6418345,000002B2,false,Rx,0,6,FF,FF,FF,FF,05,80,00,00,
6418627,000001A0,false,Rx,0,8,00,80,00,08,80,00,38,E2,
6419823,000000C4,false,Rx,0,7,00,80,FD,00,80,79,FF,00,
6420288,000000AE,false,Rx,0,6,C1,0E,80,50,00,34,00,00,
6424689,000000A8,false,Rx,0,8,D8,0C,00,00,00,0F,0F,06,
6424970,000000A9,false,Rx,0,8,B5,0C,00,00,00,00,00,00,
6425254,000000AA,false,Rx,0,8,BA,0C,00,00,FF,FF,04,00,
6429841,000000C4,false,Rx,0,7,00,80,FD,00,80,A1,FF,00,
6434720,000000A8,false,Rx,0,8,D9,0D,00,00,00,0F,0F,06,
6434912,000000A9,false,Rx,0,8,B6,0D,00,00,00,00,00,00,
6435195,000000AA,false,Rx,0,8,BB,0D,00,00,FF,FF,04,00,
6436500,00000492,false,Rx,0,8,29,52,FF,01,00,00,02,01,
6437606,000000B6,false,Rx,0,5,34,04,80,00,F8,00,00,00,
6438068,0000019E,false,Rx,0,8,FF,FB,4F,00,30,F0,FF,0C,
6438361,000000CE,false,Rx,0,8,00,00,00,00,00,00,00,00,
6438551,000002B2,false,Rx,0,6,FF,FF,FF,FF,05,80,00,00,
6438742,000001A0,false,Rx,0,8,00,80,00,08,80,00,48,F2,
6439938,000000C4,false,Rx,0,7,00,80,FD,00,80,C9,FF,00,
6440313,000000AE,false,Rx,0,6,B3,00,80,50,00,34,00,00,
6441787,00000130,false,Rx,0,5,41,43,35,3F,AD,00,00,00,
6444726,000000A8,false,Rx,0,8,DA,0E,00,00,00,0F,0F,06,
6445008,000000A9,false,Rx,0,8,B7,0E,00,00,00,00,00,00,
6445201,000000AA,false,Rx,0,8,BC,0E,00,00,FF,FF,04,00,
6447036,00000192,false,Rx,0,4,6A,00,80,FD,00,00,00,00,
6447229,000005C0,false,Rx,0,8,48,0F,CA,F5,01,FD,44,00,
6449888,000000C4,false,Rx,0,7,00,80,FD,00,80,F1,FF,00,
6454655,000000A8,false,Rx,0,8,CC,00,00,00,00,0F,0F,06,
6454937,000000A9,false,Rx,0,8,A9,00,00,00,00,00,00,00,
6455221,000000AA,false,Rx,0,8,AE,00,00,00,FF,FF,04,00,
6457612,000000B6,false,Rx,0,5,35,05,80,00,F8,00,00,00,
6457803,0000019E,false,Rx,0,8,FF,FB,5F,00,30,F0,FF,1C,
6458085,000000CE,false,Rx,0,8,00,00,00,00,00,00,00,00,
6458279,000002B2,false,Rx,0,6,FF,FF,FF,FF,05,80,00,00,
6458569,000001A0,false,Rx,0,8,00,80,00,08,80,00,58,03,
6458760,00000374,false,Rx,0,5,00,00,00,00,FC,00,00,00,
6458861,000001A6,false,Rx,0,2,00,00,00,00,00,00,00,00,
6460151,000000C4,false,Rx,0,7,00,80,FD,00,80,19,FF,00,
6460349,000000AE,false,Rx,0,6,B4,01,80,50,00,34,00,00,
6464570,000001D0,false,Rx,0,8,FF,FF,09,CB,00,00,FD,00,
6464762,000000A8,false,Rx,0,8,CD,01,00,00,00,0F,0F,06,
6465044,000000A9,false,Rx,0,8,AA,01,00,00,00,00,00,00,
6466109,000000AA,false,Rx,0,8,AF,01,00,00,FF,FF,04,00,
6469891,000000C4,false,Rx,0,7,00,80,FD,00,80,41,FF,00,
6474671,000000A8,false,Rx,0,8,CE,02,00,00,00,0F,0F,06,
6474954,000000A9,false,Rx,0,8,AB,02,00,00,00,00,00,00,
6475240,000000AA,false,Rx,0,8,B0,02,00,00,FF,FF,04,00,
6476540,00000192,false,Rx,0,4,6A,00,80,FE,00,00,00,00,
6477560,000000B6,false,Rx,0,5,36,06,80,00,F8,00,00,00,
6477842,0000019E,false,Rx,0,8,FF,FB,5F,00,30,F0,FF,1C,
6478035,000000CE,false,Rx,0,8,00,00,00,00,00,00,00,00,
6478319,000002B2,false,Rx,0,6,FF,FF,FF,FF,05,80,00,00,
6478519,000001A0,false,Rx,0,8,00,80,00,08,80,00,68,13,
6479812,000000C4,false,Rx,0,7,00,80,FD,00,80,69,FF,00,
6480469,000000AE,false,Rx,0,6,B5,02,80,50,00,34,00,00,
6484692,000000A8,false,Rx,0,8,CF,03,00,00,00,0F,0F,06,
6484976,000000A9,false,Rx,0,8,AC,03,00,00,00,00,00,00,
6485261,000000AA,false,Rx,0,8,B1,03,00,00,FF,FF,04,00,
6489854,000000C4,false,Rx,0,7,00,80,FD,00,80,91,FF,00,
6494722,000000A8,false,Rx,0,8,D0,04,00,00,00,0F,0F,06,
6495005,000000A9,false,Rx,0,8,AD,04,00,00,00,00,00,00,
6495201,000000AA,false,Rx,0,8,B2,04,00,00,FF,FF,04,00,
6497597,000000B6,false,Rx,0,5,37,07,80,00,F8,00,00,00,
6497880,0000019E,false,Rx,0,8,FF,FB,5F,00,30,F0,FF,1C,
6498072,000000CE,false,Rx,0,8,00,00,00,00,00,00,00,00,
6498366,000002B2,false,Rx,0,6,FF,FF,FF,FF,05,80,00,00,
6498558,000001A0,false,Rx,0,8,00,80,00,08,80,00,78,23,
6499939,000000C4,false,Rx,0,7,00,80,FD,00,80,B9,FF,00,
6500413,000000AE,false,Rx,0,6,B6,03,80,50,00,34,00,00,
6504638,000000A8,false,Rx,0,8,D1,05,00,00,00,0F,0F,06,
6504921,000000A9,false,Rx,0,8,AE,05,00,00,00,00,00,00,
6505207,000000AA,false,Rx,0,8,B3,05,00,00,FF,FF,04,00,
6506312,00000192,false,Rx,0,4,6A,00,80,F1,00,00,00,00,
6509925,000000C4,false,Rx,0,7,00,80,FD,00,80,E1,FF,00,
6514722,000000A8,false,Rx,0,8,D2,06,00,00,00,0F,0F,06,
6514914,000000A9,false,Rx,0,8,AF,06,00,00,00,00,00,00,
6515201,000000AA,false,Rx,0,8,B4,06,00,00,FF,FF,04,00,
6517609,000000B6,false,Rx,0,5,38,08,80,00,F8,00,00,00,
6517899,0000019E,false,Rx,0,8,FF,FB,5F,00,30,F0,FF,1C,
6518091,000000CE,false,Rx,0,8,00,00,00,00,00,00,00,00,
6518286,000002B2,false,Rx,0,6,FF,FF,FF,FF,05,80,00,00,
6518577,000001A0,false,Rx,0,8,00,80,00,08,80,00,88,33,
6518768,000004A9,false,Rx,0,8,2A,52,FF,FF,FF,FF,FF,FF,
6519876,000000C4,false,Rx,0,7,00,80,FD,00,80,09,FF,00,
6520443,000000AE,false,Rx,0,6,B7,04,80,50,00,34,00,00,
6524662,000000A8,false,Rx,0,8,D3,07,00,00,00,0F,0F,06,
6524945,000000A9,false,Rx,0,8,B0,07,00,00,00,00,00,00,
6525229,000000AA,false,Rx,0,8,B5,07,00,00,FF,FF,04,00,
6527623,000001B6,false,Rx,0,7,FF,FF,3C,00,00,F8,00,00,
6529836,000000C4,false,Rx,0,7,00,80,FD,00,80,31,FF,00,
6534697,000000A8,false,Rx,0,8,D4,08,00,00,00,0F,0F,06,
6534980,000000A9,false,Rx,0,8,B1,08,00,00,00,00,00,00,
6535081,00000192,false,Rx,0,4,6A,00,80,F2,00,00,00,00,
6535374,000000AA,false,Rx,0,8,B6,08,00,00,FF,FF,04,00,
6537610,000000B6,false,Rx,0,5,39,09,80,00,F8,00,00,00,
6537801,0000019E,false,Rx,0,8,FF,FB,5F,00,30,F0,FF,1C,
6538084,000000CE,false,Rx,0,8,00,00,00,00,00,00,00,00,
6538280,000002B2,false,Rx,0,6,FF,FF,FF,FF,05,80,00,00,
6538480,000001A0,false,Rx,0,8,00,80,00,08,80,00,98,43,
6540411,000000AE,false,Rx,0,6,B9,05,80,50,00,35,00,00,
6540694,000000C4,false,Rx,0,7,00,80,FD,00,80,5B,FF,00,
6541802,00000130,false,Rx,0,5,41,43,35,3F,BE,00,00,00,
6544652,000000A8,false,Rx,0,8,D5,09,00,00,00,0F,0F,06,
6544934,000000A9,false,Rx,0,8,B2,09,00,00,00,00,00,00,
6545222,000000AA,false,Rx,0,8,B7,09,00,00,FF,FF,04,00,
6550033,000000C4,false,Rx,0,7,00,80,FD,00,80,81,FF,00,
6554431,000005E0,false,Rx,0,8,10,00,00,02,00,FF,FF,FF,
6554713,000000A8,false,Rx,0,8,D6,0A,00,00,00,0F,0F,06,
6554996,000000A9,false,Rx,0,8,B3,0A,00,00,00,00,00,00,
6555279,000000AA,false,Rx,0,8,B8,0A,00,00,FF,FF,04,00,
6557578,000000B6,false,Rx,0,5,3A,0A,80,00,F8,00,00,00,
6557860,0000019E,false,Rx,0,8,FF,FB,5F,00,30,F0,FF,1C,
6558052,000000CE,false,Rx,0,8,00,00,00,00,00,00,00,00,
6558246,000001A6,false,Rx,0,2,00,00,00,00,00,00,00,00,
6558445,000002B2,false,Rx,0,6,FF,FF,FF,FF,05,80,00,00,
6558636,000001A0,false,Rx,0,8,00,80,00,08,80,00,A8,53,
6559922,000000C4,false,Rx,0,7,00,80,FD,00,80,A9,FF,00,
6560665,000000AE,false,Rx,0,6,BA,06,80,50,00,35,00,00,
6564418,00000192,false,Rx,0,4,6A,00,80,F3,00,00,00,00,
6564700,000001D0,false,Rx,0,8,FF,FF,0A,CB,00,00,FD,00,
6564982,000000A8,false,Rx,0,8,D7,0B,00,00,00,0F,0F,06,
6565177,000000A9,false,Rx,0,8,B4,0B,00,00,00,00,00,00,
6565467,000000AA,false,Rx,0,8,B9,0B,00,00,FF,FF,04,00,
6569859,000000C4,false,Rx,0,7,00,80,FD,00,80,D1,FF,00,
6574693,000000A8,false,Rx,0,8,D8,0C,00,00,00,0F,0F,06,
6574976,000000A9,false,Rx,0,8,B5,0C,00,00,00,00,00,00,
6575261,000000AA,false,Rx,0,8,BA,0C,00,00,FF,FF,04,00,
6577559,000000B6,false,Rx,0,5,3B,0B,80,00,F8,00,00,00,
6577841,0000019E,false,Rx,0,8,FF,FB,5F,00,30,F0,FF,1C,
6578121,000000CE,false,Rx,0,8,00,00,00,00,00,00,00,00,
6578224,00000194,false,Rx,0,4,73,F5,80,FC,00,00,00,00,
6578423,000002B2,false,Rx,0,6,FF,FF,FF,FF,05,80,00,00,
6578704,000001A0,false,Rx,0,8,00,80,00,08,80,00,B8,63,
6579901,000000C4,false,Rx,0,7,00,80,FD,00,80,F9,FF,00,
6580554,000000AE,false,Rx,0,6,BB,07,80,50,00,35,00,00,
6584675,000000A8,false,Rx,0,8,D9,0D,00,00,00,0F,0F,06,
6584957,000000A9,false,Rx,0,8,B6,0D,00,00,00,00,00,00,
6585242,000000AA,false,Rx,0,8,BB,0D,00,00,FF,FF,04,00,
6589842,000000C4,false,Rx,0,7,00,80,FD,00,80,21,FF,00,
6593228,00000192,false,Rx,0,4,6A,00,80,F4,00,00,00,00,
6594702,000000A8,false,Rx,0,8,DA,0E,00,00,00,0F,0F,06,
6594985,000000A9,false,Rx,0,8,B7,0E,00,00,00,00,00,00,
6595178,000000AA,false,Rx,0,8,BC,0E,00,00,FF,FF,04,00,
6597570,000000B6,false,Rx,0,5,3C,0C,80,00,F8,00,00,00,
6597762,0000019E,false,Rx,0,8,FF,FB,5F,00,30,F0,FF,1C,
6598044,000000CE,false,Rx,0,8,00,00,00,00,00,00,00,00,
6598236,000002B2,false,Rx,0,6,FF,FF,FF,FF,05,80,00,00,
6598525,000001A0,false,Rx,0,8,00,80,00,08,80,00,C8,73,
6599901,000000C4,false,Rx,0,7,00,80,FD,00,80,49,FF,00,
6600464,000000AE,false,Rx,0,6,BC,08,80,50,00,35,00,00,
6604674,000000A8,false,Rx,0,8,CC,00,00,00,00,0F,0F,06,
6604956,000000A9,false,Rx,0,8,A9,00,00,00,00,00,00,00,
6605242,000000AA,false,Rx,0,8,AE,00,00,00,FF,FF,04,00,
6609912,000000C4,false,Rx,0,7,00,80,FD,00,80,71,FF,00,
6610926,000004AA,false,Rx,0,8,00,52,FF,FF,FF,FF,FF,FF,
6614642,000000A8,false,Rx,0,8,CD,01,00,00,00,0F,0F,06,
6614924,000000A9,false,Rx,0,8,AA,01,00,00,00,00,00,00,
6615209,000000AA,false,Rx,0,8,AF,01,00,00,FF,FF,04,00,
6617596,000000B6,false,Rx,0,5,3D,0D,80,00,F8,00,00,00,
6618705,0000019E,false,Rx,0,8,FF,FB,5F,00,30,F0,FF,1C,
6618812,000000CE,false,Rx,0,8,00,00,00,00,00,00,00,00,
6618911,000002B2,false,Rx,0,6,FF,FF,FF,FF,05,80,00,00,
6619019,000001A0,false,Rx,0,8,00,80,00,08,80,00,D8,83,
6619864,000000C4,false,Rx,0,7,00,80,FD,00,80,99,FF,00,
6620523,000000AE,false,Rx,0,6,BD,09,80,50,00,35,00,00,
6622269,00000192,false,Rx,0,4,6A,00,80,F5,00,00,00,00,
6624665,000000A8,false,Rx,0,8,CE,02,00,00,00,0F,0F,06,
6624948,000000A9,false,Rx,0,8,AB,02,00,00,00,00,00,00,
6625233,000000AA,false,Rx,0,8,B0,02,00,00,FF,FF,04,00,
6629834,000000C4,false,Rx,0,7,00,80,FD,00,80,C1,FF,00,
6634699,000000A8,false,Rx,0,8,CF,03,00,00,00,0F,0F,06,
6634982,000000A9,false,Rx,0,8,AC,03,00,00,00,00,00,00,
6635182,000000AA,false,Rx,0,8,B1,03,00,00,FF,FF,04,00,
6637587,000000B6,false,Rx,0,5,3E,0E,80,00,F8,00,00,00,
6637870,0000019E,false,Rx,0,8,FF,FB,5F,00,30,F0,FF,1C,
6638062,000000CE,false,Rx,0,8,00,00,00,00,00,00,00,00,
6638355,000002B2,false,Rx,0,6,FF,FF,FF,FF,05,80,00,00,
6638547,000001A0,false,Rx,0,8,00,80,00,08,80,00,E8,93,
6639926,000000C4,false,Rx,0,7,00,80,FD,00,80,E9,FF,00,
6640490,000000AE,false,Rx,0,6,BE,0A,80,50,00,35,00,00,
6641318,000001D6,false,Rx,0,2,C0,00,00,00,00,00,00,00,
6641878,00000130,false,Rx,0,5,41,43,35,3F,C0,00,00,00,
6644731,000000A8,false,Rx,0,8,D0,04,00,00,00,0F,0F,06,
6644923,000000A9,false,Rx,0,8,AD,04,00,00,00,00,00,00,
6645208,000000AA,false,Rx,0,8,B2,04,00,00,FF,FF,04,00,
6649915,000000C4,false,Rx,0,7,00,80,FD,00,80,11,FF,00,
6650843,00000192,false,Rx,0,4,6A,00,80,F6,00,00,00,00,
6654523,00000592,false,Rx,0,8,40,22,00,21,FF,FF,FF,FF,
6654805,000000A8,false,Rx,0,8,D1,05,00,00,00,0F,0F,06,
6655274,000000A9,false,Rx,0,8,AE,05,00,00,00,00,00,00,
6655565,000000AA,false,Rx,0,8,B3,05,00,00,FF,FF,04,00,
6657592,000000B6,false,Rx,0,5,30,00,80,00,F8,00,00,00,
6657875,0000019E,false,Rx,0,8,FF,FB,6F,00,30,F0,FF,2C,
6658067,000000CE,false,Rx,0,8,00,00,00,00,00,00,00,00,
6658261,000001A6,false,Rx,0,2,00,00,00,00,00,00,00,00,
6658460,000002B2,false,Rx,0,6,FF,FF,FF,FF,05,80,00,00,
6658652,000001A0,false,Rx,0,8,00,80,00,08,80,00,08,B2,
6660034,000000C4,false,Rx,0,7,00,80,FD,00,80,39,FF,00,
6660506,000000AE,false,Rx,0,6,BF,0B,80,50,00,35,00,00,
6664548,000001D0,false,Rx,0,8,FF,FF,0B,CB,00,00,FD,00,
6664740,000000A8,false,Rx,0,8,D2,06,00,00,00,0F,0F,06,
6665023,000000A9,false,Rx,0,8,AF,06,00,00,00,00,00,00,
6665308,000000AA,false,Rx,0,8,B4,06,00,00,FF,FF,04,00,
6669529,00000310,false,Rx,0,7,78,05,16,74,00,1F,18,00,
6669913,000000C4,false,Rx,0,7,00,80,FD,00,80,61,FF,00,
6674676,000000A8,false,Rx,0,8,D3,07,00,00,00,0F,0F,06,
6674958,000000A9,false,Rx,0,8,B0,07,00,00,00,00,00,00,
6675243,000000AA,false,Rx,0,8,B5,07,00,00,FF,FF,04,00,
6677634,000000B6,false,Rx,0,5,31,01,80,00,F8,00,00,00,
6677825,0000019E,false,Rx,0,8,FF,FB,6F,00,30,F0,FF,2C,
6678107,000000CE,false,Rx,0,8,00,00,00,00,00,00,00,00,
6678301,000002B2,false,Rx,0,6,FF,FF,FF,FF,05,80,00,00,
6678501,000001A0,false,Rx,0,8,00,80,00,08,80,00,18,C2,
6680521,000000AE,false,Rx,0,6,C0,0C,80,50,00,35,00,00,
6680804,000000C4,false,Rx,0,7,00,80,FD,00,80,8B,FF,00,
6681547,00000192,false,Rx,0,4,6A,00,80,F7,00,00,00,00,
6684660,000000A8,false,Rx,0,8,D4,08,00,00,00,0F,0F,06,
6684942,000000A9,false,Rx,0,8,B1,08,00,00,00,00,00,00,
6685226,000000AA,false,Rx,0,8,B6,08,00,00,FF,FF,04,00,
6686612,00000480,false,Rx,0,8,12,42,FF,10,00,00,02,01,
6690648,000000C4,false,Rx,0,7,00,80,FD,00,80,B3,FF,00,
6694675,000000A8,false,Rx,0,8,D5,09,00,00,00,0F,0F,06,
6694958,000000A9,false,Rx,0,8,B2,09,00,00,00,00,00,00,
6695243,000000AA,false,Rx,0,8,B7,09,00,00,FF,FF,04,00,
6697545,000000B6,false,Rx,0,5,32,02,80,00,F8,00,00,00,
6697827,0000019E,false,Rx,0,8,FF,FB,6F,00,30,F0,FF,2C,
6698019,000000CE,false,Rx,0,8,00,00,00,00,00,00,00,00,
6698214,000002B2,false,Rx,0,6,FF,FF,FF,FF,05,80,00,00,
6698503,000001A0,false,Rx,0,8,00,80,00,08,80,00,28,D2,
6700341,000000C4,false,Rx,0,7,00,80,FD,00,80,DA,FF,00,
6700712,000000AE,false,Rx,0,6,C1,0D,80,50,00,35,00,00,
6704655,000000A8,false,Rx,0,8,D6,0A,00,00,00,0F,0F,06,
6704937,000000A9,false,Rx,0,8,B3,0A,00,00,00,00,00,00,
6705221,000000AA,false,Rx,0,8,B8,0A,00,00,FF,FF,04,00,
6710170,000000C4,false,Rx,0,7,00,80,FD,00,80,01,FF,00,
6710911,00000192,false,Rx,0,4,6A,00,80,F8,00,00,00,00,
6714441,000005E0,false,Rx,0,8,10,00,00,02,00,FF,FF,FF,
6714723,000000A8,false,Rx,0,8,D7,0B,00,00,00,0F,0F,06,
6715004,000000A9,false,Rx,0,8,B4,0B,00,00,00,00,00,00,
6715198,000000AA,false,Rx,0,8,B9,0B,00,00,FF,FF,04,00,
6717600,000000B6,false,Rx,0,5,33,03,80,00,F8,00,00,00,
6717791,0000019E,false,Rx,0,8,FF,FB,6F,00,30,F0,FF,2C,
6718073,000000CE,false,Rx,0,8,00,00,00,00,00,00,00,00,
6718266,000002B2,false,Rx,0,6,FF,FF,FF,FF,05,80,00,00,
6718465,000001A0,false,Rx,0,8,00,80,00,08,80,00,38,E2,
6720301,000000C4,false,Rx,0,7,00,80,FD,00,80,29,FF,00,
6720695,000000AE,false,Rx,0,6,C2,0E,80,50,00,35,00,00,
6724643,000000A8,false,Rx,0,8,D8,0C,00,00,00,0F,0F,06,
6724926,000000A9,false,Rx,0,8,B5,0C,00,00,00,00,00,00,
6725210,000000AA,false,Rx,0,8,BA,0C,00,00,FF,FF,04,00,
6729898,000000C4,false,Rx,0,7,00,80,FD,00,80,51,FF,00,
6734669,000000A8,false,Rx,0,8,D9,0D,00,00,00,0F,0F,06,
6734952,000000A9,false,Rx,0,8,B6,0D,00,00,00,00,00,00,
6735237,000000AA,false,Rx,0,8,BB,0D,00,00,FF,FF,04,00,
6737643,000000B6,false,Rx,0,5,34,04,80,00,F8,00,00,00,
6737925,0000019E,false,Rx,0,8,FF,FB,6F,00,30,F0,FF,2C,
6738117,000000CE,false,Rx,0,8,00,00,00,00,00,00,00,00,
6738310,000002B2,false,Rx,0,6,FF,FF,FF,FF,05,80,00,00,
6738602,000001A0,false,Rx,0,8,00,80,00,08,80,00,48,F2,
6739890,000000C4,false,Rx,0,7,00,80,FD,00,80,79,FF,00,
6740637,000000AE,false,Rx,0,6,B5,00,80,50,00,36,00,00,
6741286,00000192,false,Rx,0,4,6A,00,80,F9,00,00,00,00,
6741847,00000130,false,Rx,0,5,41,43,35,3F,D1,00,00,00,
6742313,000005AA,false,Rx,0,8,40,36,00,05,FF,FF,FF,FF,
6744709,000000A8,false,Rx,0,8,DA,0E,00,00,00,0F,0F,06,
6744900,000000A9,false,Rx,0,8,B7,0E,00,00,00,00,00,00,
6745185,000000AA,false,Rx,0,8,BC,0E,00,00,FF,FF,04,00,
6747760,000005C0,false,Rx,0,8,48,00,B4,61,03,00,B7,61,
6749874,000000C4,false,Rx,0,7,00,80,FD,00,80,A1,FF,00,
6754643,000000A8,false,Rx,0,8,CC,00,00,00,00,0F,0F,06,
6754926,000000A9,false,Rx,0,8,A9,00,00,00,00,00,00,00,
6755210,000000AA,false,Rx,0,8,AE,00,00,00,FF,FF,04,00,
6757601,000000B6,false,Rx,0,5,35,05,80,00,F8,00,00,00,
6757793,0000019E,false,Rx,0,8,FF,FB,6F,00,30,F0,FF,2C,
6758076,000000CE,false,Rx,0,8,00,00,00,00,00,00,00,00,
6758178,000001A6,false,Rx,0,2,00,00,00,00,00,00,00,00,
6758377,000002B2,false,Rx,0,6,FF,FF,FF,FF,05,80,00,00,
6758659,000001A0,false,Rx,0,8,00,80,00,08,80,00,58,03,
6759858,000000C4,false,Rx,0,7,00,80,FD,00,80,C9,FF,00,
6760693,000000AE,false,Rx,0,6,B6,01,80,50,00,36,00,00,
6764605,000001D0,false,Rx,0,8,FF,FF,0C,CB,00,00,FD,00,
6764804,000000A8,false,Rx,0,8,CD,01,00,00,00,0F,0F,06,
6765084,000000A9,false,Rx,0,8,AA,01,00,00,00,00,00,00,
6765280,000000AA,false,Rx,0,8,AF,01,00,00,FF,FF,04,00,
6769869,000000C4,false,Rx,0,7,00,80,FD,00,80,F1,FF,00,
6770059,00000192,false,Rx,0,4,6A,00,80,FA,00,00,00,00,
6774720,000000A8,false,Rx,0,8,CE,02,00,00,00,0F,0F,06,
6774923,000000A9,false,Rx,0,8,AB,02,00,00,00,00,00,00,
6775209,000000AA,false,Rx,0,8,B0,02,00,00,FF,FF,04,00,
6776502,00000492,false,Rx,0,8,29,52,FF,01,00,00,02,01,
6777606,000000B6,false,Rx,0,5,36,06,80,00,F8,00,00,00,
6777797,0000019E,false,Rx,0,8,FF,FB,6F,00,30,F0,FF,2C,
6778079,000000CE,false,Rx,0,8,00,00,00,00,00,00,00,00,
6778273,000002B2,false,Rx,0,6,FF,FF,FF,FF,05,80,00,00,
6778562,000001A0,false,Rx,0,8,00,80,00,08,80,00,68,13,
6779848,00000194,false,Rx,0,4,74,F6,80,FC,00,00,00,00,
6780130,000000C4,false,Rx,0,7,00,80,FD,00,80,19,FF,00,
6780601,000000AE,false,Rx,0,6,B7,02,80,50,00,36,00,00,
6784635,000000A8,false,Rx,0,8,CF,03,00,00,00,0F,0F,06,
6784918,000000A9,false,Rx,0,8,AC,03,00,00,00,00,00,00,
6785201,000000AA,false,Rx,0,8,B1,03,00,00,FF,FF,04,00,
6789867,000000C4,false,Rx,0,7,00,80,FD,00,80,41,FF,00,
6794636,000000A8,false,Rx,0,8,D0,04,00,00,00,0F,0F,06,
6794917,000000A9,false,Rx,0,8,AD,04,00,00,00,00,00,00,
6795201,000000AA,false,Rx,0,8,B2,04,00,00,FF,FF,04,00,
6797591,000000B6,false,Rx,0,5,37,07,80,00,F8,00,00,00,
6797782,0000019E,false,Rx,0,8,FF,FB,6F,00,30,F0,FF,2C,
6798064,000000CE,false,Rx,0,8,00,00,00,00,00,00,00,00,
6798260,000002B2,false,Rx,0,6,FF,FF,FF,FF,05,80,00,00,
6798549,000001A0,false,Rx,0,8,00,80,00,08,80,00,78,23,
6799474,00000192,false,Rx,0,4,6A,00,80,FB,00,00,00,00,
6799935,000000C4,false,Rx,0,7,00,80,FD,00,80,69,FF,00,
6800771,000000AE,false,Rx,0,6,B8,03,80,50,00,36,00,00,
6804623,000000A8,false,Rx,0,8,D1,05,00,00,00,0F,0F,06,
6804905,000000A9,false,Rx,0,8,AE,05,00,00,00,00,00,00,
6805189,000000AA,false,Rx,0,8,B3,05,00,00,FF,FF,04,00,
6809862,000000C4,false,Rx,0,7,00,80,FD,00,80,91,FF,00,
6814630,000000A8,false,Rx,0,8,D2,06,00,00,00,0F,0F,06,
6814911,000000A9,false,Rx,0,8,AF,06,00,00,00,00,00,00,
6815195,000000AA,false,Rx,0,8,B4,06,00,00,FF,FF,04,00,
6817617,000000B6,false,Rx,0,5,38,08,80,00,F8,00,00,00,
6817812,0000019E,false,Rx,0,8,FF,FB,6F,00,30,F0,FF,2C,
6818105,000000CE,false,Rx,0,8,00,00,00,00,00,00,00,00,
6818300,000002B2,false,Rx,0,6,FF,FF,FF,FF,05,80,00,00,
6818499,000001A0,false,Rx,0,8,00,80,00,08,80,00,88,33,
6820692,000000AE,false,Rx,0,6,B9,04,80,50,00,36,00,00,
6820976,000000C4,false,Rx,0,7,00,80,FD,00,80,BC,FF,00,
6824685,000000A8,false,Rx,0,8,D3,07,00,00,00,0F,0F,06,
6824975,000000A9,false,Rx,0,8,B0,07,00,00,00,00,00,00,
6825170,000000AA,false,Rx,0,8,B5,07,00,00,FF,FF,04,00,
6827755,00000192,false,Rx,0,4,6A,00,80,FC,00,00,00,00,
6830698,000000C4,false,Rx,0,7,00,80,FD,00,80,E3,FF,00,
6834647,000000A8,false,Rx,0,8,D4,08,00,00,00,0F,0F,06,
6834930,000000A9,false,Rx,0,8,B1,08,00,00,00,00,00,00,
6835215,000000AA,false,Rx,0,8,B6,08,00,00,FF,FF,04,00,
6837627,000000B6,false,Rx,0,5,39,09,80,00,F8,00,00,00,
6837819,0000019E,false,Rx,0,8,FF,FB,6F,00,30,F0,FF,2C,
6838102,000000CE,false,Rx,0,8,00,00,00,00,00,00,00,00,
6838297,000002B2,false,Rx,0,6,FF,FF,FF,FF,05,80,00,00,
6838769,000001A0,false,Rx,0,8,00,80,00,08,80,00,98,43,
6840341,000000C4,false,Rx,0,7,00,80,FD,00,80,0A,FF,00,
6840714,000000AE,false,Rx,0,6,BA,05,80,50,00,36,00,00,
6841734,00000130,false,Rx,0,5,41,43,35,3F,E2,00,00,00,
6844679,000000A8,false,Rx,0,8,D5,09,00,00,00,0F,0F,06,
6844960,000000A9,false,Rx,0,8,B2,09,00,00,00,00,00,00,
6845248,000000AA,false,Rx,0,8,B7,09,00,00,FF,FF,04,00,
6850133,000000C4,false,Rx,0,7,00,80,FD,00,80,32,FF,00,
6854639,000000A8,false,Rx,0,8,D6,0A,00,00,00,0F,0F,06,
6854922,000000A9,false,Rx,0,8,B3,0A,00,00,00,00,00,00,
6855206,000000AA,false,Rx,0,8,B8,0A,00,00,FF,FF,04,00,
6857047,00000192,false,Rx,0,4,6A,00,80,FD,00,00,00,00,
6857614,000000B6,false,Rx,0,5,3A,0A,80,00,F8,00,00,00,
6857806,0000019E,false,Rx,0,8,FF,FB,7F,00,30,F0,FF,3C,
6858088,000000CE,false,Rx,0,8,00,00,00,00,00,00,00,00,
6858191,000001A6,false,Rx,0,2,00,00,00,00,00,00,00,00,
6858391,000002B2,false,Rx,0,6,FF,FF,FF,FF,05,80,00,00,
6858672,000001A0,false,Rx,0,8,00,80,00,08,80,00,A8,53,
6858864,000004A9,false,Rx,0,8,2A,52,FF,FF,FF,FF,FF,FF,
6860067,000000C4,false,Rx,0,7,00,80,FD,00,80,59,FF,00,
6860813,000000AE,false,Rx,0,6,BB,06,80,50,00,36,00,00,
6864491,000001D0,false,Rx,0,8,FF,FF,0D,CB,00,00,FD,00,
6864775,000000A8,false,Rx,0,8,D7,0B,00,00,00,0F,0F,06,
6865058,000000A9,false,Rx,0,8,B4,0B,00,00,00,00,00,00,
6865352,000000AA,false,Rx,0,8,B9,0B,00,00,FF,FF,04,00,
6870048,000000C4,false,Rx,0,7,00,80,FD,00,80,81,FF,00,
6874636,000000A8,false,Rx,0,8,D8,0C,00,00,00,0F,0F,06,
6874926,000000A9,false,Rx,0,8,B5,0C,00,00,00,00,00,00,
6875211,000000AA,false,Rx,0,8,BA,0C,00,00,FF,FF,04,00,
6877599,000000B6,false,Rx,0,5,3B,0B,80,00,F8,00,00,00,
6877879,0000019E,false,Rx,0,8,FF,FB,7F,00,30,F0,FF,3C,
6878070,000000CE,false,Rx,0,8,00,00,00,00,00,00,00,00,
6878266,000002B2,false,Rx,0,6,FF,FF,FF,FF,05,80,00,00,
6878556,000001A0,false,Rx,0,8,00,80,00,08,80,00,B8,63,
6879842,000000C4,false,Rx,0,7,00,80,FD,00,80,A9,FF,00,
6880766,000000AE,false,Rx,0,6,BC,07,80,50,00,36,00,00,
6884612,000000A8,false,Rx,0,8,D9,0D,00,00,00,0F,0F,06,
6884894,000000A9,false,Rx,0,8,B6,0D,00,00,00,00,00,00,
6885178,000000AA,false,Rx,0,8,BB,0D,00,00,FF,FF,04,00,
6886195,00000192,false,Rx,0,4,6A,00,80,FE,00,00,00,00,
6889862,000000C4,false,Rx,0,7,00,80,FD,00,80,D1,FF,00,
6894629,000000A8,false,Rx,0,8,DA,0E,00,00,00,0F,0F,06,
6894911,000000A9,false,Rx,0,8,B7,0E,00,00,00,00,00,00,
6895195,000000AA,false,Rx,0,8,BC,0E,00,00,FF,FF,04,00,
6897585,000000B6,false,Rx,0,5,3C,0C,80,00,F8,00,00,00,
6897867,0000019E,false,Rx,0,8,FF,FB,7F,00,30,F0,FF,3C,
6898059,000000CE,false,Rx,0,8,00,00,00,00,00,00,00,00,
6898254,000002B2,false,Rx,0,6,FF,FF,FF,FF,05,80,00,00,
6898544,000001A0,false,Rx,0,8,00,80,00,08,80,00,C8,73,
6899919,000000C4,false,Rx,0,7,00,80,FD,00,80,F9,FF,00,
6900753,000000AE,false,Rx,0,6,BD,08,80,50,00,36,00,00,
6904690,000000A8,false,Rx,0,8,CC,00,00,00,00,0F,0F,06,
6904971,000000A9,false,Rx,0,8,A9,00,00,00,00,00,00,00,
6905165,000000AA,false,Rx,0,8,AE,00,00,00,FF,FF,04,00,
6909932,000000C4,false,Rx,0,7,00,80,FD,00,80,21,FF,00,
6914509,000005E0,false,Rx,0,8,10,00,00,01,00,FF,FF,FF,
6914701,000000A8,false,Rx,0,8,CD,01,00,00,00,0F,0F,06,
6914982,000000A9,false,Rx,0,8,AA,01,00,00,00,00,00,00,
6915267,000000AA,false,Rx,0,8,AF,01,00,00,FF,FF,04,00,
6915647,00000192,false,Rx,0,4,6A,00,80,F1,00,00,00,00,
6917575,000000B6,false,Rx,0,5,3D,0D,80,00,F8,00,00,00,
6917766,0000019E,false,Rx,0,8,FF,FB,7F,00,30,F0,FF,3C,
6918078,000000CE,false,Rx,0,8,00,00,00,00,00,00,00,00,
6918273,000002B2,false,Rx,0,6,FF,FF,FF,FF,05,80,00,00,
6918472,000001A0,false,Rx,0,8,00,80,00,08,80,00,D8,83,
6919860,000000C4,false,Rx,0,7,00,80,FD,00,80,49,FF,00,
6920882,000000AE,false,Rx,0,6,BE,09,80,50,00,36,00,00,
6924653,000000A8,false,Rx,0,8,CE,02,00,00,00,0F,0F,06,
6924944,000000A9,false,Rx,0,8,AB,02,00,00,00,00,00,00,
6925228,000000AA,false,Rx,0,8,B0,02,00,00,FF,FF,04,00,
6929826,000000C4,false,Rx,0,7,00,80,FD,00,80,71,FF,00,
6934689,000000A8,false,Rx,0,8,CF,03,00,00,00,0F,0F,06,
6934881,000000A9,false,Rx,0,8,AC,03,00,00,00,00,00,00,
6935165,000000AA,false,Rx,0,8,B1,03,00,00,FF,FF,04,00,
6937570,000000B6,false,Rx,0,5,3E,0E,80,00,F8,00,00,00,
6937853,0000019E,false,Rx,0,8,FF,FB,7F,00,30,F0,FF,3C,
6938045,000000CE,false,Rx,0,8,00,00,00,00,00,00,00,00,
6938330,000002B2,false,Rx,0,6,FF,FF,FF,FF,05,80,00,00,
6938529,000001A0,false,Rx,0,8,00,80,00,08,80,00,E8,93,
6939909,000000C4,false,Rx,0,7,00,80,FD,00,80,99,FF,00,
6940927,000000AE,false,Rx,0,6,C0,0A,80,50,00,37,00,00,
6941763,00000130,false,Rx,0,5,41,43,35,3F,F3,00,00,00,
6944242,00000192,false,Rx,0,4,6A,00,80,F2,00,00,00,00,
6944714,000000A8,false,Rx,0,8,D0,04,00,00,00,0F,0F,06,
6944997,000000A9,false,Rx,0,8,AD,04,00,00,00,00,00,00,
6945282,000000AA,false,Rx,0,8,B2,04,00,00,FF,FF,04,00,
6949870,000000C4,false,Rx,0,7,00,80,FD,00,80,C1,FF,00,
6951350,000004AA,false,Rx,0,8,00,52,FF,FF,FF,FF,FF,FF,
6954652,000000A8,false,Rx,0,8,D1,05,00,00,00,0F,0F,06,
6954935,000000A9,false,Rx,0,8,AE,05,00,00,00,00,00,00,
6955219,000000AA,false,Rx,0,8,B3,05,00,00,FF,FF,04,00,
6957613,000000B6,false,Rx,0,5,30,00,80,00,F8,00,00,00,
6957896,0000019E,false,Rx,0,8,FF,FB,7F,00,30,F0,FF,3C,
6958088,000000CE,false,Rx,0,8,00,00,00,00,00,00,00,00,
6958281,000001A6,false,Rx,0,2,00,00,00,00,00,00,00,00,
6958480,000002B2,false,Rx,0,6,FF,FF,FF,FF,05,80,00,00,
6958672,000001A0,false,Rx,0,8,00,80,00,08,80,00,08,B2,
6959870,000000C4,false,Rx,0,7,00,80,FD,00,80,E9,FF,00,
6960976,000000AE,false,Rx,0,6,C1,0B,80,50,00,37,00,00,
6964477,000001D0,false,Rx,0,8,FF,FF,0E,CB,00,00,FD,00,
6964760,000000A8,false,Rx,0,8,D2,06,00,00,00,0F,0F,06,
6965042,000000A9,false,Rx,0,8,AF,06,00,00,00,00,00,00,
6965327,000000AA,false,Rx,0,8,B4,06,00,00,FF,FF,04,00,
6969915,000000C4,false,Rx,0,7,00,80,FD,00,80,11,FF,00,
6974426,00000192,false,Rx,0,4,6A,00,80,F3,00,00,00,00,
6974631,000000A8,false,Rx,0,8,D3,07,00,00,00,0F,0F,06,
6974913,000000A9,false,Rx,0,8,B0,07,00,00,00,00,00,00,
6975198,000000AA,false,Rx,0,8,B5,07,00,00,FF,FF,04,00,
6977593,000000B6,false,Rx,0,5,31,01,80,00,F8,00,00,00,
6977875,0000019E,false,Rx,0,8,FF,FB,7F,00,30,F0,FF,3C,
6978067,000000CE,false,Rx,0,8,00,00,00,00,00,00,00,00,
6978540,000002B2,false,Rx,0,6,FF,FF,FF,FF,05,80,00,00,
6978732,000001A0,false,Rx,0,8,00,80,00,08,80,00,18,C2,
6979478,00000194,false,Rx,0,4,75,F7,80,FC,00,00,00,00,
6980377,000000C4,false,Rx,0,7,00,80,FD,00,80,39,FF,00,
6980969,000000AE,false,Rx,0,6,C2,0C,80,50,00,37,00,00,
6984673,000000A8,false,Rx,0,8,D4,08,00,00,00,0F,0F,06,
6984955,000000A9,false,Rx,0,8,B1,08,00,00,00,00,00,00,
6985239,000000AA,false,Rx,0,8,B6,08,00,00,FF,FF,04,00,
6990094,000000C4,false,Rx,0,7,00,80,FD,00,80,61,FF,00,
6994675,000000A8,false,Rx,0,8,D5,09,00,00,00,0F,0F,06,
6994958,000000A9,false,Rx,0,8,B2,09,00,00,00,00,00,00,
6995151,000000AA,false,Rx,0,8,B7,09,00,00,FF,FF,04,00,
6997539,000000B6,false,Rx,0,5,32,02,80,00,F8,00,00,00,
6997821,0000019E,false,Rx,0,8,FF,FB,7F,00,30,F0,FF,3C,
6998103,000000CE,false,Rx,0,8,00,00,00,00,00,00,00,00,
6998296,000002B2,false,Rx,0,6,FF,FF,FF,FF,05,80,00,00,
6998496,000001A0,false,Rx,0,8,00,80,00,08,80,00,28,D2,
6999871,000000C4,false,Rx,0,7,00,80,FD,00,80,89,FF,00,
7000978,000000AE,false,Rx,0,6,C3,0D,80,50,00,37,00,00,
7002083,00000192,false,Rx,0,4,6A,00,80,F4,00,00,00,00,
7004660,000000A8,false,Rx,0,8,D6,0A,00,00,00,0F,0F,06,
7004942,000000A9,false,Rx,0,8,B3,0A,00,00,00,00,00,00,
7005227,000000AA,false,Rx,0,8,B8,0A,00,00,FF,FF,04,00,
7009900,000000C4,false,Rx,0,7,00,80,FD,00,80,B1,FF,00,
7014665,000000A8,false,Rx,0,8,D7,0B,00,00,00,0F,0F,06,
7014947,000000A9,false,Rx,0,8,B4,0B,00,00,00,00,00,00,
7015231,000000AA,false,Rx,0,8,B9,0B,00,00,FF,FF,04,00,
7017533,000000B6,false,Rx,0,5,33,03,80,00,F8,00,00,00,
7017814,0000019E,false,Rx,0,8,FF,FB,7F,00,30,F0,FF,3C,
7018006,000000CE,false,Rx,0,8,00,00,00,00,00,00,00,00,
7018290,000002B2,false,Rx,0,6,FF,FF,FF,FF,05,80,00,00,
7018489,000001A0,false,Rx,0,8,00,80,00,08,80,00,38,E2,
7019866,000000C4,false,Rx,0,7,00,80,FD,00,80,D9,FF,00,
7021089,000000AE,false,Rx,0,6,C4,0E,80,50,00,37,00,00,
7025313,000000A8,false,Rx,0,8,D8,0C,00,00,00,0F,0F,06,
7025428,000000A9,false,Rx,0,8,B5,0C,00,00,00,00,00,00,
7025534,000000AA,false,Rx,0,8,BA,0C,00,00,FF,FF,04,00,
7026663,00000480,false,Rx,0,8,12,42,FF,20,00,00,02,01,
7030067,000000C4,false,Rx,0,7,00,80,FD,00,80,01,FF,00,
7031368,00000192,false,Rx,0,4,6A,00,80,F5,00,00,00,00,
7034673,000000A8,false,Rx,0,8,D9,0D,00,00,00,0F,0F,06,
7034956,000000A9,false,Rx,0,8,B6,0D,00,00,00,00,00,00,
7035151,000000AA,false,Rx,0,8,BB,0D,00,00,FF,FF,04,00,
7037559,000000B6,false,Rx,0,5,34,04,80,00,F8,00,00,00,
7037751,0000019E,false,Rx,0,8,FF,FB,7F,00,30,F0,FF,3C,
7038034,000000CE,false,Rx,0,8,00,00,00,00,00,00,00,00,
7038227,000002B2,false,Rx,0,6,FF,FF,FF,FF,05,80,00,00,
7038518,000001A0,false,Rx,0,8,00,80,00,08,80,00,48,F2,
7039899,000000C4,false,Rx,0,7,00,80,FD,00,80,29,FF,00,
7040917,000000AE,false,Rx,0,6,B6,00,80,50,00,37,00,00,
7041752,00000130,false,Rx,0,5,41,43,35,3F,04,00,00,00,
7044698,000000A8,false,Rx,0,8,DA,0E,00,00,00,0F,0F,06,
7044981,000000A9,false,Rx,0,8,B7,0E,00,00,00,00,00,00,
7045267,000000AA,false,Rx,0,8,BC,0E,00,00,FF,FF,04,00,
7049861,000000C4,false,Rx,0,7,00,80,FD,00,80,51,FF,00,
7054638,000000A8,false,Rx,0,8,CC,00,00,00,00,0F,0F,06,
7054921,000000A9,false,Rx,0,8,A9,00,00,00,00,00,00,00,
7055206,000000AA,false,Rx,0,8,AE,00,00,00,FF,FF,04,00,
7057601,000001A6,false,Rx,0,2,00,00,00,00,00,00,00,00,
7057793,000000B6,false,Rx,0,5,35,05,80,00,F8,00,00,00,
7057985,0000019E,false,Rx,0,8,FF,FB,8F,00,30,F0,FF,4C,
7058270,000000CE,false,Rx,0,8,00,00,00,00,00,00,00,00,
7058470,000002B2,false,Rx,0,6,FF,FF,FF,FF,05,80,00,00,
7058661,000001A0,false,Rx,0,8,00,80,00,08,80,00,58,03,
7059865,000000C4,false,Rx,0,7,00,80,FD,00,80,79,FF,00,
7060523,00000192,false,Rx,0,4,6A,00,80,F6,00,00,00,00,
7061169,000000AE,false,Rx,0,6,B7,01,80,50,00,37,00,00,
7064484,000001D0,false,Rx,0,8,FF,FF,00,CB,00,00,FD,00,
7064767,000000A8,false,Rx,0,8,CD,01,00,00,00,0F,0F,06,
7065050,000000A9,false,Rx,0,8,AA,01,00,00,00,00,00,00,
7065343,000000AA,false,Rx,0,8,AF,01,00,00,FF,FF,04,00,
7069839,000000C4,false,Rx,0,7,00,80,FD,00,80,A1,FF,00,
7074528,000005E0,false,Rx,0,8,10,00,00,01,00,FF,FF,FF,
7074721,000000A8,false,Rx,0,8,CE,02,00,00,00,0F,0F,06,
7075004,000000A9,false,Rx,0,8,AB,02,00,00,00,00,00,00,
7076126,000000AA,false,Rx,0,8,B0,02,00,00,FF,FF,04,00,
7077624,000000B6,false,Rx,0,5,36,06,80,00,F8,00,00,00,
7077815,0000019E,false,Rx,0,8,FF,FB,8F,00,30,F0,FF,4C,
7078097,000000CE,false,Rx,0,8,00,00,00,00,00,00,00,00,
7078292,000002B2,false,Rx,0,6,FF,FF,FF,FF,05,80,00,00,
7078491,000001A0,false,Rx,0,8,00,80,00,08,80,00,68,13,
7079867,000000C4,false,Rx,0,7,00,80,FD,00,80,C9,FF,00,
7080973,000000AE,false,Rx,0,6,B8,02,80,50,00,37,00,00,
7084667,000000A8,false,Rx,0,8,CF,03,00,00,00,0F,0F,06,
7084949,000000A9,false,Rx,0,8,AC,03,00,00,00,00,00,00,
7085142,000000AA,false,Rx,0,8,B1,03,00,00,FF,FF,04,00,
7089635,00000192,false,Rx,0,4,6A,00,80,F7,00,00,00,00,
7090007,000000C4,false,Rx,0,7,00,80,FD,00,80,F1,FF,00,
7094681,000000A8,false,Rx,0,8,D0,04,00,00,00,0F,0F,06,
7094963,000000A9,false,Rx,0,8,AD,04,00,00,00,00,00,00,
7095247,000000AA,false,Rx,0,8,B2,04,00,00,FF,FF,04,00,
7097636,000000B6,false,Rx,0,5,37,07,80,00,F8,00,00,00,
7097827,0000019E,false,Rx,0,8,FF,FB,8F,00,30,F0,FF,4C,
7098110,000000CE,false,Rx,0,8,00,00,00,00,00,00,00,00,
7098305,000002B2,false,Rx,0,6,FF,FF,FF,FF,05,80,00,00,
7098505,000001A0,false,Rx,0,8,00,80,00,08,80,00,78,23,
7099883,000000C4,false,Rx,0,7,00,80,FD,00,80,19,FF,00,
7100990,000000AE,false,Rx,0,6,B9,03,80,50,00,37,00,00,
7104675,000000A8,false,Rx,0,8,D1,05,00,00,00,0F,0F,06,
7104957,000000A9,false,Rx,0,8,AE,05,00,00,00,00,00,00,
7105151,000000AA,false,Rx,0,8,B3,05,00,00,FF,FF,04,00,
7109913,000000C4,false,Rx,0,7,00,80,FD,00,80,41,FF,00,
7114675,000000A8,false,Rx,0,8,D2,06,00,00,00,0F,0F,06,
7114957,000000A9,false,Rx,0,8,AF,06,00,00,00,00,00,00,
7115151,000000AA,false,Rx,0,8,B4,06,00,00,FF,FF,04,00,
7116444,00000492,false,Rx,0,8,29,52,FF,01,00,00,02,01,
7117552,000000B6,false,Rx,0,5,38,08,80,00,F8,00,00,00,
7117833,0000019E,false,Rx,0,8,FF,FB,8F,00,30,F0,FF,4C,
7118024,000000CE,false,Rx,0,8,00,00,00,00,00,00,00,00,
7118218,000002B2,false,Rx,0,6,FF,FF,FF,FF,05,80,00,00,
7118506,000001A0,false,Rx,0,8,00,80,00,08,80,00,88,33,
7119430,00000192,false,Rx,0,4,6A,00,80,F8,00,00,00,00,
7119893,000000C4,false,Rx,0,7,00,80,FD,00,80,69,FF,00,
7121088,000000AE,false,Rx,0,6,BA,04,80,50,00,37,00,00,
7124596,000000A8,false,Rx,0,8,D3,07,00,00,00,0F,0F,06,
7124878,000000A9,false,Rx,0,8,B0,07,00,00,00,00,00,00,
7125177,000000AA,false,Rx,0,8,B5,07,00,00,FF,FF,04,00,
7129832,000000C4,false,Rx,0,7,00,80,FD,00,80,91,FF,00,
7134614,000000A8,false,Rx,0,8,D4,08,00,00,00,0F,0F,06,
7134897,000000A9,false,Rx,0,8,B1,08,00,00,00,00,00,00,
7135182,000000AA,false,Rx,0,8,B6,08,00,00,FF,FF,04,00,
7137581,000000B6,false,Rx,0,5,39,09,80,00,F8,00,00,00,
7137862,0000019E,false,Rx,0,8,FF,FB,8F,00,30,F0,FF,4C,
7138055,000000CE,false,Rx,0,8,00,00,00,00,00,00,00,00,
7138266,000002B2,false,Rx,0,6,FF,FF,FF,FF,05,80,00,00,
7138557,000001A0,false,Rx,0,8,00,80,00,08,80,00,98,43,
7139847,000000C4,false,Rx,0,7,00,80,FD,00,80,B9,FF,00,
7141047,000000AE,false,Rx,0,6,BC,05,80,50,00,38,00,00,
7141793,00000130,false,Rx,0,5,41,43,35,3F,15,00,00,00,
7144646,000000A8,false,Rx,0,8,D5,09,00,00,00,0F,0F,06,
7144929,000000A9,false,Rx,0,8,B2,09,00,00,00,00,00,00,
7145214,000000AA,false,Rx,0,8,B7,09,00,00,FF,FF,04,00,
7148432,00000192,false,Rx,0,4,6A,00,80,F9,00,00,00,00,
7149904,000000C4,false,Rx,0,7,00,80,FD,00,80,E1,FF,00,
7154680,000000A8,false,Rx,0,8,D6,0A,00,00,00,0F,0F,06,
7154871,000000A9,false,Rx,0,8,B3,0A,00,00,00,00,00,00,
7155157,000000AA,false,Rx,0,8,B8,0A,00,00,FF,FF,04,00,
7157644,000000B6,false,Rx,0,5,3A,0A,80,00,F8,00,00,00,
7157836,0000019E,false,Rx,0,8,FF,FB,8F,00,30,F0,FF,4C,
7158119,000000CE,false,Rx,0,8,00,00,00,00,00,00,00,00,
7158223,000001A6,false,Rx,0,2,00,00,00,00,00,00,00,00,
7158423,000002B2,false,Rx,0,6,FF,FF,FF,FF,05,80,00,00,
7158705,000001A0,false,Rx,0,8,00,80,00,08,80,00,A8,53,
7159904,000000C4,false,Rx,0,7,00,80,FD,00,80,09,FF,00,
7161013,000000AE,false,Rx,0,6,BD,06,80,50,00,38,00,00,
7164511,000001D0,false,Rx,0,8,FF,FF,01,CB,00,00,FD,00,
7164703,000000A8,false,Rx,0,8,D7,0B,00,00,00,0F,0F,06,
7164986,000000A9,false,Rx,0,8,B4,0B,00,00,00,00,00,00,
7165273,000000AA,false,Rx,0,8,B9,0B,00,00,FF,FF,04,00,
7169866,000000C4,false,Rx,0,7,00,80,FD,00,80,31,FF,00,
7174646,000000A8,false,Rx,0,8,D8,0C,00,00,00,0F,0F,06,
7174928,000000A9,false,Rx,0,8,B5,0C,00,00,00,00,00,00,
7175215,000000AA,false,Rx,0,8,BA,0C,00,00,FF,FF,04,00,
7177801,000000B6,false,Rx,0,5,3B,0B,80,00,F8,00,00,00,
7177910,0000019E,false,Rx,0,8,FF,FB,8F,00,30,F0,FF,4C,
7178011,000000CE,false,Rx,0,8,00,00,00,00,00,00,00,00,
7178205,00000192,false,Rx,0,4,6A,00,80,FA,00,00,00,00,
7178405,000002B2,false,Rx,0,6,FF,FF,FF,FF,05,80,00,00,
7178687,000001A0,false,Rx,0,8,00,80,00,08,80,00,B8,63,
7179704,00000194,false,Rx,0,4,76,F8,80,FC,00,00,00,00,
7179986,000000C4,false,Rx,0,7,00,80,FD,00,80,59,FF,00,
7181096,000000AE,false,Rx,0,6,BE,07,80,50,00,38,00,00,
7184592,000000A8,false,Rx,0,8,D9,0D,00,00,00,0F,0F,06,
7184875,000000A9,false,Rx,0,8,B6,0D,00,00,00,00,00,00,
7185160,000000AA,false,Rx,0,8,BB,0D,00,00,FF,FF,04,00,
7190018,000000C4,false,Rx,0,7,00,80,FD,00,80,81,FF,00,
7194609,000000A8,false,Rx,0,8,DA,0E,00,00,00,0F,0F,06,
7194892,000000A9,false,Rx,0,8,B7,0E,00,00,00,00,00,00,
7195176,000000AA,false,Rx,0,8,BC,0E,00,00,FF,FF,04,00,
7197608,000000B6,false,Rx,0,5,3C,0C,80,00,F8,00,00,00,
7197815,0000019E,false,Rx,0,8,FF,FB,8F,00,30,F0,FF,4C,
7198158,000000CE,false,Rx,0,8,00,00,00,00,00,00,00,00,
7198260,000002B2,false,Rx,0,6,FF,FF,FF,FF,05,80,00,00,
7198549,000001A0,false,Rx,0,8,00,80,00,08,80,00,C8,73,
7198830,000004A9,false,Rx,0,8,2A,52,FF,FF,FF,FF,FF,FF,
7199845,000000C4,false,Rx,0,7,00,80,FD,00,80,A9,FF,00,
7201134,000000AE,false,Rx,0,6,BF,08,80,50,00,38,00,00,
7204623,000000A8,false,Rx,0,8,CC,00,00,00,00,0F,0F,06,
7204905,000000A9,false,Rx,0,8,A9,00,00,00,00,00,00,00,
7205188,000000AA,false,Rx,0,8,AE,00,00,00,FF,FF,04,00,
7207024,00000192,false,Rx,0,4,6A,00,80,FB,00,00,00,00,
7209866,000000C4,false,Rx,0,7,00,80,FD,00,80,D1,FF,00,
7214630,000000A8,false,Rx,0,8,CD,01,00,00,00,0F,0F,06,
7214912,000000A9,false,Rx,0,8,AA,01,00,00,00,00,00,00,
7215196,000000AA,false,Rx,0,8,AF,01,00,00,FF,FF,04,00,
7217584,000000B6,false,Rx,0,5,3D,0D,80,00,F8,00,00,00,
7217866,0000019E,false,Rx,0,8,FF,FB,8F,00,30,F0,FF,4C,
7218057,000000CE,false,Rx,0,8,00,00,00,00,00,00,00,00,
7218253,000002B2,false,Rx,0,6,FF,FF,FF,FF,05,80,00,00,
7218543,000001A0,false,Rx,0,8,00,80,00,08,80,00,D8,83,
7219829,000000C4,false,Rx,0,7,00,80,FD,00,80,F9,FF,00,
7221209,000000AE,false,Rx,0,6,C0,09,80,50,00,38,00,00,
7224600,000000A8,false,Rx,0,8,CE,02,00,00,00,0F,0F,06,
7224882,000000A9,false,Rx,0,8,AB,02,00,00,00,00,00,00,
7225178,000000AA,false,Rx,0,8,B0,02,00,00,FF,FF,04,00,
7229911,000000C4,false,Rx,0,7,00,80,FD,00,80,21,FF,00,
7234517,000005E0,false,Rx,0,8,10,00,00,01,00,FF,FF,FF,
7234800,000000A8,false,Rx,0,8,CF,03,00,00,00,0F,0F,06,
7234992,000000A9,false,Rx,0,8,AC,03,00,00,00,00,00,00,
7235277,000000AA,false,Rx,0,8,B1,03,00,00,FF,FF,04,00,
7236020,00000192,false,Rx,0,4,6A,00,80,FC,00,00,00,00,
7237517,000000B6,false,Rx,0,5,3E,0E,80,00,F8,00,00,00,
7237799,0000019E,false,Rx,0,8,FF,FB,8F,00,30,F0,FF,4C,
7237991,000000CE,false,Rx,0,8,00,00,00,00,00,00,00,00,
7238276,000002B2,false,Rx,0,6,FF,FF,FF,FF,05,80,00,00,
7238475,000001A0,false,Rx,0,8,00,80,00,08,80,00,E8,93,
7239858,000000C4,false,Rx,0,7,00,80,FD,00,80,49,FF,00,
7241150,000000AE,false,Rx,0,6,C1,0A,80,50,00,38,00,00,
7241803,00000130,false,Rx,0,5,41,43,35,3F,36,00,00,00,
7244656,000000A8,false,Rx,0,8,D0,04,00,00,00,0F,0F,06,
7244940,000000A9,false,Rx,0,8,AD,04,00,00,00,00,00,00,
7245225,000000AA,false,Rx,0,8,B2,04,00,00,FF,FF,04,00,
7249910,000000C4,false,Rx,0,7,00,80,FD,00,80,71,FF,00,
7254595,000000A8,false,Rx,0,8,D1,05,00,00,00,0F,0F,06,
7254878,000000A9,false,Rx,0,8,AE,05,00,00,00,00,00,00,
7255163,000000AA,false,Rx,0,8,B3,05,00,00,FF,FF,04,00,
7257561,000000B6,false,Rx,0,5,30,00,80,00,F8,00,00,00,
7257753,0000019E,false,Rx,0,8,FF,FB,9F,00,30,F0,FF,5C,
7258036,000000CE,false,Rx,0,8,00,00,00,00,00,00,00,00,
7258229,000001A6,false,Rx,0,2,00,00,00,00,00,00,00,00,
7258428,000002B2,false,Rx,0,6,FF,FF,FF,FF,05,80,00,00,
7258620,000001A0,false,Rx,0,8,00,80,00,08,80,00,08,B2,
7259910,000000C4,false,Rx,0,7,00,80,FD,00,80,99,FF,00,
7261203,000000AE,false,Rx,0,6,C2,0B,80,50,00,38,00,00,
7264514,000001D0,false,Rx,0,8,FF,FF,02,CB,00,00,FD,00,
7264706,000000A8,false,Rx,0,8,D2,06,00,00,00,0F,0F,06,
7264989,000000A9,false,Rx,0,8,AF,06,00,00,00,00,00,00,
7265274,000000AA,false,Rx,0,8,B4,06,00,00,FF,FF,04,00,
7265655,00000192,false,Rx,0,4,6A,00,80,FD,00,00,00,00,
7269876,000000C4,false,Rx,0,7,00,80,FD,00,80,C1,FF,00,
7274656,000000A8,false,Rx,0,8,D3,07,00,00,00,0F,0F,06,
7274939,000000A9,false,Rx,0,8,B0,07,00,00,00,00,00,00,
7275132,000000AA,false,Rx,0,8,B5,07,00,00,FF,FF,04,00,
7277620,000000B6,false,Rx,0,5,31,01,80,00,F8,00,00,00,
7277812,0000019E,false,Rx,0,8,FF,FB,9F,00,30,F0,FF,5C,
7278095,000000CE,false,Rx,0,8,00,00,00,00,00,00,00,00,
7278291,000002B2,false,Rx,0,6,FF,FF,FF,FF,05,80,00,00,
7278490,000001A0,false,Rx,0,8,00,80,00,08,80,00,18,C2,
7279914,000000C4,false,Rx,0,7,00,80,FD,00,80,E9,FF,00,
7281204,000000AE,false,Rx,0,6,C3,0C,80,50,00,38,00,00,
7284598,000000A8,false,Rx,0,8,D4,08,00,00,00,0F,0F,06,
7284880,000000A9,false,Rx,0,8,B1,08,00,00,00,00,00,00,
7285164,000000AA,false,Rx,0,8,B6,08,00,00,FF,FF,04,00,
7289835,000000C4,false,Rx,0,7,00,80,FD,00,80,11,FF,00,
7291856,000004AA,false,Rx,0,8,00,52,FF,FF,FF,FF,FF,FF,
7294237,00000192,false,Rx,0,4,6A,00,80,FE,00,00,00,00,
7294707,000000A8,false,Rx,0,8,D5,09,00,00,00,0F,0F,06,
7294899,000000A9,false,Rx,0,8,B2,09,00,00,00,00,00,00,
7295183,000000AA,false,Rx,0,8,B7,09,00,00,FF,FF,04,00,
7297571,000000B6,false,Rx,0,5,32,02,80,00,F8,00,00,00,
7297852,0000019E,false,Rx,0,8,FF,FB,9F,00,30,F0,FF,5C,
7298134,000000CE,false,Rx,0,8,00,00,00,00,00,00,00,00,
7298325,000002B2,false,Rx,0,6,FF,FF,FF,FF,05,80,00,00,
7298522,000001A0,false,Rx,0,8,00,80,00,08,80,00,28,D2,
7299920,000000C4,false,Rx,0,7,00,80,FD,00,80,39,FF,00,
7301209,000000AE,false,Rx,0,6,C4,0D,80,50,00,38,00,00,
7304599,000000A8,false,Rx,0,8,D6,0A,00,00,00,0F,0F,06,
7304882,000000A9,false,Rx,0,8,B3,0A,00,00,00,00,00,00,
7305165,000000AA,false,Rx,0,8,B8,0A,00,00,FF,FF,04,00,
7309932,000000C4,false,Rx,0,7,00,80,FD,00,80,61,FF,00,
7314600,000000A8,false,Rx,0,8,D7,0B,00,00,00,0F,0F,06,
7314882,000000A9,false,Rx,0,8,B4,0B,00,00,00,00,00,00,
7315166,000000AA,false,Rx,0,8,B9,0B,00,00,FF,FF,04,00,
7317558,000000B6,false,Rx,0,5,33,03,80,00,F8,00,00,00,
7317839,0000019E,false,Rx,0,8,FF,FB,9F,00,30,F0,FF,5C,
7318030,000000CE,false,Rx,0,8,00,00,00,00,00,00,00,00,
7318315,000002B2,false,Rx,0,6,FF,FF,FF,FF,05,80,00,00,
7318515,000001A0,false,Rx,0,8,00,80,00,08,80,00,38,E2,
7319891,000000C4,false,Rx,0,7,00,80,FD,00,80,89,FF,00,
7321273,000000AE,false,Rx,0,6,C5,0E,80,50,00,38,00,00,
7322928,00000192,false,Rx,0,4,6A,00,80,F1,00,00,00,00,
7324675,000000A8,false,Rx,0,8,D8,0C,00,00,00,0F,0F,06,
7324867,000000A9,false,Rx,0,8,B5,0C,00,00,00,00,00,00,
7325431,000000AA,false,Rx,0,8,BA,0C,00,00,FF,FF,04,00,
7330372,000000C4,false,Rx,0,7,00,80,FD,00,80,B1,FF,00,
7334604,000000A8,false,Rx,0,8,D9,0D,00,00,00,0F,0F,06,
7334887,000000A9,false,Rx,0,8,B6,0D,00,00,00,00,00,00,
7335173,000000AA,false,Rx,0,8,BB,0D,00,00,FF,FF,04,00,
7337572,000000B6,false,Rx,0,5,34,04,80,00,F8,00,00,00,
7337763,0000019E,false,Rx,0,8,FF,FB,9F,00,30,F0,FF,5C,
7338046,000000CE,false,Rx,0,8,00,00,00,00,00,00,00,00,
7338242,000002B2,false,Rx,0,6,FF,FF,FF,FF,05,80,00,00,
7338534,000001A0,false,Rx,0,8,00,80,00,08,80,00,48,F2,
7339848,000000C4,false,Rx,0,7,00,80,FD,00,80,D9,FF,00,
7341321,000000AE,false,Rx,0,6,B8,00,80,50,00,39,00,00,
7341975,00000130,false,Rx,0,5,41,43,35,3F,47,00,00,00,
7344645,000000A8,false,Rx,0,8,DA,0E,00,00,00,0F,0F,06,
7344927,000000A9,false,Rx,0,8,B7,0E,00,00,00,00,00,00,
7345215,000000AA,false,Rx,0,8,BC,0E,00,00,FF,FF,04,00,
7350084,000000C4,false,Rx,0,7,00,80,FD,00,80,01,FF,00,
7352574,00000192,false,Rx,0,4,6A,00,80,F2,00,00,00,00,
7354597,000000A8,false,Rx,0,8,CC,00,00,00,00,0F,0F,06,
7354880,000000A9,false,Rx,0,8,A9,00,00,00,00,00,00,00,
7355165,000000AA,false,Rx,0,8,AE,00,00,00,FF,FF,04,00,
7357560,000000B6,false,Rx,0,5,35,05,80,00,F8,00,00,00,
7357752,0000019E,false,Rx,0,8,FF,FB,9F,00,30,F0,FF,5C,
7358057,000000CE,false,Rx,0,8,00,00,00,00,00,00,00,00,
7358159,000001A6,false,Rx,0,2,00,00,00,00,00,00,00,00,
7358358,000002B2,false,Rx,0,6,FF,FF,FF,FF,05,80,00,00,
7358642,000001A0,false,Rx,0,8,00,80,00,08,80,00,58,03,
7359934,000000C4,false,Rx,0,7,00,80,FD,00,80,29,FF,00,
7361228,000000AE,false,Rx,0,6,B9,01,80,50,00,39,00,00,
7364452,000001D0,false,Rx,0,8,FF,FF,03,CB,00,00,FD,00,
7364734,000000A8,false,Rx,0,8,CD,01,00,00,00,0F,0F,06,
7365018,000000A9,false,Rx,0,8,AA,01,00,00,00,00,00,00,
7365302,000000AA,false,Rx,0,8,AF,01,00,00,FF,FF,04,00,
7366601,00000480,false,Rx,0,8,12,42,FF,20,00,00,02,01,
7369815,000000C4,false,Rx,0,7,00,80,FD,00,80,51,FF,00,
7374594,000000A8,false,Rx,0,8,CE,02,00,00,00,0F,0F,06,
7374877,000000A9,false,Rx,0,8,AB,02,00,00,00,00,00,00,
7375164,000000AA,false,Rx,0,8,B0,02,00,00,FF,FF,04,00,
7377652,000000B6,false,Rx,0,5,36,06,80,00,F8,00,00,00,
7377843,0000019E,false,Rx,0,8,FF,FB,9F,00,30,F0,FF,5C,
7378127,000000CE,false,Rx,0,8,00,00,00,00,00,00,00,00,
7378320,000002B2,false,Rx,0,6,FF,FF,FF,FF,05,80,00,00,
7378612,000001A0,false,Rx,0,8,00,80,00,08,80,00,68,13,
7379903,000000C4,false,Rx,0,7,00,80,FD,00,80,79,FF,00,
7381301,000000AE,false,Rx,0,6,BA,02,80,50,00,39,00,00,
7381417,00000192,false,Rx,0,4,6A,00,80,F3,00,00,00,00,
7381789,00000194,false,Rx,0,4,77,F9,80,FC,00,00,00,00,
7384636,000000A8,false,Rx,0,8,CF,03,00,00,00,0F,0F,06,
7384919,000000A9,false,Rx,0,8,AC,03,00,00,00,00,00,00,
7385203,000000AA,false,Rx,0,8,B1,03,00,00,FF,FF,04,00,
7389880,000000C4,false,Rx,0,7,00,80,FD,00,80,A1,FF,00,
7394189,000001B5,false,Rx,0,6,FF,FF,02,00,C8,FF,00,00,
7394661,000000A8,false,Rx,0,8,D0,04,00,00,00,0F,0F,06,
7394944,000000A9,false,Rx,0,8,AD,04,00,00,00,00,00,00,
7395228,000000AA,false,Rx,0,8,B2,04,00,00,FF,FF,04,00,
7397534,000000B6,false,Rx,0,5,37,07,80,00,F8,00,00,00,
7397817,0000019E,false,Rx,0,8,FF,FB,9F,00,30,F0,FF,5C,
7398099,000000CE,false,Rx,0,8,00,00,00,00,00,00,00,00,
7398293,000002B2,false,Rx,0,6,FF,FF,FF,FF,05,80,00,00,
7398493,000001A0,false,Rx,0,8,00,80,00,08,80,00,78,23,
7399871,000000C4,false,Rx,0,7,00,80,FD,00,80,C9,FF,00,
7401353,000000AE,false,Rx,0,6,BB,03,80,50,00,39,00,00,
7404656,000000A8,false,Rx,0,8,D1,05,00,00,00,0F,0F,06,
7404938,000000A9,false,Rx,0,8,AE,05,00,00,00,00,00,00,
7405412,000000AA,false,Rx,0,8,B3,05,00,00,FF,FF,04,00,
7409720,00000192,false,Rx,0,4,6A,00,80,F4,00,00,00,00,
7410189,000000C4,false,Rx,0,7,00,80,FD,00,80,F1,FF,00,
7414651,000000A8,false,Rx,0,8,D2,06,00,00,00,0F,0F,06,
7414934,000000A9,false,Rx,0,8,AF,06,00,00,00,00,00,00,
7415125,000000AA,false,Rx,0,8,B4,06,00,00,FF,FF,04,00,
7417603,000000B6,false,Rx,0,5,38,08,80,00,F8,00,00,00,
7417794,0000019E,false,Rx,0,8,FF,FB,9F,00,30,F0,FF,5C,
7418076,000000CE,false,Rx,0,8,00,00,00,00,00,00,00,00,
7418273,000002B2,false,Rx,0,6,FF,FF,FF,FF,05,80,00,00,
7418562,000001A0,false,Rx,0,8,00,80,00,08,80,00,88,33,
7419938,000000C4,false,Rx,0,7,00,80,FD,00,80,19,FF,00,
7421316,000000AE,false,Rx,0,6,BC,04,80,50,00,39,00,00,
7424623,000000A8,false,Rx,0,8,D3,07,00,00,00,0F,0F,06,
7424905,000000A9,false,Rx,0,8,B0,07,00,00,00,00,00,00,
7425189,000000AA,false,Rx,0,8,B5,07,00,00,FF,FF,04,00,
7429862,000000C4,false,Rx,0,7,00,80,FD,00,80,41,FF,00,
7434522,000005E0,false,Rx,0,8,10,00,00,02,00,FF,FF,FF,
7434721,000000A8,false,Rx,0,8,D4,08,00,00,00,0F,0F,06,
7435004,000000A9,false,Rx,0,8,B1,08,00,00,00,00,00,00,
7435292,000000AA,false,Rx,0,8,B6,08,00,00,FF,FF,04,00,
7437597,000000B6,false,Rx,0,5,39,09,80,00,F8,00,00,00,
7437790,0000019E,false,Rx,0,8,FF,FB,9F,00,30,F0,FF,5C,
7438073,000000CE,false,Rx,0,8,00,00,00,00,00,00,00,00,
7438280,000002B2,false,Rx,0,6,FF,FF,FF,FF,05,80,00,00,
7438480,000001A0,false,Rx,0,8,00,80,00,08,80,00,98,43,
7439955,000000C4,false,Rx,0,7,00,80,FD,00,80,69,FF,00,
7440056,00000192,false,Rx,0,4,6A,00,80,F5,00,00,00,00,
7441354,000000AE,false,Rx,0,6,BD,05,80,50,00,39,00,00,
7441910,00000130,false,Rx,0,5,41,43,35,3F,58,00,00,00,
7444581,000000A8,false,Rx,0,8,D5,09,00,00,00,0F,0F,06,
7444864,000000A9,false,Rx,0,8,B2,09,00,00,00,00,00,00,
7445151,000000AA,false,Rx,0,8,B7,09,00,00,FF,FF,04,00,
7449928,000000C4,false,Rx,0,7,00,80,FD,00,80,91,FF,00,
7454614,000000A8,false,Rx,0,8,D6,0A,00,00,00,0F,0F,06,
7454897,000000A9,false,Rx,0,8,B3,0A,00,00,00,00,00,00,
7455183,000000AA,false,Rx,0,8,B8,0A,00,00,FF,FF,04,00,
7456481,00000492,false,Rx,0,8,29,52,FF,01,00,00,02,01,
7457593,000000B6,false,Rx,0,5,3A,0A,80,00,F8,00,00,00,
7457785,0000019E,false,Rx,0,8,FF,FB,AF,00,30,F0,FF,6C,
7458068,000000CE,false,Rx,0,8,00,00,00,00,00,00,00,00,
7458262,000002B2,false,Rx,0,6,FF,FF,FF,FF,05,80,00,00,
7458553,000001A0,false,Rx,0,8,00,80,00,08,80,00,A8,53,
7458745,00000374,false,Rx,0,5,00,00,00,00,FC,00,00,00,
7458845,000001A6,false,Rx,0,2,00,00,00,00,00,00,00,00,
7460319,000000C4,false,Rx,0,7,00,80,FD,00,80,B9,FF,00,
7461437,000000AE,false,Rx,0,6,BE,06,80,50,00,39,00,00,
7464481,000001D0,false,Rx,0,8,FF,FF,04,CB,00,00,FD,00,
7464673,000000A8,false,Rx,0,8,D7,0B,00,00,00,0F,0F,06,
7464956,000000A9,false,Rx,0,8,B4,0B,00,00,00,00,00,00,
7465243,000000AA,false,Rx,0,8,B9,0B,00,00,FF,FF,04,00,
7469837,00000192,false,Rx,0,4,6A,00,80,F6,00,00,00,00,
7470120,000000C4,false,Rx,0,7,00,80,FD,00,80,E1,FF,00,
7474621,000000A8,false,Rx,0,8,D8,0C,00,00,00,0F,0F,06,
7474904,000000A9,false,Rx,0,8,B5,0C,00,00,00,00,00,00,
7475188,000000AA,false,Rx,0,8,BA,0C,00,00,FF,FF,04,00,
7477586,000000B6,false,Rx,0,5,3B,0B,80,00,F8,00,00,00,
7477870,0000019E,false,Rx,0,8,FF,FB,AF,00,30,F0,FF,6C,
7478062,000000CE,false,Rx,0,8,00,00,00,00,00,00,00,00,
7478256,000002B2,false,Rx,0,6,FF,FF,FF,FF,05,80,00,00,
7478546,000001A0,false,Rx,0,8,00,80,00,08,80,00,B8,63,
7479838,000000C4,false,Rx,0,7,00,80,FD,00,80,09,FF,00,
7481412,000000AE,false,Rx,0,6,BF,07,80,50,00,39,00,00,
7484636,000000A8,false,Rx,0,8,D9,0D,00,00,00,0F,0F,06,
7484928,000000A9,false,Rx,0,8,B6,0D,00,00,00,00,00,00,
7485120,000000AA,false,Rx,0,8,BB,0D,00,00,FF,FF,04,00,
7489878,000000C4,false,Rx,0,7,00,80,FD,00,80,31,FF,00,
7494649,000000A8,false,Rx,0,8,DA,0E,00,00,00,0F,0F,06,
7494931,000000A9,false,Rx,0,8,B7,0E,00,00,00,00,00,00,
7495122,000000AA,false,Rx,0,8,BC,0E,00,00,FF,FF,04,00,
7497599,000000B6,false,Rx,0,5,3C,0C,80,00,F8,00,00,00,
7497789,0000019E,false,Rx,0,8,FF,FB,AF,00,30,F0,FF,6C,
7498072,000000CE,false,Rx,0,8,00,00,00,00,00,00,00,00,
7498267,000002B2,false,Rx,0,6,FF,FF,FF,FF,05,80,00,00,
7498466,000001A0,false,Rx,0,8,00,80,00,08,80,00,C8,73,
7499571,00000192,false,Rx,0,4,6A,00,80,F7,00,00,00,00,
7499853,000000C4,false,Rx,0,7,00,80,FD,00,80,59,FF,00,
7501419,000000AE,false,Rx,0,6,C0,08,80,50,00,39,00,00,
7504630,000000A8,false,Rx,0,8,CC,00,00,00,00,0F,0F,06,
7504911,000000A9,false,Rx,0,8,A9,00,00,00,00,00,00,00,
7505195,000000AA,false,Rx,0,8,AE,00,00,00,FF,FF,04,00,
7510047,000000C4,false,Rx,0,7,00,80,FD,00,80,81,FF,00,
7514636,000000A8,false,Rx,0,8,CD,01,00,00,00,0F,0F,06,
7514918,000000A9,false,Rx,0,8,AA,01,00,00,00,00,00,00,
7515203,000000AA,false,Rx,0,8,AF,01,00,00,FF,FF,04,00,
7517611,000000B6,false,Rx,0,5,3D,0D,80,00,F8,00,00,00,
7517803,0000019E,false,Rx,0,8,FF,FB,AF,00,30,F0,FF,6C,
7518085,000000CE,false,Rx,0,8,00,00,00,00,00,00,00,00,
7518280,000002B2,false,Rx,0,6,FF,FF,FF,FF,05,80,00,00,
7518570,000001A0,false,Rx,0,8,00,80,00,08,80,00,D8,83,
7519946,000000C4,false,Rx,0,7,00,80,FD,00,80,A9,FF,00,
7521421,000000AE,false,Rx,0,6,C1,09,80,50,00,39,00,00,
7524629,000000A8,false,Rx,0,8,CE,02,00,00,00,0F,0F,06,
7524911,000000A9,false,Rx,0,8,AB,02,00,00,00,00,00,00,
7525195,000000AA,false,Rx,0,8,B0,02,00,00,FF,FF,04,00,
7527494,000001B6,false,Rx,0,7,FF,FF,3C,00,00,F8,00,00,
7529248,00000192,false,Rx,0,4,6A,00,80,F8,00,00,00,00,
7529898,000000C4,false,Rx,0,7,00,80,FD,00,80,D1,FF,00,
7534651,000000A8,false,Rx,0,8,CF,03,00,00,00,0F,0F,06,
7534849,000000A9,false,Rx,0,8,AC,03,00,00,00,00,00,00,
7535147,000000AA,false,Rx,0,8,B1,03,00,00,FF,FF,04,00,
7537633,000000B6,false,Rx,0,5,3E,0E,80,00,F8,00,00,00,
7537825,0000019E,false,Rx,0,8,FF,FB,AF,00,30,F0,FF,6C,
7538108,000000CE,false,Rx,0,8,00,00,00,00,00,00,00,00,
7538312,000002B2,false,Rx,0,6,FF,FF,FF,FF,05,80,00,00,
7538512,000001A0,false,Rx,0,8,00,80,00,08,80,00,E8,93,
7538795,000004A9,false,Rx,0,8,2A,42,FF,FF,FF,FF,FF,FF,
7539904,000000C4,false,Rx,0,7,00,80,FD,00,80,F9,FF,00,
7541476,000000AE,false,Rx,0,6,C3,0A,80,50,00,3A,00,00,
7541668,00000130,false,Rx,0,5,45,43,35,BF,29,00,00,00,
7543511,00000130,false,Rx,0,5,45,43,39,BF,7A,00,00,00,
7544619,000000A8,false,Rx,0,8,D0,04,00,00,00,0F,0F,06,
7544902,000000A9,false,Rx,0,8,AD,04,00,00,00,00,00,00,
7545188,000000AA,false,Rx,0,8,B2,04,00,00,FF,FF,04,00,
7547215,00000380,false,Rx,0,7,44,44,37,38,35,35,37,00,
7550159,000000C4,false,Rx,0,7,00,80,FD,00,80,21,FF,00,
7551458,0000023A,false,Rx,0,4,22,FF,00,FF,00,00,00,00,
7554582,000000A8,false,Rx,0,8,D1,05,00,00,00,0F,0F,06,
7554866,000000A9,false,Rx,0,8,AE,05,00,00,00,00,00,00,
7555151,000000AA,false,Rx,0,8,B3,05,00,00,FF,FF,04,00,
7557457,0000021A,false,Rx,0,3,00,20,FC,00,00,00,00,00,
7557649,000000B6,false,Rx,0,5,30,00,80,00,F8,00,00,00,
7557931,0000019E,false,Rx,0,8,FF,FB,AF,00,30,F0,FF,6C,
7558124,000000CE,false,Rx,0,8,00,00,00,00,00,00,00,00,
7558317,000000CA,false,Rx,0,2,00,01,00,00,00,00,00,00,
7558425,000001A6,false,Rx,0,2,00,00,00,00,00,00,00,00,
7558617,000002B2,false,Rx,0,6,FF,FF,FF,FF,05,00,00,00,
7558809,00000192,false,Rx,0,4,6A,00,80,F9,00,00,00,00,
7559001,000001A0,false,Rx,0,8,00,80,00,08,80,00,08,B2,
7560203,000000C4,false,Rx,0,7,00,80,FD,00,80,49,FF,00,
7561501,000000AE,false,Rx,0,6,C4,0B,80,50,00,3A,00,00,
7564450,000001D0,false,Rx,0,8,FF,FF,05,CB,00,00,FD,00,
7564643,000000A8,false,Rx,0,8,D2,06,00,00,00,0F,0F,06,
7564925,000000A9,false,Rx,0,8,AF,06,00,00,00,00,00,00,
7565210,000000AA,false,Rx,0,8,B4,06,00,00,FF,FF,04,00,
7569251,000002F8,false,Rx,0,8,FF,FF,FF,FF,FF,FF,FF,F2,
7570178,000000C4,false,Rx,0,7,00,80,FD,00,80,71,FF,00,
7570559,000001B4,false,Rx,0,8,00,10,E0,F1,02,00,85,20,
7574601,000000A8,false,Rx,0,8,D3,07,00,00,00,0F,0F,06,
7574884,000000A9,false,Rx,0,8,B0,07,00,00,00,00,00,00,
7575076,000000AA,false,Rx,0,8,B1,07,00,00,FF,FF,00,00,
7577568,000000B6,false,Rx,0,5,31,01,80,00,F8,00,00,00,
7577851,0000019E,false,Rx,0,8,FF,FB,AF,00,30,F0,FF,6C,
7578043,000000CE,false,Rx,0,8,00,00,00,00,00,00,00,00,
7578237,000000CA,false,Rx,0,2,00,02,00,00,00,00,00,00,
7578436,000002B2,false,Rx,0,6,FF,FF,FF,FF,05,00,00,00,
7578628,000001A0,false,Rx,0,8,00,80,00,08,80,00,18,C2,
7578819,000000CB,false,Rx,0,6,0B,02,00,80,3D,FE,00,00,
7580294,000000C4,false,Rx,0,7,00,80,FD,00,80,9B,FF,00,
7581311,00000194,false,Rx,0,4,78,FA,80,FC,00,00,00,00,
7581512,000000AE,false,Rx,0,6,C5,0C,80,50,00,3A,00,00,
7584556,000000A8,false,Rx,0,8,E4,08,00,00,00,1F,0F,06,
7584849,000000A9,false,Rx,0,8,B1,08,00,00,00,00,00,00,
7585133,000000AA,false,Rx,0,8,33,08,00,00,FF,FF,80,00,
7586523,000003B4,false,Rx,0,8,B5,03,00,53,FE,B1,33,16,
7587260,00000192,false,Rx,0,4,6A,00,80,FA,00,00,00,00,
7589924,000000C4,false,Rx,0,7,00,80,FD,00,80,C1,FF,00,
7591766,00000130,false,Rx,0,5,45,43,39,BF,8B,00,00,00,
7594614,000000A8,false,Rx,0,8,E5,09,00,00,00,1F,0F,06,
7594806,000000A9,false,Rx,0,8,B2,09,00,00,00,00,00,00,
7595089,000000AA,false,Rx,0,8,34,09,00,00,FF,FF,80,00,
7597579,000000B6,false,Rx,0,5,32,02,80,00,F8,00,00,00,
7597862,0000019E,false,Rx,0,8,FF,FB,AF,00,30,F0,FF,6C,
7598054,000000CE,false,Rx,0,8,00,00,00,00,00,00,00,00,
7598346,000000CA,false,Rx,0,2,00,03,00,00,00,00,00,00,
7598538,000002B2,false,Rx,0,6,FF,FF,FF,FF,05,80,00,00,
7598820,000001A0,false,Rx,0,8,00,80,00,08,80,00,28,D2,
7599011,000000CB,false,Rx,0,6,08,03,00,80,3D,FE,00,00,
7599296,000005E0,false,Rx,0,8,10,00,00,02,00,FF,FF,FF,
7600501,000000C4,false,Rx,0,7,00,80,FD,00,80,E9,FF,00,
7601790,000000AE,false,Rx,0,6,C6,0D,80,50,00,3A,00,00,
7604548,000000A8,false,Rx,0,8,E6,0A,00,00,00,1F,0F,06,
7604831,000000A9,false,Rx,0,8,B3,0A,00,00,00,00,00,00,
7605114,000000AA,false,Rx,0,8,35,0A,00,00,FF,FF,80,00,
7610159,000000C4,false,Rx,0,7,00,80,FD,00,80,11,FF,00,
7613468,00000334,false,Rx,0,3,D8,FD,45,00,00,00,00,00,
7614592,000000A8,false,Rx,0,8,E7,0B,00,00,00,1F,0F,06,
7614874,000000A9,false,Rx,0,8,B4,0B,00,00,00,00,00,00,
7615159,000000AA,false,Rx,0,8,36,0B,00,00,FF,FF,80,00,
7616083,00000192,false,Rx,0,4,6A,00,80,FB,00,00,00,00,
7617654,000000B6,false,Rx,0,5,33,03,80,00,F8,00,00,00,
7617846,0000019E,false,Rx,0,8,FF,FB,AF,00,30,F0,FF,6C,
7618130,000000CE,false,Rx,0,8,00,00,00,00,00,00,00,00,
7618231,000000CA,false,Rx,0,2,00,04,00,00,00,00,00,00,
7618431,000002B2,false,Rx,0,6,FF,FF,FF,FF,05,80,00,00,
7618714,000001A0,false,Rx,0,8,00,80,00,08,80,00,38,E2,
7618905,000000CB,false,Rx,0,6,08,04,00,80,3D,FE,00,00,
7620285,000000C4,false,Rx,0,7,00,80,FD,00,80,39,FF,00,
7621583,000000AE,false,Rx,0,6,C7,0E,80,50,00,3A,00,00,
7624614,000000A8,false,Rx,0,8,E8,0C,00,00,00,1F,0F,06,
7624897,000000A9,false,Rx,0,8,B5,0C,00,00,00,00,00,00,
7625089,000000AA,false,Rx,0,8,37,0C,00,00,FF,FF,80,00,
7629994,000000C4,false,Rx,0,7,00,80,FD,00,80,61,FF,00,
7631962,000004AA,false,Rx,0,8,00,42,FF,FF,FF,FF,FF,FF,
7635535,000000A8,false,Rx,0,8,E3,0D,00,00,00,1F,0F,00,
7635639,000000A9,false,Rx,0,8,B6,0D,00,00,00,00,00,00,
7635734,000000AA,false,Rx,0,8,38,0D,00,00,FF,FF,80,00,
7637614,000000B6,false,Rx,0,5,34,04,80,00,F8,00,00,00,
7637824,0000019E,false,Rx,0,8,FF,FB,AF,00,30,F0,FF,6C,
7638107,000000CE,false,Rx,0,8,00,00,00,00,00,00,00,00,
7638210,000000CA,false,Rx,0,2,00,05,00,00,00,00,00,00,
7638411,000002B2,false,Rx,0,6,FF,FF,FF,FF,05,80,00,00,
7638694,000001A0,false,Rx,0,8,00,80,00,08,80,00,48,F2,
7638885,000000CB,false,Rx,0,6,08,05,00,80,3D,FE,00,00,
7639916,000000C4,false,Rx,0,7,00,80,FD,00,80,89,FF,00,
7640571,00000332,false,Rx,0,2,54,82,00,00,00,00,00,00,
7641774,000000AE,false,Rx,0,6,B9,00,80,50,00,3A,00,00,
7641966,00000130,false,Rx,0,5,45,43,39,BF,9C,00,00,00,
7642349,000001D6,false,Rx,0,2,C0,00,00,00,00,00,00,00,
7644555,000000A8,false,Rx,0,8,E4,0E,00,00,00,1F,0F,00,
7644838,000000A9,false,Rx,0,8,B7,0E,00,00,00,00,00,00,
7645121,000000AA,false,Rx,0,8,84,0E,00,00,33,17,81,00,
7645777,00000192,false,Rx,0,4,6A,00,80,FC,00,00,00,00,
7649911,000000C4,false,Rx,0,7,00,80,FD,00,80,B1,FF,00,
7654413,00000592,false,Rx,0,8,40,22,00,21,FF,FF,FF,FF,
7654695,000000A8,false,Rx,0,8,D6,00,00,00,00,1F,0F,00,
7654977,000000A9,false,Rx,0,8,A9,00,00,00,00,00,00,00,
7655172,000000AA,false,Rx,0,8,B1,00,00,00,6E,17,81,00,
7657572,000000B6,false,Rx,0,5,35,05,80,00,F8,00,00,00,
7657764,0000019E,false,Rx,0,8,FF,FB,BF,00,30,F0,FF,7C,
7658047,000000CE,false,Rx,0,8,00,00,00,00,00,00,00,00,
7658151,000000CA,false,Rx,0,2,00,06,00,00,00,00,00,00,
7658351,000001A6,false,Rx,0,2,00,00,00,00,00,00,00,00,
7658542,000002B2,false,Rx,0,6,FF,FF,FF,FF,05,80,00,00,
7659006,000000CB,false,Rx,0,6,08,06,00,80,3D,FE,00,00,
