Time Stamp,ID,Extended,Dir,Bus,LEN,D1,D2,D3,D4,D5,D6,D7,D8
2793396,000000BA,false,Rx,0,7,03,FF,0F,00,00,4E,81,00,
2793606,000000B5,false,Rx,0,8,AB,02,80,00,08,00,30,3B,
2793986,000001A2,false,Rx,0,2,00,00,00,00,00,00,00,00,
2798256,000000A8,false,Rx,0,8,A8,4E,FF,83,F9,1F,0F,06,
2798544,000000A9,false,Rx,0,8,CA,0E,98,2F,1E,B2,80,F9,
2798838,000000AA,false,Rx,0,8,45,2E,1B,00,36,02,81,97,
2801797,000000AE,false,Rx,0,6,12,48,06,91,80,03,00,00,
2801990,000000C4,false,Rx,0,7,00,80,FD,00,80,8C,FF,00,
2802643,000000B6,false,Rx,0,5,36,06,80,00,F8,00,00,00,
2802752,00000192,false,Rx,0,4,6A,00,80,FA,00,00,00,00,
2803036,0000019E,false,Rx,0,8,00,69,EF,04,32,40,00,6F,
2803321,000000CE,false,Rx,0,8,00,00,00,00,00,00,00,00,
2803520,000000B5,false,Rx,0,8,AC,03,80,00,08,00,30,3B,
2803621,000000CA,false,Rx,0,2,01,29,00,00,00,00,00,00,
2803822,000002B2,false,Rx,0,6,09,09,07,07,15,00,00,00,
2804106,000001A0,false,Rx,0,8,00,B0,00,00,00,FE,6F,C0,
2804299,000000CB,false,Rx,0,6,00,29,00,00,08,00,00,00,
2808283,000000A8,false,Rx,0,8,9A,40,FF,83,F9,1F,0F,06,
2808569,000000A9,false,Rx,0,8,BC,00,98,2F,1E,B2,80,F9,
2808770,000000AA,false,Rx,0,8,37,20,1B,00,36,02,81,97,
2811174,000000C4,false,Rx,0,7,00,80,FD,00,80,B1,FF,00,
2813122,00000194,false,Rx,0,4,71,F3,80,FC,00,00,00,00,
2813316,000000B5,false,Rx,0,8,AD,04,80,00,08,00,30,3B,
2813602,000000BA,false,Rx,0,7,03,FF,0F,00,00,4F,82,00,
2813711,000001A2,false,Rx,0,2,00,00,00,00,00,00,00,00,
2818322,000000A8,false,Rx,0,8,9B,41,FF,83,F9,1F,0F,06,
2818519,000000A9,false,Rx,0,8,BD,01,98,2F,1E,B2,80,F9,
2818812,000000AA,false,Rx,0,8,38,21,1B,00,36,02,81,97,
2821677,000000C4,false,Rx,0,7,00,80,FD,00,80,DB,FF,00,
2821878,000000AE,false,Rx,0,6,13,49,06,91,80,03,00,00,
2822730,000000B6,false,Rx,0,5,37,07,80,00,F8,00,00,00,
2822924,0000019E,false,Rx,0,8,00,69,EF,04,32,40,00,6F,
2823208,000000CE,false,Rx,0,8,00,00,00,00,00,00,00,00,
2823402,000000B5,false,Rx,0,8,AE,05,80,00,08,00,30,3B,
2823596,000000CA,false,Rx,0,2,00,2A,00,00,00,00,00,00,
2823796,000002B2,false,Rx,0,6,09,09,07,07,05,00,00,00,
2823990,000001A0,false,Rx,0,8,00,B0,FF,0F,00,FE,7F,DF,
2824183,000000CB,false,Rx,0,6,03,2A,82,00,08,00,00,00,
2828254,000000A8,false,Rx,0,8,9C,42,FF,83,F9,1F,0F,06,
2828542,000000A9,false,Rx,0,8,BE,02,98,2F,1E,B2,80,F9,
2828834,000000AA,false,Rx,0,8,39,22,1B,00,36,02,81,97,
2831057,000000C4,false,Rx,0,7,00,80,FD,00,80,01,FF,00,
2832629,00000192,false,Rx,0,4,6A,00,80,FB,00,00,00,00,
2833196,000000BA,false,Rx,0,7,03,FF,0F,00,00,50,83,00,
2833388,000000B5,false,Rx,0,8,AF,06,80,00,08,00,30,3B,
2833584,000001A2,false,Rx,0,2,00,00,00,00,00,00,00,00,
2835532,00000334,false,Rx,0,3,D8,FC,42,00,00,00,00,00,
2838310,000000A8,false,Rx,0,8,9D,43,FF,83,F9,1F,0F,06,
2838505,000000A9,false,Rx,0,8,BF,03,98,2F,1E,B2,80,F9,
2838799,000000AA,false,Rx,0,8,3A,23,1B,00,36,02,81,97,
2840932,000000C4,false,Rx,0,7,00,80,FD,00,80,29,FF,00,
2841866,000000AE,false,Rx,0,6,15,4A,06,91,80,04,00,00,
2842710,000000B6,false,Rx,0,5,38,08,80,00,F8,00,00,00,
2843737,0000019E,false,Rx,0,8,00,69,EF,04,32,40,00,6F,
2843843,000000CE,false,Rx,0,8,00,00,00,00,00,00,00,00,
2843943,000000B5,false,Rx,0,8,B0,07,80,00,08,00,30,3B,
2844058,000000CA,false,Rx,0,2,01,2B,00,00,00,00,00,00,
2844159,000000CB,false,Rx,0,6,00,2B,01,00,08,00,00,00,
2844261,00000200,false,Rx,0,8,00,80,FC,02,00,00,00,00,
2844453,000002B2,false,Rx,0,6,09,09,07,07,05,00,00,00,
2844748,000001A0,false,Rx,0,8,00,B0,FF,0F,00,FE,8F,EF,
2848245,000000A8,false,Rx,0,8,9E,44,FF,83,F9,1F,0F,06,
2848532,000000A9,false,Rx,0,8,C0,04,98,2F,1E,B2,80,F9,
2848824,000000AA,false,Rx,0,8,3B,24,1B,00,36,02,81,97,
2850947,000000C4,false,Rx,0,7,00,80,FD,00,80,51,FF,00,
2853341,000000BA,false,Rx,0,7,03,FF,0F,00,00,51,84,00,
2853628,000000B5,false,Rx,0,8,B1,08,80,00,08,00,30,3B,
2853737,000001A2,false,Rx,0,2,00,00,00,00,00,00,00,00,
2858246,000000A8,false,Rx,0,8,9F,45,FF,83,F9,1F,0F,06,
2858532,000000A9,false,Rx,0,8,C1,05,98,2F,1E,B2,80,F9,
2858823,000000AA,false,Rx,0,8,3C,25,1B,00,36,02,81,97,
2860957,000000C4,false,Rx,0,7,00,80,FD,00,80,79,FF,00,
2861697,00000192,false,Rx,0,4,6A,00,80,FC,00,00,00,00,
2861898,000000AE,false,Rx,0,6,16,4B,06,91,80,04,00,00,
2862638,000000B6,false,Rx,0,5,39,09,80,00,F8,00,00,00,
2862839,0000019E,false,Rx,0,8,00,69,EF,04,32,40,00,6F,
2863123,000000CE,false,Rx,0,8,00,00,00,00,00,00,00,00,
2863406,000000B5,false,Rx,0,8,B2,09,80,00,08,00,30,3B,
2863510,000000CA,false,Rx,0,2,00,2C,00,00,00,00,00,00,
2863710,000002B2,false,Rx,0,6,09,09,07,07,15,00,00,00,
2863903,000001A0,false,Rx,0,8,00,B0,00,00,00,FE,9F,F0,
2864115,000000CB,false,Rx,0,6,01,2C,80,FF,08,00,00,00,
2864408,00000492,false,Rx,0,8,18,42,FF,01,00,00,02,04,
2866005,000001D6,false,Rx,0,2,C0,00,00,00,00,00,00,00,
2868129,000001D0,false,Rx,0,8,FF,3F,62,CB,36,00,FD,C8,
2868322,000000A8,false,Rx,0,8,A0,46,FF,83,F9,1F,0F,06,
2868609,000000A9,false,Rx,0,8,C2,06,98,2F,1E,B2,80,F9,
2868900,000000AA,false,Rx,0,8,3D,26,1B,00,36,02,81,97,
2871575,000000C4,false,Rx,0,7,00,80,FD,00,80,A2,FF,00,
2873240,000000BA,false,Rx,0,7,03,FF,0F,00,00,52,85,00,
2873432,000000B5,false,Rx,0,8,B3,0A,80,00,08,00,30,3B,
2873628,000001A2,false,Rx,0,2,00,00,00,00,00,00,00,00,
2878235,000000A8,false,Rx,0,8,A1,47,FF,83,F9,1F,0F,06,
2878521,000000A9,false,Rx,0,8,C3,07,98,2F,1E,B2,80,F9,
2878813,000000AA,false,Rx,0,8,3E,27,1B,00,36,02,81,97,
2880937,000000C4,false,Rx,0,7,00,80,FD,00,80,C9,FF,00,
2881866,000000AE,false,Rx,0,6,17,4C,06,91,80,04,00,00,
2882697,000000B6,false,Rx,0,5,3A,0A,80,00,F8,00,00,00,
2882897,0000019E,false,Rx,0,8,00,69,EF,04,32,40,00,6F,
2883181,000000CE,false,Rx,0,8,00,00,00,00,00,00,00,00,
2883374,000000B5,false,Rx,0,8,B4,0B,80,00,08,00,30,3B,
2883569,000000CA,false,Rx,0,2,01,2D,00,00,00,00,00,00,
2883670,000001A6,false,Rx,0,2,00,00,00,00,00,00,00,00,
2883870,000002B2,false,Rx,0,6,09,09,07,07,15,00,00,00,
2884063,000000CB,false,Rx,0,6,00,2D,FF,FF,08,00,00,00,
2884347,000001A0,false,Rx,0,8,00,B0,FF,0F,00,FE,AF,10,
2887123,00000130,false,Rx,0,5,45,43,39,BF,CE,00,00,00,
2888235,000000A8,false,Rx,0,8,A2,48,FF,83,F9,1F,0F,06,
2888521,000000A9,false,Rx,0,8,C4,08,98,2F,1E,B2,80,F9,
2888813,000000AA,false,Rx,0,8,3F,28,1B,00,36,02,81,97,
2889744,000001B4,false,Rx,0,8,00,10,E2,F6,55,02,8A,81,
2890026,00000192,false,Rx,0,4,6A,00,80,FD,00,00,00,00,
2891138,000000C4,false,Rx,0,7,00,80,FD,00,80,F1,FF,00,
2893536,000000B5,false,Rx,0,8,B5,0C,80,00,08,00,30,3B,
2894603,000000BA,false,Rx,0,7,03,FF,0F,00,00,53,86,00,
2894718,000001A2,false,Rx,0,2,00,00,00,00,00,00,00,00,
2898257,000000A8,false,Rx,0,8,A3,49,FF,83,F9,1F,0F,06,
2898545,000000A9,false,Rx,0,8,C5,09,98,2F,1E,B2,80,F9,
2898837,000000AA,false,Rx,0,8,40,29,1B,00,36,02,81,97,
2901708,000000C4,false,Rx,0,7,00,80,FD,00,80,1B,FF,00,
2901901,000000AE,false,Rx,0,6,18,4D,06,91,80,04,00,00,
2902644,000000B6,false,Rx,0,5,3B,0B,80,00,F8,00,00,00,
2902937,0000019E,false,Rx,0,8,00,69,EF,04,32,40,00,6F,
2903130,000000CE,false,Rx,0,8,00,00,00,00,00,00,00,00,
2903416,000000B5,false,Rx,0,8,B6,0D,80,00,08,00,30,3B,
2903520,000000CA,false,Rx,0,2,00,2E,00,00,00,00,00,00,
2903721,000002B2,false,Rx,0,6,09,09,07,07,F5,FF,00,00,
2904005,000001A0,false,Rx,0,8,00,B0,FF,0F,00,FE,BF,20,
2904198,000000CB,false,Rx,0,6,03,2E,82,00,08,00,00,00,
2908283,000000A8,false,Rx,0,8,A4,4A,FF,83,F9,1F,0F,06,
2908570,000000A9,false,Rx,0,8,C6,0A,98,2F,1E,B2,80,F9,
2908771,000000AA,false,Rx,0,8,41,2A,1B,00,36,02,81,97,
2910991,000000C4,false,Rx,0,7,00,80,FD,00,80,41,FF,00,
2913304,000000BA,false,Rx,0,7,03,FF,0F,00,00,54,87,00,
2913591,000000B5,false,Rx,0,8,B7,0E,80,00,08,00,30,3B,
2913692,000001A2,false,Rx,0,2,00,00,00,00,00,00,00,00,
2918317,000000A8,false,Rx,0,8,A5,4B,FF,83,F9,1F,0F,06,
2918514,000000A9,false,Rx,0,8,C7,0B,98,2F,1E,B2,80,F9,
2918806,000000AA,false,Rx,0,8,42,2B,1B,00,36,02,81,97,
2919833,00000192,false,Rx,0,4,6A,00,80,FE,00,00,00,00,
2921131,000000C4,false,Rx,0,7,00,80,FD,00,80,69,FF,00,
2921881,000000AE,false,Rx,0,6,19,4E,06,91,80,04,00,00,
2922636,000000B6,false,Rx,0,5,3C,0C,80,00,F8,00,00,00,
2922837,0000019E,false,Rx,0,8,00,69,EF,04,32,40,00,6F,
2923122,000000CE,false,Rx,0,8,00,00,00,00,00,00,00,00,
2923315,000000B5,false,Rx,0,8,A9,00,80,00,08,00,30,3B,
2923510,000000CA,false,Rx,0,2,01,2F,00,00,00,00,00,00,
2923710,000002B2,false,Rx,0,6,09,09,07,07,F5,FF,00,00,
2923903,000001A0,false,Rx,0,8,00,B0,00,00,00,FE,CF,21,
2924096,000000CB,false,Rx,0,6,00,2F,00,00,08,00,00,00,
2928256,000000A8,false,Rx,0,8,A6,4C,FF,83,F9,1F,0F,06,
2928545,000000A9,false,Rx,0,8,C8,0C,98,2F,1E,B2,80,F9,
2928837,000000AA,false,Rx,0,8,43,2C,1B,00,36,02,81,97,
2931609,000000C4,false,Rx,0,7,00,80,FD,00,80,93,FF,00,
2933374,000000BA,false,Rx,0,7,03,FF,0F,00,00,55,88,00,
2933570,000000B5,false,Rx,0,8,AA,01,80,00,08,00,30,3B,
2933771,000001A2,false,Rx,0,2,00,00,00,00,00,00,00,00,
2938573,000000A8,false,Rx,0,8,A7,4D,FF,83,F9,1F,0F,06,
2938866,000000A9,false,Rx,0,8,C9,0D,98,2F,1E,B2,80,F9,
2939150,000000AA,false,Rx,0,8,44,2D,1B,00,36,02,81,97,
2940918,000000C4,false,Rx,0,7,00,80,FD,00,80,B9,FF,00,
2941850,000000AE,false,Rx,0,6,0B,40,06,91,80,04,00,00,
2942685,000000B6,false,Rx,0,5,3D,0D,80,00,F8,00,00,00,
2942886,0000019E,false,Rx,0,8,00,69,EF,04,32,40,00,6F,
2943172,000000CE,false,Rx,0,8,00,00,00,00,00,00,00,00,
2943365,000000B5,false,Rx,0,8,AB,02,80,00,08,00,30,3B,
2943559,000000CA,false,Rx,0,2,00,30,00,00,00,00,00,00,
2943760,000002B2,false,Rx,0,6,09,09,07,07,05,00,00,00,
2943954,000001A0,false,Rx,0,8,00,B0,FF,0F,00,FE,DF,40,
2944147,000000CB,false,Rx,0,6,01,30,81,FF,08,00,00,00,
140324,000000A8,false,Rx,0,8,A8,4E,FF,83,F9,1F,0F,06,
140526,000000A9,false,Rx,0,8,CA,0E,98,2F,1E,B2,80,F9,
140818,000000AA,false,Rx,0,8,45,2E,1B,00,36,02,81,97,
141840,00000192,false,Rx,0,4,6A,00,80,F1,00,00,00,00,
143225,000000C4,false,Rx,0,7,00,80,FD,00,80,E1,FF,00,
145366,000000BA,false,Rx,0,7,03,FF,0F,00,00,56,89,00,
145563,000000B5,false,Rx,0,8,AC,03,80,00,08,00,30,3B,
145764,000001A2,false,Rx,0,2,00,00,00,00,00,00,00,00,
150274,000000A8,false,Rx,0,8,9A,40,FF,83,F9,1F,0F,06,
150563,000000A9,false,Rx,0,8,BC,00,98,2F,1E,B2,80,F9,
150763,000000AA,false,Rx,0,8,37,20,1B,00,36,02,81,97,
153618,000000C4,false,Rx,0,7,00,80,FD,00,80,0B,FF,00,
154000,000000AE,false,Rx,0,6,0C,41,06,91,80,04,00,00,
154650,000000B6,false,Rx,0,5,3E,0E,80,00,F8,00,00,00,
154941,0000019E,false,Rx,0,8,00,69,EF,04,32,40,00,6F,
155134,000000CE,false,Rx,0,8,00,00,00,00,00,00,00,00,
155418,000000B5,false,Rx,0,8,AD,04,80,00,08,00,30,3B,
155521,000000CA,false,Rx,0,2,01,31,00,00,00,00,00,00,
155721,000002B2,false,Rx,0,6,09,09,07,07,05,00,00,00,
156005,000001A0,false,Rx,0,8,00,B0,00,00,00,FE,EF,41,
156198,000000CB,false,Rx,0,6,00,31,00,00,08,00,00,00,
156481,00000498,false,Rx,0,8,29,42,FF,FF,FF,FF,FF,FF,
160112,000001D0,false,Rx,0,8,FF,3F,63,CB,36,00,FD,C8,
160304,000000A8,false,Rx,0,8,9B,41,FF,83,F9,1F,0F,06,
160590,000000A9,false,Rx,0,8,BD,01,98,2F,1E,B2,80,F9,
160894,000000AA,false,Rx,0,8,38,21,1B,00,36,02,81,97,
162930,000000C4,false,Rx,0,7,00,80,FD,00,80,31,FF,00,
165417,000000BA,false,Rx,0,7,03,FF,0F,00,00,57,8A,00,
165612,000000B5,false,Rx,0,8,AE,05,80,00,08,00,30,3B,
165722,000001A2,false,Rx,0,2,00,00,00,00,00,00,00,00,
170316,000000A8,false,Rx,0,8,9C,42,FF,83,F9,1F,0F,06,
170515,000000A9,false,Rx,0,8,BE,02,98,2F,1E,B2,80,F9,
170807,000000AA,false,Rx,0,8,39,22,1B,00,36,02,81,97,
171742,00000192,false,Rx,0,4,6A,00,80,F2,00,00,00,00,
173590,000000C4,false,Rx,0,7,00,80,FD,00,80,5A,FF,00,
173974,000000AE,false,Rx,0,6,0D,42,06,91,80,04,00,00,
174725,000000B6,false,Rx,0,5,30,00,80,00,F8,00,00,00,
174919,0000019E,false,Rx,0,8,00,69,0F,04,32,40,00,8E,
175204,000000CE,false,Rx,0,8,00,00,00,00,00,00,00,00,
175306,000000CA,false,Rx,0,2,00,32,00,00,00,00,00,00,
175499,000001D2,false,Rx,0,5,E1,0C,8F,1D,F0,00,00,00,
175693,000000B5,false,Rx,0,8,AF,06,80,00,08,00,30,3B,
175983,000000CB,false,Rx,0,6,03,32,81,00,08,00,00,00,
176177,000002B2,false,Rx,0,6,09,09,07,07,05,00,00,00,
176370,000001A0,false,Rx,0,8,00,B0,FF,0F,00,FE,0F,6F,
176566,00000374,false,Rx,0,5,80,80,80,80,FC,00,00,00,
176667,000001A6,false,Rx,0,2,00,00,00,00,00,00,00,00,
178428,00000130,false,Rx,0,5,45,43,39,BF,D0,00,00,00,
180284,000000A8,false,Rx,0,8,9D,43,FF,83,F9,1F,0F,06,
180572,000000A9,false,Rx,0,8,BF,03,98,2F,1E,B2,80,F9,
180774,000000AA,false,Rx,0,8,3A,23,1B,00,36,02,81,97,
181058,000001B4,false,Rx,0,8,00,10,E2,F7,55,02,8A,82,
183097,000000C4,false,Rx,0,7,00,80,FD,00,80,81,FF,00,
185318,000000BA,false,Rx,0,7,03,FF,0F,00,00,58,8B,00,
185606,000000B5,false,Rx,0,8,B0,07,80,00,08,00,30,3B,
185715,000001A2,false,Rx,0,2,00,00,00,00,00,00,00,00,
190282,000000A8,false,Rx,0,8,9E,44,FF,83,F9,1F,0F,06,
190573,000000A9,false,Rx,0,8,C0,04,98,2F,1E,B2,80,F9,
190774,000000AA,false,Rx,0,8,3B,24,1B,00,36,02,81,97,
192897,000000C4,false,Rx,0,7,00,80,FD,00,80,A9,FF,00,
194009,000000AE,false,Rx,0,6,0E,43,06,91,80,04,00,00,
194661,000000B6,false,Rx,0,5,31,01,80,00,F8,00,00,00,
194862,0000019E,false,Rx,0,8,00,69,0F,04,32,40,00,8E,
195145,000000CE,false,Rx,0,8,00,00,00,00,00,00,00,00,
195429,000000B5,false,Rx,0,8,B1,08,80,00,08,00,30,3B,
195533,000000CA,false,Rx,0,2,01,33,00,00,00,00,00,00,
195733,000002B2,false,Rx,0,6,09,09,07,07,05,00,00,00,
195926,000001A0,false,Rx,0,8,00,B0,FF,0F,00,FE,1F,7F,
196210,000000CB,false,Rx,0,6,00,33,01,00,08,00,00,00,
200279,000000A8,false,Rx,0,8,9F,45,FF,83,F9,1F,0F,06,
200565,000000A9,false,Rx,0,8,C1,05,98,2F,1E,B2,80,F9,
200765,000000AA,false,Rx,0,8,3C,25,1B,00,36,02,81,97,
202057,00000192,false,Rx,0,4,6A,00,80,F3,00,00,00,00,
202988,000000C4,false,Rx,0,7,00,80,FD,00,80,D1,FF,00,
205385,000000BA,false,Rx,0,7,03,FF,0F,00,00,59,8C,00,
205668,000000B5,false,Rx,0,8,B2,09,80,00,08,00,30,3B,
205777,000001A2,false,Rx,0,2,00,00,00,00,00,00,00,00,
207813,00000194,false,Rx,0,4,72,F4,80,FC,00,00,00,00,
210300,000000A8,false,Rx,0,8,A0,46,FF,83,F9,1F,0F,06,
210493,000000A9,false,Rx,0,8,C2,06,98,2F,1E,B2,80,F9,
210785,000000AA,false,Rx,0,8,3D,26,1B,00,36,02,81,97,
212910,000000C4,false,Rx,0,7,00,80,FD,00,80,F9,FF,00,
214211,000000AE,false,Rx,0,6,0F,44,06,91,80,04,00,00,
214681,000000B6,false,Rx,0,5,32,02,80,00,F8,00,00,00,
214882,0000019E,false,Rx,0,8,00,69,0F,04,32,40,00,8E,
215165,000000CE,false,Rx,0,8,00,00,00,00,00,00,00,00,
215358,000000B5,false,Rx,0,8,B3,0A,80,00,08,00,30,3B,
215459,000000CA,false,Rx,0,2,00,34,00,00,00,00,00,00,
215655,000002B2,false,Rx,0,6,09,09,07,07,15,00,00,00,
215946,000001A0,false,Rx,0,8,00,B0,00,00,00,FE,2F,80,
216139,000000CB,false,Rx,0,6,01,34,80,FF,08,00,00,00,
220288,000000A8,false,Rx,0,8,A1,47,FF,83,F9,1F,0F,06,
220572,000000A9,false,Rx,0,8,C3,07,98,2F,1E,B2,80,F9,
220773,000000AA,false,Rx,0,8,3E,27,1B,00,36,02,81,97,
222896,000000C4,false,Rx,0,7,00,80,FD,00,80,21,FF,00,
225294,000000BA,false,Rx,0,7,03,FF,0F,00,00,5A,8D,00,
225579,000000B5,false,Rx,0,8,B4,0B,80,00,08,00,30,3B,
225680,000001A2,false,Rx,0,2,00,00,00,00,00,00,00,00,
230294,000000A8,false,Rx,0,8,A2,48,FF,83,F9,1F,0F,06,
230486,000000A9,false,Rx,0,8,C4,08,98,2F,1E,B2,80,F9,
230780,000000AA,false,Rx,0,8,3F,28,1B,00,36,02,81,97,
231983,00000192,false,Rx,0,4,6A,00,80,F4,00,00,00,00,
232916,000000C4,false,Rx,0,7,00,80,FD,00,80,49,FF,00,
234029,000000AE,false,Rx,0,6,11,45,06,91,80,05,00,00,
234682,000000B6,false,Rx,0,5,33,03,80,00,F8,00,00,00,
234882,0000019E,false,Rx,0,8,00,69,0F,04,32,40,00,8E,
235166,000000CE,false,Rx,0,8,00,00,00,00,00,00,00,00,
235358,000000B5,false,Rx,0,8,B5,0C,80,00,08,00,30,3B,
235459,000000CA,false,Rx,0,2,01,35,00,00,00,00,00,00,
235654,000002B2,false,Rx,0,6,09,09,07,07,15,00,00,00,
235946,000001A0,false,Rx,0,8,00,B0,FF,0F,00,FE,3F,9F,
236138,000000CB,false,Rx,0,6,00,35,01,00,08,00,00,00,
236421,00000200,false,Rx,0,8,00,80,FC,03,00,00,00,00,
240344,000000A8,false,Rx,0,8,A3,49,FF,83,F9,1F,0F,06,
240558,000000A9,false,Rx,0,8,C5,09,98,2F,1E,B2,80,F9,
240759,000000AA,false,Rx,0,8,3D,29,1B,00,33,02,81,97,
242981,000000C4,false,Rx,0,7,00,80,FD,00,80,71,FF,00,
245479,000000B5,false,Rx,0,8,B6,0D,80,00,08,00,30,3B,
245775,000000BA,false,Rx,0,7,03,FF,0F,00,00,5B,8E,00,
245876,000001A2,false,Rx,0,2,00,00,00,00,00,00,00,00,
250311,000000A8,false,Rx,0,8,A4,4A,FF,83,F9,1F,0F,06,
250508,000000A9,false,Rx,0,8,C6,0A,98,2F,1E,B2,80,F9,
250801,000000AA,false,Rx,0,8,3E,2A,1B,00,33,02,81,97,
252932,000000C4,false,Rx,0,7,00,80,FD,00,80,99,FF,00,
254048,000000AE,false,Rx,0,6,12,46,06,91,80,05,00,00,
254800,000000B6,false,Rx,0,5,34,04,80,00,F8,00,00,00,
255084,0000019E,false,Rx,0,8,00,69,0F,04,32,40,00,8E,
255278,000000CE,false,Rx,0,8,00,00,00,00,00,00,00,00,
255565,000000B5,false,Rx,0,8,B7,0E,80,00,08,00,30,3B,
255667,000000CA,false,Rx,0,2,00,36,00,00,00,00,00,00,
255867,000002B2,false,Rx,0,6,09,09,07,07,15,00,00,00,
256151,000001A0,false,Rx,0,8,00,B0,FF,0F,00,FE,4F,AF,
256345,000000CB,false,Rx,0,6,03,36,82,00,08,00,00,00,
256540,000004A9,false,Rx,0,8,2A,42,FF,FF,FF,FF,FF,FF,
260058,000001D0,false,Rx,0,8,FF,3F,64,CB,36,00,FD,C8,
260343,000000A8,false,Rx,0,8,A5,4B,FF,83,F9,1F,0F,06,
260630,000000A9,false,Rx,0,8,C7,0B,98,2F,1E,B2,80,F9,
260831,000000AA,false,Rx,0,8,3F,2B,1B,00,33,02,81,97,
261040,00000192,false,Rx,0,4,6A,00,80,F5,00,00,00,00,
262922,000000C4,false,Rx,0,7,00,80,FD,00,80,C1,FF,00,
265514,000000BA,false,Rx,0,7,03,FF,0F,00,00,4D,80,00,
265715,000000B5,false,Rx,0,8,A9,00,80,00,08,00,30,3B,
265817,000001A2,false,Rx,0,2,00,00,00,00,00,00,00,00,
270252,000000A8,false,Rx,0,8,A6,4C,FF,83,F9,1F,0F,06,
270539,000000A9,false,Rx,0,8,C8,0C,98,2F,1E,B2,80,F9,
270830,000000AA,false,Rx,0,8,40,2C,1B,00,33,02,81,97,
272964,000000C4,false,Rx,0,7,00,80,FD,00,80,E9,FF,00,
274081,000000AE,false,Rx,0,6,13,47,06,91,80,05,00,00,
274643,000000B6,false,Rx,0,5,35,05,80,00,F8,00,00,00,
274752,000001A6,false,Rx,0,2,00,00,00,00,00,00,00,00,
275037,0000019E,false,Rx,0,8,00,69,0F,04,32,40,00,8E,
275231,000000CE,false,Rx,0,8,00,00,00,00,00,00,00,00,
275422,000000CA,false,Rx,0,2,01,37,00,00,00,00,00,00,
275618,000002B2,false,Rx,0,6,09,09,07,07,15,00,00,00,
275819,000001A0,false,Rx,0,8,00,B0,00,00,00,FE,5F,B0,
276103,000000B5,false,Rx,0,8,AA,01,80,00,08,00,30,3B,
276297,000000CB,false,Rx,0,6,00,37,01,00,08,00,00,00,
278062,00000130,false,Rx,0,5,45,43,39,BF,E1,00,00,00,
280285,000000A8,false,Rx,0,8,A7,4D,FF,83,F9,1F,0F,06,
280572,000000A9,false,Rx,0,8,C9,0D,98,2F,1E,B2,80,F9,
280773,000001B4,false,Rx,0,8,00,10,E2,F8,55,02,8A,83,
280966,000000AA,false,Rx,0,8,41,2D,1B,00,33,02,81,97,
282914,000000C4,false,Rx,0,7,00,80,FD,00,80,11,FF,00,
285318,000000BA,false,Rx,0,7,03,FF,0F,00,00,4E,81,00,
285606,000000B5,false,Rx,0,8,AB,02,80,00,08,00,30,3B,
285715,000001A2,false,Rx,0,2,00,00,00,00,00,00,00,00,
290041,00000192,false,Rx,0,4,6A,00,80,F6,00,00,00,00,
290359,000000A8,false,Rx,0,8,A8,4E,FF,83,F9,1F,0F,06,
290553,000000A9,false,Rx,0,8,CA,0E,98,2F,1E,B2,80,F9,
290845,000000AA,false,Rx,0,8,42,2E,1B,00,33,02,81,97,
292967,000000C4,false,Rx,0,7,00,80,FD,00,80,39,FF,00,
294079,000000AE,false,Rx,0,6,14,48,06,91,80,05,00,00,
294735,000000B6,false,Rx,0,5,36,06,80,00,F8,00,00,00,
294928,0000019E,false,Rx,0,8,00,69,0F,04,32,40,00,8E,
295211,000000CE,false,Rx,0,8,00,00,00,00,00,00,00,00,
295404,000000B5,false,Rx,0,8,AC,03,80,00,08,00,30,3B,
295508,000000CA,false,Rx,0,2,00,38,00,00,00,00,00,00,
295699,000002B2,false,Rx,0,6,09,09,07,07,15,00,00,00,
295990,000001A0,false,Rx,0,8,00,B0,FF,0F,00,FE,6F,CF,
296183,000000CB,false,Rx,0,6,01,38,80,FF,08,00,00,00,
300250,000000A8,false,Rx,0,8,9A,40,FF,83,F9,1F,0F,06,
300538,000000A9,false,Rx,0,8,BC,00,98,2F,1E,B2,80,F9,
300830,000000AA,false,Rx,0,8,34,20,1B,00,33,02,81,97,
302964,000000C4,false,Rx,0,7,00,80,FD,00,80,61,FF,00,
305270,000000BA,false,Rx,0,7,03,FF,0F,00,00,4F,82,00,
305463,000000B5,false,Rx,0,8,AD,04,80,00,08,00,30,3B,
305756,000001A2,false,Rx,0,2,00,00,00,00,00,00,00,00,
310268,000000A8,false,Rx,0,8,9B,41,FF,83,F9,1F,0F,06,
310553,000000A9,false,Rx,0,8,BD,01,98,2F,1E,B2,80,F9,
310753,000000AA,false,Rx,0,8,35,21,1B,00,33,02,81,97,
313148,000000C4,false,Rx,0,7,00,80,FD,00,80,89,FF,00,
314183,000000AE,false,Rx,0,6,15,49,06,91,80,05,00,00,
314650,000000B6,false,Rx,0,5,37,07,80,00,F8,00,00,00,
314850,0000019E,false,Rx,0,8,00,69,0F,04,32,40,00,8E,
315134,000000CE,false,Rx,0,8,00,00,00,00,00,00,00,00,
315327,000000B5,false,Rx,0,8,AE,05,80,00,08,00,30,3B,
315521,000000CA,false,Rx,0,2,01,39,00,00,00,00,00,00,
315721,000002B2,false,Rx,0,6,09,09,07,07,15,00,00,00,
315913,000001A0,false,Rx,0,8,00,B0,00,00,00,FE,7F,D0,
316195,000000CB,false,Rx,0,6,00,39,00,00,08,00,00,00,
319057,00000192,false,Rx,0,4,6A,00,80,F7,00,00,00,00,
320261,000000A8,false,Rx,0,8,9C,42,FF,83,F9,1F,0F,06,
320548,000000A9,false,Rx,0,8,BE,02,98,2F,1E,B2,80,F9,
320748,000000AA,false,Rx,0,8,36,22,1B,00,33,02,81,97,
322962,000000C4,false,Rx,0,7,00,80,FD,00,80,B1,FF,00,
325449,000000BA,false,Rx,0,7,03,FF,0F,00,00,50,83,00,
325644,000000B5,false,Rx,0,8,AF,06,80,00,08,00,30,3B,
325754,000001A2,false,Rx,0,2,00,00,00,00,00,00,00,00,
330261,000000A8,false,Rx,0,8,9D,43,FF,83,F9,1F,0F,06,
330547,000000A9,false,Rx,0,8,BF,03,98,2F,1E,B2,80,F9,
330838,000000AA,false,Rx,0,8,37,23,1B,00,33,02,81,97,
332963,000000C4,false,Rx,0,7,00,80,FD,00,80,D9,FF,00,
334257,000000AE,false,Rx,0,6,16,4A,06,91,80,05,00,00,
334635,000000B6,false,Rx,0,5,38,08,80,00,F8,00,00,00,
334927,0000019E,false,Rx,0,8,00,69,0F,04,32,40,00,8E,
335120,000000CE,false,Rx,0,8,00,00,00,00,00,00,00,00,
335404,000000B5,false,Rx,0,8,B0,07,80,00,08,00,30,3B,
335508,000000CA,false,Rx,0,2,00,3A,00,00,00,00,00,00,
335707,000002B2,false,Rx,0,6,09,09,07,07,05,00,00,00,
335991,000001A0,false,Rx,0,8,00,B0,FF,0F,00,FE,8F,EF,
336275,000000CB,false,Rx,0,6,03,3A,81,00,09,00,00,00,
340844,000000A8,false,Rx,0,8,9E,44,FF,83,F9,1F,0F,06,
340954,000000A9,false,Rx,0,8,C0,04,98,2F,1E,B2,80,F9,
341061,000000AA,false,Rx,0,8,38,24,1B,00,33,02,81,97,
343105,000000C4,false,Rx,0,7,00,80,FD,00,80,01,FF,00,
344781,000004AA,false,Rx,0,8,00,42,FF,FF,FF,FF,FF,FF,
345340,000000BA,false,Rx,0,7,03,FF,0F,00,00,51,84,00,
345535,000000B5,false,Rx,0,8,B1,08,80,00,08,00,30,3B,
345736,000001A2,false,Rx,0,2,00,00,00,00,00,00,00,00,
348879,00000192,false,Rx,0,4,6A,00,80,F8,00,00,00,00,
350271,000000A8,false,Rx,0,8,9F,45,FF,83,F9,1F,0F,06,
350748,000000A9,false,Rx,0,8,C1,05,98,2F,1E,B2,80,F9,
351033,000000AA,false,Rx,0,8,3C,25,1B,00,36,02,81,97,
352891,000000C4,false,Rx,0,7,00,80,FD,00,80,29,FF,00,
354100,000000AE,false,Rx,0,6,17,4B,06,91,80,05,00,00,
354661,000000B6,false,Rx,0,5,39,09,80,00,F8,00,00,00,
354862,0000019E,false,Rx,0,8,00,69,0F,04,32,40,00,8E,
355147,000000CE,false,Rx,0,8,00,00,00,00,00,00,00,00,
355432,000000B5,false,Rx,0,8,B2,09,80,00,08,00,30,3B,
355538,000000CA,false,Rx,0,2,01,3B,00,00,00,00,00,00,
355739,000002B2,false,Rx,0,6,09,09,07,07,05,00,00,00,
355932,000001A0,false,Rx,0,8,00,B0,FF,0F,00,FE,9F,FF,
356217,000000CB,false,Rx,0,6,00,3B,00,00,08,00,00,00,
360102,000001D0,false,Rx,0,8,FF,3F,65,CB,36,00,FD,C8,
360295,000000A8,false,Rx,0,8,A0,46,FF,83,F9,1F,0F,06,
360584,000000A9,false,Rx,0,8,C2,06,98,2F,1E,B2,80,F9,
360876,000000AA,false,Rx,0,8,3D,26,1B,00,36,02,81,97,
363283,000000C4,false,Rx,0,7,00,80,FD,00,80,51,FF,00,
365259,000000BA,false,Rx,0,7,03,FF,0F,00,00,52,85,00,
365546,000000B5,false,Rx,0,8,B3,0A,80,00,08,00,30,3B,
365647,000001A2,false,Rx,0,2,00,00,00,00,00,00,00,00,
370289,000000A8,false,Rx,0,8,A1,47,FF,83,F9,1F,0F,06,
370483,000000A9,false,Rx,0,8,C3,07,98,2F,1E,B2,80,F9,
370778,000000AA,false,Rx,0,8,3E,27,1B,00,36,02,81,97,
373642,000000C4,false,Rx,0,7,00,80,FD,00,80,7A,FF,00,
374209,000000AE,false,Rx,0,6,18,4C,06,91,80,05,00,00,
374587,000000B6,false,Rx,0,5,3A,0A,80,00,F8,00,00,00,
374880,0000019E,false,Rx,0,8,00,69,1F,04,32,40,00,9E,
375073,000000CE,false,Rx,0,8,00,00,00,00,00,00,00,00,
375266,000000CA,false,Rx,0,2,00,3C,00,00,00,00,00,00,
375743,000000B5,false,Rx,0,8,B4,0B,80,00,08,00,30,3B,
375936,000000CB,false,Rx,0,6,01,3C,80,FF,08,00,00,00,
376037,000001A6,false,Rx,0,2,00,00,00,00,00,00,00,00,
376229,000001D2,false,Rx,0,5,E1,0C,8F,2D,F0,00,00,00,
376422,000002B2,false,Rx,0,6,09,09,07,07,05,00,00,00,
376717,000001A0,false,Rx,0,8,00,B0,00,00,00,FE,AF,00,
378198,00000130,false,Rx,0,5,45,43,39,BF,F2,00,00,00,
378667,00000192,false,Rx,0,4,6A,00,80,F9,00,00,00,00,
380247,000000A8,false,Rx,0,8,A2,48,FF,83,F9,1F,0F,06,
380534,000001B4,false,Rx,0,8,00,10,E2,F9,55,02,8A,84,
380736,000000A9,false,Rx,0,8,C4,08,98,2F,1E,B2,80,F9,
381020,000000AA,false,Rx,0,8,3F,28,1B,00,36,02,81,97,
382595,00000310,false,Rx,0,7,74,1D,FB,73,00,1F,18,00,
382977,000000C4,false,Rx,0,7,00,80,FD,00,80,A1,FF,00,
385474,000000BA,false,Rx,0,7,03,FF,0F,00,00,53,86,00,
385670,000000B5,false,Rx,0,8,B5,0C,80,00,08,00,30,3B,
385871,000001A2,false,Rx,0,2,00,00,00,00,00,00,00,00,
390216,000000A8,false,Rx,0,8,A3,49,FF,83,F9,1F,0F,06,
390502,000001B5,false,Rx,0,6,FF,FF,02,00,C8,FF,00,00,
390696,000000A9,false,Rx,0,8,C5,09,98,2F,1E,B2,80,F9,
391695,000000AA,false,Rx,0,8,40,29,1B,00,36,02,81,97,
392941,000000C4,false,Rx,0,7,00,80,FD,00,80,C9,FF,00,
394236,000000AE,false,Rx,0,6,19,4D,06,91,80,05,00,00,
394713,000000B6,false,Rx,0,5,3B,0B,80,00,F8,00,00,00,
394906,0000019E,false,Rx,0,8,00,69,1F,04,32,40,00,9E,
395191,000000CE,false,Rx,0,8,00,00,00,00,00,00,00,00,
395384,000000B5,false,Rx,0,8,B6,0D,80,00,08,00,30,3B,
395485,000000CA,false,Rx,0,2,01,3D,00,00,00,00,00,00,
395681,000002B2,false,Rx,0,6,09,09,07,07,05,00,00,00,
395973,000001A0,false,Rx,0,8,00,B0,FF,0F,00,FE,BF,20,
396166,000000CB,false,Rx,0,6,00,3D,00,00,08,00,00,00,
400239,000000A8,false,Rx,0,8,A4,4A,FF,83,F9,1F,0F,06,
400529,000000A9,false,Rx,0,8,C6,0A,98,2F,1E,B2,80,F9,
400741,000000AA,false,Rx,0,8,41,2A,1B,00,36,02,81,97,
402956,000000C4,false,Rx,0,7,00,80,FD,00,80,F1,FF,00,
405352,000000BA,false,Rx,0,7,03,FF,0F,00,00,54,87,00,
405637,000000B5,false,Rx,0,8,B7,0E,80,00,08,00,30,3B,
405747,000001A2,false,Rx,0,2,00,00,00,00,00,00,00,00,
407040,00000192,false,Rx,0,4,6A,00,80,FA,00,00,00,00,
410268,000000A8,false,Rx,0,8,A5,4B,FF,83,F9,1F,0F,06,
410554,000000A9,false,Rx,0,8,C7,0B,98,2F,1E,B2,80,F9,
410754,000000AA,false,Rx,0,8,42,2B,1B,00,36,02,81,97,
410946,00000194,false,Rx,0,4,73,F5,80,FC,00,00,00,00,
412976,000000C4,false,Rx,0,7,00,80,FD,00,80,19,FF,00,
414190,000000AE,false,Rx,0,6,1A,4E,06,91,80,05,00,00,
414658,000000B6,false,Rx,0,5,3C,0C,80,00,F8,00,00,00,
414949,0000019E,false,Rx,0,8,00,69,1F,04,32,40,00,9E,
415141,000000CE,false,Rx,0,8,00,00,00,00,00,00,00,00,
415425,000000B5,false,Rx,0,8,A9,00,80,00,08,00,30,3B,
415529,000000CA,false,Rx,0,2,00,3E,00,00,00,00,00,00,
415726,000002B2,false,Rx,0,6,09,09,07,07,05,00,00,00,
416010,000001A0,false,Rx,0,8,00,B0,00,00,00,FE,CF,21,
416203,00000480,false,Rx,0,8,12,42,FF,01,00,00,02,04,
416396,000000CB,false,Rx,0,6,03,3E,81,00,09,00,00,00,
420240,000000A8,false,Rx,0,8,A6,4C,FF,83,F9,1F,0F,06,
420528,000000A9,false,Rx,0,8,C8,0C,98,2F,1E,B2,80,F9,
420819,000000AA,false,Rx,0,8,43,2C,1B,00,36,02,81,97,
422951,000000C4,false,Rx,0,7,00,80,FD,00,80,41,FF,00,
425263,000000BA,false,Rx,0,7,03,FF,0F,00,00,55,88,00,
425456,000000B5,false,Rx,0,8,AA,01,80,00,08,00,30,3B,
425650,000001A2,false,Rx,0,2,00,00,00,00,00,00,00,00,
430273,000000A8,false,Rx,0,8,A7,4D,FF,83,F9,1F,0F,06,
430558,000000A9,false,Rx,0,8,C9,0D,98,2F,1E,B2,80,F9,
430759,000000AA,false,Rx,0,8,44,2D,1B,00,36,02,81,97,
432982,000000C4,false,Rx,0,7,00,80,FD,00,80,69,FF,00,
434191,000000AE,false,Rx,0,6,0D,40,06,91,80,06,00,00,
434660,000000B6,false,Rx,0,5,3D,0D,80,00,F8,00,00,00,
434859,0000019E,false,Rx,0,8,00,69,1F,04,32,40,00,9E,
435144,000000CE,false,Rx,0,8,00,00,00,00,00,00,00,00,
435613,000000B5,false,Rx,0,8,AB,02,80,00,08,00,30,3B,
435721,000000CA,false,Rx,0,2,01,3F,00,00,00,00,00,00,
436005,00000200,false,Rx,0,8,00,80,FC,04,00,00,00,00,
436198,000002B2,false,Rx,0,6,09,09,07,07,05,00,00,00,
436391,000000CB,false,Rx,0,6,00,3F,01,00,09,00,00,00,
436586,00000192,false,Rx,0,4,6A,00,80,FB,00,00,00,00,
436787,000001A0,false,Rx,0,8,00,B0,FF,0F,00,FE,DF,40,
440299,000000A8,false,Rx,0,8,A8,4E,FF,83,F9,1F,0F,06,
440492,000000A9,false,Rx,0,8,CA,0E,98,2F,1E,B2,80,F9,
440785,000000AA,false,Rx,0,8,45,2E,1B,00,36,02,81,97,
442953,000000C4,false,Rx,0,7,00,80,FD,00,80,91,FF,00,
445369,000000BA,false,Rx,0,7,03,FF,0F,00,00,56,89,00,
445564,000000B5,false,Rx,0,8,AC,03,80,00,08,00,30,3B,
445666,000001A2,false,Rx,0,2,00,00,00,00,00,00,00,00,
450274,000000A8,false,Rx,0,8,9A,40,FF,83,F9,1F,0F,06,
450563,000000A9,false,Rx,0,8,BC,00,98,2F,1E,B2,80,F9,
450764,000000AA,false,Rx,0,8,37,20,1B,00,36,02,81,97,
452886,000000C4,false,Rx,0,7,00,80,FD,00,80,B9,FF,00,
454274,000000AE,false,Rx,0,6,0E,41,06,91,80,06,00,00,
454651,000000B6,false,Rx,0,5,3E,0E,80,00,F8,00,00,00,
454852,0000019E,false,Rx,0,8,00,69,1F,04,32,40,00,9E,
455136,000005A9,false,Rx,0,8,40,23,00,15,FF,FF,FF,FF,
455328,000000B5,false,Rx,0,8,AD,04,80,00,08,00,30,3B,
455617,000000CE,false,Rx,0,8,00,00,00,00,00,00,00,00,
455724,000000CA,false,Rx,0,2,00,40,00,00,00,00,00,00,
455916,000002B2,false,Rx,0,6,09,09,07,07,15,00,00,00,
456200,000001A0,false,Rx,0,8,00,B0,FF,0F,00,FE,EF,50,
456392,000000CB,false,Rx,0,6,01,40,80,FF,08,00,00,00,
460079,000001D0,false,Rx,0,8,FF,3F,66,CB,36,00,FD,C8,
460363,000000A8,false,Rx,0,8,9B,41,FF,83,F9,1F,0F,06,
460558,000000A9,false,Rx,0,8,BD,01,98,2F,1E,B2,80,F9,
460850,000000AA,false,Rx,0,8,38,21,1B,00,36,02,81,97,
462974,000000C4,false,Rx,0,7,00,80,FD,00,80,E1,FF,00,
464824,00000192,false,Rx,0,4,6A,00,80,FC,00,00,00,00,
465381,000000BA,false,Rx,0,7,03,FF,0F,00,00,57,8A,00,
465576,000000B5,false,Rx,0,8,AE,05,80,00,08,00,30,3B,
465676,000001A2,false,Rx,0,2,00,00,00,00,00,00,00,00,
470240,000000A8,false,Rx,0,8,9C,42,FF,83,F9,1F,0F,06,
470526,000000A9,false,Rx,0,8,BE,02,98,2F,1E,B2,80,F9,
470817,000000AA,false,Rx,0,8,39,22,1B,00,36,02,81,97,
472940,000000C4,false,Rx,0,7,00,80,FD,00,80,09,FF,00,
474600,000000AE,false,Rx,0,6,0F,42,06,91,80,06,00,00,
474801,000000B6,false,Rx,0,5,30,00,80,00,F8,00,00,00,
474994,0000019E,false,Rx,0,8,00,69,1F,04,32,40,00,9E,
475278,000000CE,false,Rx,0,8,00,00,00,00,00,00,00,00,
475471,000000B5,false,Rx,0,8,AF,06,80,00,08,00,30,3B,
475665,000000CA,false,Rx,0,2,01,41,00,00,00,00,00,00,
475773,000001A6,false,Rx,0,2,00,00,00,00,00,00,00,00,
475965,000002B2,false,Rx,0,6,09,09,07,07,15,00,00,00,
476250,000001A0,false,Rx,0,8,00,B0,00,00,00,FE,0F,60,
476442,000000CB,false,Rx,0,6,00,41,FF,FF,09,00,00,00,
479671,00000130,false,Rx,0,5,45,43,39,BF,03,00,00,00,
480236,000000A8,false,Rx,0,8,9D,43,FF,83,F9,1F,0F,06,
480522,000000A9,false,Rx,0,8,BF,03,98,2F,1E,B2,80,F9,
480815,000000AA,false,Rx,0,8,3A,23,1B,00,36,02,81,97,
481930,000001B4,false,Rx,0,8,00,10,E2,FA,55,02,8A,85,
482951,000000C4,false,Rx,0,7,00,80,FD,00,80,31,FF,00,
485255,000000BA,false,Rx,0,7,03,FF,0F,00,00,58,8B,00,
485545,000000B5,false,Rx,0,8,B0,07,80,00,08,00,30,3B,
485645,000001A2,false,Rx,0,2,00,00,00,00,00,00,00,00,
490250,000000A8,false,Rx,0,8,9E,44,FF,83,F9,1F,0F,06,
490538,000000A9,false,Rx,0,8,C0,04,98,2F,1E,B2,80,F9,
490739,000000AA,false,Rx,0,8,3B,24,1B,00,36,02,81,97,
493429,000000C4,false,Rx,0,7,00,80,FD,00,80,59,FF,00,
494583,000000AE,false,Rx,0,6,10,43,06,91,80,06,00,00,
494784,000000B6,false,Rx,0,5,31,01,80,00,F8,00,00,00,
494977,00000192,false,Rx,0,4,6A,00,80,FD,00,00,00,00,
495170,0000019E,false,Rx,0,8,00,69,1F,04,32,40,00,9E,
495454,000000B5,false,Rx,0,8,B1,08,80,00,08,00,30,3B,
495649,000000CE,false,Rx,0,8,00,00,00,00,00,00,00,00,
495759,000000CA,false,Rx,0,2,00,42,00,00,00,00,00,00,
496044,000002B2,false,Rx,0,6,09,09,07,07,F5,FF,00,00,
496237,000001A0,false,Rx,0,8,00,B0,FF,0F,00,FE,1F,7F,
496526,000000CB,false,Rx,0,6,03,42,81,00,09,00,00,00,
500237,000000A8,false,Rx,0,8,9F,45,FF,83,F9,1F,0F,06,
500526,000000A9,false,Rx,0,8,C1,05,98,2F,1E,B2,80,F9,
500819,000000AA,false,Rx,0,8,3C,25,1B,00,36,02,81,97,
503134,000000C4,false,Rx,0,7,00,80,FD,00,80,81,FF,00,
505263,000000BA,false,Rx,0,7,03,FF,0F,00,00,59,8C,00,
505456,000000B5,false,Rx,0,8,B2,09,80,00,08,00,30,3B,
505650,000001A2,false,Rx,0,2,00,00,00,00,00,00,00,00,
510273,000000A8,false,Rx,0,8,A0,46,FF,83,F9,1F,0F,06,
510560,000000A9,false,Rx,0,8,C2,06,98,2F,1E,B2,80,F9,
510762,000000AA,false,Rx,0,8,3D,26,1B,00,36,02,81,97,
512891,000000C4,false,Rx,0,7,00,80,FD,00,80,A9,FF,00,
514381,000000AE,false,Rx,0,6,11,44,06,91,80,06,00,00,
514670,000000B6,false,Rx,0,5,32,02,80,00,F8,00,00,00,
514872,0000019E,false,Rx,0,8,00,69,1F,04,32,40,00,9E,
515157,000000CE,false,Rx,0,8,00,00,00,00,00,00,00,00,
515350,000000B5,false,Rx,0,8,B3,0A,80,00,08,00,30,3B,
515545,000000CA,false,Rx,0,2,01,43,00,00,00,00,00,00,
515746,000002B2,false,Rx,0,6,09,09,07,07,F5,FF,00,00,
515940,000001A0,false,Rx,0,8,00,B0,FF,0F,00,FE,2F,8F,
516133,000000CB,false,Rx,0,6,00,43,01,00,08,00,00,00,
516418,00000492,false,Rx,0,8,18,42,FF,01,00,00,02,04,
520216,000000A8,false,Rx,0,8,A1,47,FF,83,F9,1F,0F,06,
520502,000000A9,false,Rx,0,8,C3,07,98,2F,1E,B2,80,F9,
520796,000000AA,false,Rx,0,8,3E,27,1B,00,36,02,81,97,
522927,000000C4,false,Rx,0,7,00,80,FD,00,80,D1,FF,00,
523303,00000192,false,Rx,0,4,6A,00,80,FE,00,00,00,00,
525434,000000BA,false,Rx,0,7,03,FF,0F,00,00,5A,8D,00,
525630,000000B5,false,Rx,0,8,B4,0B,80,00,08,00,30,3B,
525831,000001A2,false,Rx,0,2,00,00,00,00,00,00,00,00,
530264,000000A8,false,Rx,0,8,A2,48,FF,83,F9,1F,0F,06,
530551,000000A9,false,Rx,0,8,C4,08,98,2F,1E,B2,80,F9,
530753,000000AA,false,Rx,0,8,3F,28,1B,00,36,02,81,97,
532977,000000C4,false,Rx,0,7,00,80,FD,00,80,F9,FF,00,
534277,000000AE,false,Rx,0,6,12,45,06,91,80,06,00,00,
534655,000000B6,false,Rx,0,5,33,03,80,00,F8,00,00,00,
534857,0000019E,false,Rx,0,8,00,69,1F,04,32,40,00,9E,
535142,000000CE,false,Rx,0,8,00,00,00,00,00,00,00,00,
535243,000000CA,false,Rx,0,2,00,44,00,00,00,00,00,00,
535532,000000B5,false,Rx,0,8,B5,0C,80,00,08,00,30,3B,
535734,000002B2,false,Rx,0,6,09,09,07,07,15,00,00,00,
535926,000000CB,false,Rx,0,6,01,44,80,FF,08,00,00,00,
536119,000001A0,false,Rx,0,8,00,B0,00,00,00,FE,3F,90,
536404,000005AA,false,Rx,0,8,40,38,00,05,FF,FF,FF,FF,
540290,000000A8,false,Rx,0,8,A3,49,FF,83,F9,1F,0F,06,
540483,000000A9,false,Rx,0,8,C5,09,98,2F,1E,B2,80,F9,
540782,000000AA,false,Rx,0,8,40,29,1B,00,36,02,81,97,
542912,000000C4,false,Rx,0,7,00,80,FD,00,80,21,FF,00,
545332,000000BA,false,Rx,0,7,03,FF,0F,00,00,5B,8E,00,
545533,000000B5,false,Rx,0,8,B6,0D,80,00,08,00,30,3B,
545733,000001A2,false,Rx,0,2,00,00,00,00,00,00,00,00,
550239,000000A8,false,Rx,0,8,A4,4A,FF,83,F9,1F,0F,06,
550526,000000A9,false,Rx,0,8,C6,0A,98,2F,1E,B2,80,F9,
550818,000000AA,false,Rx,0,8,41,2A,1B,00,36,02,81,97,
552953,000000C4,false,Rx,0,7,00,80,FD,00,80,49,FF,00,
553146,00000192,false,Rx,0,4,6A,00,80,F1,00,00,00,00,
554348,000000AE,false,Rx,0,6,13,46,06,91,80,06,00,00,
554635,000000B6,false,Rx,0,5,34,04,80,00,F8,00,00,00,
554836,0000019E,false,Rx,0,8,00,69,1F,04,32,40,00,9E,
555120,000000CE,false,Rx,0,8,00,00,00,00,00,00,00,00,
555222,000000CA,false,Rx,0,2,01,45,00,00,00,00,00,00,
555508,000000B5,false,Rx,0,8,B7,0E,80,00,08,00,30,3B,
555708,000002B2,false,Rx,0,6,09,09,07,07,15,00,00,00,
555900,000000CB,false,Rx,0,6,00,45,00,00,09,00,00,00,
556093,000001A0,false,Rx,0,8,00,B0,FF,0F,00,FE,4F,AF,
560058,000001D0,false,Rx,0,8,FF,3F,67,CB,36,00,FD,C8,
560341,000000A8,false,Rx,0,8,A5,4B,FF,83,F9,1F,0F,06,
560629,000000A9,false,Rx,0,8,C7,0B,98,2F,1E,B2,80,F9,
560829,000000AA,false,Rx,0,8,42,2B,1B,00,36,02,81,97,
562952,000000C4,false,Rx,0,7,00,80,FD,00,80,71,FF,00,
565348,000000BA,false,Rx,0,7,03,FF,0F,00,00,4D,80,00,
565635,000000B5,false,Rx,0,8,A9,00,80,00,08,00,30,3B,
565744,000001A2,false,Rx,0,2,00,00,00,00,00,00,00,00,
570281,000000A8,false,Rx,0,8,A6,4C,FF,83,F9,1F,0F,06,
570474,000000A9,false,Rx,0,8,C8,0C,98,2F,1E,B2,80,F9,
570791,000000AA,false,Rx,0,8,43,2C,1B,00,36,02,81,97,
573007,000000C4,false,Rx,0,7,00,80,FD,00,80,99,FF,00,
574483,000000AE,false,Rx,0,6,14,47,06,91,80,06,00,00,
574777,000001A6,false,Rx,0,2,00,00,00,00,00,00,00,00,
574969,000000B6,false,Rx,0,5,35,05,80,00,F8,00,00,00,
575162,0000019E,false,Rx,0,8,00,69,2F,04,32,40,00,AE,
575448,000000B5,false,Rx,0,8,AA,01,80,00,08,00,30,3B,
575643,000000CE,false,Rx,0,8,00,00,00,00,00,00,00,00,
575752,000000CA,false,Rx,0,2,00,46,00,00,00,00,00,00,
575943,000001D2,false,Rx,0,5,E1,0C,8F,3D,F0,00,00,00,
576136,000002B2,false,Rx,0,6,09,09,07,07,05,00,00,00,
576419,000000CB,false,Rx,0,6,03,46,82,00,08,00,00,00,
576614,000001A0,false,Rx,0,8,00,B0,00,00,00,FE,5F,B0,
579112,00000130,false,Rx,0,5,45,43,39,BF,14,00,00,00,
580224,000000A8,false,Rx,0,8,A7,4D,FF,83,F9,1F,0F,06,
580510,000001B4,false,Rx,0,8,00,10,E2,FB,55,02,8A,86,
580710,000000A9,false,Rx,0,8,C9,0D,98,2F,1E,B2,80,F9,
580994,000000AA,false,Rx,0,8,44,2D,1B,00,36,02,81,97,
582654,00000192,false,Rx,0,4,6A,00,80,F2,00,00,00,00,
582945,000000C4,false,Rx,0,7,00,80,FD,00,80,C1,FF,00,
585432,000000BA,false,Rx,0,7,03,FF,0F,00,00,4E,81,00,
585629,000000B5,false,Rx,0,8,AB,02,80,00,08,00,30,3B,
585829,000001A2,false,Rx,0,2,00,00,00,00,00,00,00,00,
590246,000000A8,false,Rx,0,8,A8,4E,FF,83,F9,1F,0F,06,
590532,000000A9,false,Rx,0,8,CA,0E,98,2F,1E,B2,80,F9,
590733,000000AA,false,Rx,0,8,45,2E,1B,00,36,02,81,97,
593221,000000C4,false,Rx,0,7,00,80,FD,00,80,E9,FF,00,
595127,000000AE,false,Rx,0,6,15,48,06,91,80,06,00,00,
595239,000000B6,false,Rx,0,5,36,06,80,00,F8,00,00,00,
595350,0000019E,false,Rx,0,8,00,69,2F,04,32,40,00,AE,
595467,000000CE,false,Rx,0,8,00,00,00,00,00,00,00,00,
595565,000000CA,false,Rx,0,2,01,47,00,00,00,00,00,00,
595666,000000B5,false,Rx,0,8,AC,03,80,00,08,00,30,3B,
595768,000002B2,false,Rx,0,6,09,09,07,07,05,00,00,00,
595876,000000CB,false,Rx,0,6,00,47,01,00,09,00,00,00,
596298,000001A0,false,Rx,0,8,00,B0,FF,0F,00,FE,6F,CF,
600209,000000A8,false,Rx,0,8,9A,40,FF,83,F9,1F,0F,06,
600494,000000A9,false,Rx,0,8,BC,00,98,2F,1E,B2,80,F9,
600788,000000AA,false,Rx,0,8,37,20,1B,00,36,02,81,97,
602919,000000C4,false,Rx,0,7,00,80,FD,00,80,11,FF,00,
605414,000000BA,false,Rx,0,7,03,FF,0F,00,00,4F,82,00,
605612,000000B5,false,Rx,0,8,AD,04,80,00,08,00,30,3B,
605721,000001A2,false,Rx,0,2,00,00,00,00,00,00,00,00,
610246,000000A8,false,Rx,0,8,9B,41,FF,83,F9,1F,0F,06,
610533,000000A9,false,Rx,0,8,BD,01,98,2F,1E,B2,80,F9,
610734,000000AA,false,Rx,0,8,38,21,1B,00,36,02,81,97,
611569,00000192,false,Rx,0,4,6A,00,80,F3,00,00,00,00,
612966,000000C4,false,Rx,0,7,00,80,FD,00,80,39,FF,00,
614080,00000194,false,Rx,0,4,74,F6,80,FC,00,00,00,00,
614375,000000AE,false,Rx,0,6,16,49,06,91,80,06,00,00,
614662,000000B6,false,Rx,0,5,37,07,80,00,F8,00,00,00,
614863,0000019E,false,Rx,0,8,00,69,2F,04,32,40,00,AE,
615147,000000CE,false,Rx,0,8,00,00,00,00,00,00,00,00,
615249,000000CA,false,Rx,0,2,00,48,00,00,00,00,00,00,
615538,000002B2,false,Rx,0,6,09,09,07,07,15,00,00,00,
615739,000000B5,false,Rx,0,8,AE,05,80,00,08,00,30,3B,
615933,000000CB,false,Rx,0,6,01,48,80,FF,09,00,00,00,
616126,000001A0,false,Rx,0,8,00,B0,FF,0F,00,FE,7F,DF,
616411,00000498,false,Rx,0,8,29,42,FF,FF,FF,FF,FF,FF,
620207,000000A8,false,Rx,0,8,9C,42,FF,83,F9,1F,0F,06,
620491,000000A9,false,Rx,0,8,BE,02,98,2F,1E,B2,80,F9,
620785,000000AA,false,Rx,0,8,39,22,1B,00,36,02,81,97,
623191,000000C4,false,Rx,0,7,00,80,FD,00,80,62,FF,00,
625322,000000BA,false,Rx,0,7,03,FF,0F,00,00,50,83,00,
625801,000000B5,false,Rx,0,8,AF,06,80,00,08,00,30,3B,
625994,000001A2,false,Rx,0,2,00,00,00,00,00,00,00,00,
630245,000000A8,false,Rx,0,8,9D,43,FF,83,F9,1F,0F,06,
630532,000000A9,false,Rx,0,8,BF,03,98,2F,1E,B2,80,F9,
630734,000000AA,false,Rx,0,8,3A,23,1B,00,36,02,81,97,
633597,000000C4,false,Rx,0,7,00,80,FD,00,80,8A,FF,00,
634438,000000AE,false,Rx,0,6,18,4A,06,91,80,07,00,00,
634636,000000B6,false,Rx,0,5,38,08,80,00,F8,00,00,00,
634836,0000019E,false,Rx,0,8,00,69,2F,04,32,40,00,AE,
635121,000000CE,false,Rx,0,8,00,00,00,00,00,00,00,00,
635405,000000B5,false,Rx,0,8,B0,07,80,00,08,00,30,3B,
635509,000000CA,false,Rx,0,2,01,49,00,00,00,00,00,00,
635709,00000200,false,Rx,0,8,00,80,FC,00,00,00,00,00,
635993,000002B2,false,Rx,0,6,09,09,07,07,15,00,00,00,
636186,000001A0,false,Rx,0,8,00,B0,00,00,00,FE,8F,E0,
636380,000000CB,false,Rx,0,6,00,49,FF,FF,08,00,00,00,
640265,000000A8,false,Rx,0,8,9E,44,FF,83,F9,1F,0F,06,
640553,000000A9,false,Rx,0,8,C0,04,98,2F,1E,B2,80,F9,
640754,000000AA,false,Rx,0,8,3B,24,1B,00,36,02,81,97,
641682,00000192,false,Rx,0,4,6A,00,80,F4,00,00,00,00,
642989,000000C4,false,Rx,0,7,00,80,FD,00,80,B1,FF,00,
646166,000000BA,false,Rx,0,7,03,FF,0F,00,00,51,84,00,
646264,000000B5,false,Rx,0,8,B1,08,80,00,08,00,30,3B,
646365,000001A2,false,Rx,0,2,00,00,00,00,00,00,00,00,
650261,000000A8,false,Rx,0,8,9F,45,FF,83,F9,1F,0F,06,
650547,000000A9,false,Rx,0,8,C1,05,98,2F,1E,B2,80,F9,
650748,000000AA,false,Rx,0,8,3C,25,1B,00,36,02,81,97,
653235,000000C4,false,Rx,0,7,00,80,FD,00,80,D9,FF,00,
654532,000000AE,false,Rx,0,6,19,4B,06,91,80,07,00,00,
654732,000000B6,false,Rx,0,5,39,09,80,00,F8,00,00,00,
655016,0000019E,false,Rx,0,8,00,69,2F,04,32,40,00,AE,
655209,000000CE,false,Rx,0,8,00,00,00,00,00,00,00,00,
655492,000000B5,false,Rx,0,8,B2,09,80,00,08,00,30,3B,
655595,000000CA,false,Rx,0,2,00,4A,00,00,00,00,00,00,
655795,000002B2,false,Rx,0,6,09,09,07,07,F5,FF,00,00,
656002,000001A0,false,Rx,0,8,00,B0,FF,0F,00,FE,9F,FF,
656286,000000CB,false,Rx,0,6,03,4A,81,00,08,00,00,00,
660068,000001D0,false,Rx,0,8,FF,3F,68,CB,36,00,FD,C8,
660352,000000A8,false,Rx,0,8,A0,46,FF,83,F9,1F,0F,06,
660547,000000A9,false,Rx,0,8,C2,06,98,2F,1E,B2,80,F9,
660839,000000AA,false,Rx,0,8,3A,26,1B,00,33,02,81,97,
663600,000000C4,false,Rx,0,7,00,80,FD,00,80,02,FF,00,
665270,000000BA,false,Rx,0,7,03,FF,0F,00,00,52,85,00,
665462,000000B5,false,Rx,0,8,B3,0A,80,00,08,00,30,3B,
665657,000001A2,false,Rx,0,2,00,00,00,00,00,00,00,00,
670086,00000192,false,Rx,0,4,6A,00,80,F5,00,00,00,00,
670368,000000A8,false,Rx,0,8,A1,47,FF,83,F9,1F,0F,06,
670564,000000A9,false,Rx,0,8,C3,07,98,2F,1E,B2,80,F9,
670879,000000AA,false,Rx,0,8,3B,27,1B,00,33,02,81,97,
672935,000000C4,false,Rx,0,7,00,80,FD,00,80,29,FF,00,
674595,000000AE,false,Rx,0,6,1A,4C,06,91,80,07,00,00,
674794,000000B6,false,Rx,0,5,3A,0A,80,00,F8,00,00,00,
674987,0000019E,false,Rx,0,8,00,69,2F,04,32,40,00,AE,
675271,000000CE,false,Rx,0,8,00,00,00,00,00,00,00,00,
675464,000000B5,false,Rx,0,8,B4,0B,80,00,08,00,30,3B,
675569,000000CA,false,Rx,0,2,01,4B,00,00,00,00,00,00,
675768,000001A6,false,Rx,0,2,00,00,00,00,00,00,00,00,
675961,000002B2,false,Rx,0,6,09,09,07,07,F5,FF,00,00,
676153,000000CB,false,Rx,0,6,00,4B,00,00,08,00,00,00,
676436,000001A0,false,Rx,0,8,00,B0,FF,0F,00,FE,AF,10,
679577,00000130,false,Rx,0,5,45,43,39,BF,25,00,00,00,
680233,000000A8,false,Rx,0,8,A2,48,FF,83,F9,1F,0F,06,
680520,000000A9,false,Rx,0,8,C4,08,98,2F,1E,B2,80,F9,
680720,000001B4,false,Rx,0,8,00,10,E2,FC,55,02,8A,87,
681004,000000AA,false,Rx,0,8,3C,28,1B,00,33,02,81,97,
682911,000000C4,false,Rx,0,7,00,80,FD,00,80,51,FF,00,
685316,000000BA,false,Rx,0,7,03,FF,0F,00,00,53,86,00,
685603,000000B5,false,Rx,0,8,B5,0C,80,00,08,00,30,3B,
685711,000001A2,false,Rx,0,2,00,00,00,00,00,00,00,00,
690238,000000A8,false,Rx,0,8,A3,49,FF,83,F9,1F,0F,06,
690526,000000A9,false,Rx,0,8,C5,09,98,2F,1E,B2,80,F9,
690727,000000AA,false,Rx,0,8,3D,29,1B,00,33,02,81,97,
692951,000000C4,false,Rx,0,7,00,80,FD,00,80,79,FF,00,
694525,000000AE,false,Rx,0,6,1B,4D,06,91,80,07,00,00,
694726,000000B6,false,Rx,0,5,3B,0B,80,00,F8,00,00,00,
695009,0000019E,false,Rx,0,8,00,69,2F,04,32,40,00,AE,
695203,000000CE,false,Rx,0,8,00,00,00,00,00,00,00,00,
695488,000000B5,false,Rx,0,8,B6,0D,80,00,08,00,30,3B,
695592,000000CA,false,Rx,0,2,00,4C,00,00,00,00,00,00,
695792,000002B2,false,Rx,0,6,09,09,07,07,05,00,00,00,
696075,000001A0,false,Rx,0,8,00,B0,00,00,00,FE,BF,11,
697108,000000CB,false,Rx,0,6,01,4C,81,FF,08,00,00,00,
699834,00000192,false,Rx,0,4,6A,00,80,F6,00,00,00,00,
700299,000000A8,false,Rx,0,8,A4,4A,FF,83,F9,1F,0F,06,
700585,000000A9,false,Rx,0,8,C6,0A,98,2F,1E,B2,80,F9,
700785,000000AA,false,Rx,0,8,3E,2A,1B,00,33,02,81,97,
702910,000000C4,false,Rx,0,7,00,80,FD,00,80,A1,FF,00,
705396,000000BA,false,Rx,0,7,03,FF,0F,00,00,54,87,00,
705682,000000B5,false,Rx,0,8,B7,0E,80,00,08,00,30,3B,
705791,000001A2,false,Rx,0,2,00,00,00,00,00,00,00,00,
710305,000000A8,false,Rx,0,8,A5,4B,FF,83,F9,1F,0F,06,
710589,000000A9,false,Rx,0,8,C7,0B,98,2F,1E,B2,80,F9,
710790,000000AA,false,Rx,0,8,3F,2B,1B,00,33,02,81,97,
713189,000000C4,false,Rx,0,7,00,80,FD,00,80,C9,FF,00,
714585,000000AE,false,Rx,0,6,1C,4E,06,91,80,07,00,00,
714685,000000B6,false,Rx,0,5,3C,0C,80,00,F8,00,00,00,
714977,0000019E,false,Rx,0,8,00,69,2F,04,32,40,00,AE,
715260,000000CE,false,Rx,0,8,00,00,00,00,00,00,00,00,
715453,000000B5,false,Rx,0,8,A9,00,80,00,08,00,30,3B,
715557,000000CA,false,Rx,0,2,01,4D,00,00,00,00,00,00,
715758,000002B2,false,Rx,0,6,09,09,07,07,05,00,00,00,
716042,000001A0,false,Rx,0,8,00,B0,FF,0F,00,FE,CF,30,
716235,000000CB,false,Rx,0,6,00,4D,00,00,08,00,00,00,
716520,000004A9,false,Rx,0,8,2A,42,FF,FF,FF,FF,FF,FF,
720209,000000A8,false,Rx,0,8,A6,4C,FF,83,F9,1F,0F,06,
720492,000000A9,false,Rx,0,8,C8,0C,98,2F,1E,B2,80,F9,
720785,000000AA,false,Rx,0,8,40,2C,1B,00,33,02,81,97,
723642,000000C4,false,Rx,0,7,00,80,FD,00,80,F2,FF,00,
725309,000000BA,false,Rx,0,7,03,FF,0F,00,00,55,88,00,
725503,000000B5,false,Rx,0,8,AA,01,80,00,08,00,30,3B,
725604,000001A2,false,Rx,0,2,00,00,00,00,00,00,00,00,
729569,00000192,false,Rx,0,4,6A,00,80,F7,00,00,00,00,
730225,000000A8,false,Rx,0,8,A7,4D,FF,83,F9,1F,0F,06,
730511,000000A9,false,Rx,0,8,C9,0D,98,2F,1E,B2,80,F9,
730801,000000AA,false,Rx,0,8,41,2D,1B,00,33,02,81,97,
733655,000000C4,false,Rx,0,7,00,80,FD,00,80,1B,FF,00,
734493,000000AE,false,Rx,0,6,0E,40,06,91,80,07,00,00,
734686,000000B6,false,Rx,0,5,3D,0D,80,00,F8,00,00,00,
734978,0000019E,false,Rx,0,8,00,69,2F,04,32,40,00,AE,
735170,000000CE,false,Rx,0,8,00,00,00,00,00,00,00,00,
735362,000000CA,false,Rx,0,2,00,4E,00,00,00,00,00,00,
735558,000000B5,false,Rx,0,8,AB,02,80,00,08,00,30,3B,
735759,000002B2,false,Rx,0,6,09,09,07,07,05,00,00,00,
735951,000000CB,false,Rx,0,6,03,4E,82,00,09,00,00,00,
736235,000001A0,false,Rx,0,8,00,B0,00,00,00,FE,DF,31,
740293,000000A8,false,Rx,0,8,A8,4E,FF,83,F9,1F,0F,06,
740486,000000A9,false,Rx,0,8,CA,0E,98,2F,1E,B2,80,F9,
740780,000000AA,false,Rx,0,8,42,2E,1B,00,33,02,81,97,
742995,000000C4,false,Rx,0,7,00,80,FD,00,80,41,FF,00,
745300,000000BA,false,Rx,0,7,03,FF,0F,00,00,56,89,00,
745585,000000B5,false,Rx,0,8,AC,03,80,00,08,00,30,3B,
745687,000001A2,false,Rx,0,2,00,00,00,00,00,00,00,00,
750260,000000A8,false,Rx,0,8,9A,40,FF,83,F9,1F,0F,06,
750465,000000A9,false,Rx,0,8,BC,00,98,2F,1E,B2,80,F9,
750760,000000AA,false,Rx,0,8,34,20,1B,00,33,02,81,97,
752985,000000C4,false,Rx,0,7,00,80,FD,00,80,69,FF,00,
754559,000000AE,false,Rx,0,6,0F,41,06,91,80,07,00,00,
754761,000000B6,false,Rx,0,5,3E,0E,80,00,F8,00,00,00,
754954,0000019E,false,Rx,0,8,00,69,2F,04,32,40,00,AE,
755239,000000CE,false,Rx,0,8,00,00,00,00,00,00,00,00,
755433,000000B5,false,Rx,0,8,AD,04,80,00,08,00,30,3B,
755630,000000CA,false,Rx,0,2,01,4F,00,00,00,00,00,00,
755831,000002B2,false,Rx,0,6,09,09,07,07,05,00,00,00,
756024,000001A0,false,Rx,0,8,00,B0,FF,0F,00,FE,EF,50,
756217,000000CB,false,Rx,0,6,00,4F,01,00,08,00,00,00,
758073,00000192,false,Rx,0,4,6A,00,80,F8,00,00,00,00,
760114,000001D0,false,Rx,0,8,FF,3F,69,CB,36,00,FD,C8,
760307,000000A8,false,Rx,0,8,9B,41,FF,83,F9,1F,0F,06,
760595,000000A9,false,Rx,0,8,BD,01,98,2F,1E,B2,80,F9,
760797,000000AA,false,Rx,0,8,35,21,1B,00,33,02,81,97,
763022,000000C4,false,Rx,0,7,00,80,FD,00,80,91,FF,00,
765426,000000BA,false,Rx,0,7,03,FF,0F,00,00,57,8A,00,
765723,000000B5,false,Rx,0,8,AE,05,80,00,08,00,30,3B,
765825,000001A2,false,Rx,0,2,00,00,00,00,00,00,00,00,
770259,000000A8,false,Rx,0,8,9C,42,FF,83,F9,1F,0F,06,
770545,000000A9,false,Rx,0,8,BE,02,98,2F,1E,B2,80,F9,
770746,000000AA,false,Rx,0,8,39,22,1B,00,36,02,81,97,
772968,000000C4,false,Rx,0,7,00,80,FD,00,80,B9,FF,00,
774573,000000AE,false,Rx,0,6,10,42,06,91,80,07,00,00,
774772,000000B6,false,Rx,0,5,30,00,80,00,F8,00,00,00,
774965,0000019E,false,Rx,0,8,00,69,3F,04,32,40,00,BE,
775250,000000CE,false,Rx,0,8,00,00,00,00,00,00,00,00,
775352,000000CA,false,Rx,0,2,00,50,00,00,00,00,00,00,
775546,000001A6,false,Rx,0,2,00,00,00,00,00,00,00,00,
775759,000000B5,false,Rx,0,8,AF,06,80,00,08,00,30,3B,
775952,000000CB,false,Rx,0,6,01,50,80,FF,08,00,00,00,
776146,000001D2,false,Rx,0,5,E1,0C,8F,4D,F0,00,00,00,
776338,000002B2,false,Rx,0,6,09,09,07,07,15,00,00,00,
776534,000001A0,false,Rx,0,8,00,B0,FF,0F,00,FE,0F,6F,
778763,00000130,false,Rx,0,5,45,43,39,BF,36,00,00,00,
780244,000000A8,false,Rx,0,8,9D,43,FF,83,F9,1F,0F,06,
780532,000000A9,false,Rx,0,8,C0,03,98,2F,1E,B3,80,F9,
780732,000000AA,false,Rx,0,8,3A,23,1B,00,36,02,81,97,
781017,000001B4,false,Rx,0,8,00,10,E2,FD,55,02,8A,88,
782966,000000C4,false,Rx,0,7,00,80,FD,00,80,E1,FF,00,
785277,000000BA,false,Rx,0,7,03,FF,0F,00,00,58,8B,00,
785471,000000B5,false,Rx,0,8,B0,07,80,00,08,00,30,3B,
785667,000001A2,false,Rx,0,2,00,00,00,00,00,00,00,00,
787802,00000192,false,Rx,0,4,6A,00,80,F9,00,00,00,00,
790205,000000A8,false,Rx,0,8,9E,44,FF,83,F9,1F,0F,06,
790490,000000A9,false,Rx,0,8,C0,04,98,2F,1E,B2,80,F9,
790784,000000AA,false,Rx,0,8,3B,24,1B,00,36,02,81,97,
792915,000000C4,false,Rx,0,7,00,80,FD,00,80,09,FF,00,
794581,000000AE,false,Rx,0,6,11,43,06,91,80,07,00,00,
794781,000000B6,false,Rx,0,5,31,01,80,00,F8,00,00,00,
794975,0000019E,false,Rx,0,8,00,69,3F,04,32,40,00,BE,
795260,000000CE,false,Rx,0,8,00,00,00,00,00,00,00,00,
795453,000000B5,false,Rx,0,8,B1,08,80,00,08,00,30,3B,
795648,000000CA,false,Rx,0,2,01,51,00,00,00,00,00,00,
795849,000002B2,false,Rx,0,6,09,09,07,07,15,00,00,00,
796043,000001A0,false,Rx,0,8,00,B0,00,00,00,FE,1F,70,
796236,000000CB,false,Rx,0,6,00,51,00,00,09,00,00,00,
800223,000000A8,false,Rx,0,8,9F,45,FF,83,F9,1F,0F,06,
800516,000000A9,false,Rx,0,8,C1,05,98,2F,1E,B2,80,F9,
800747,000000AA,false,Rx,0,8,3C,25,1B,00,36,02,81,97,
802962,000000C4,false,Rx,0,7,00,80,FD,00,80,31,FF,00,
805371,000000BA,false,Rx,0,7,03,FF,0F,00,00,59,8C,00,
805656,000000B5,false,Rx,0,8,B2,09,80,00,08,00,30,3B,
805765,000001A2,false,Rx,0,2,00,00,00,00,00,00,00,00,
806048,000004AA,false,Rx,0,8,00,42,FF,FF,FF,FF,FF,FF,
810196,000000A8,false,Rx,0,8,A0,46,FF,83,F9,1F,0F,06,
810479,000000A9,false,Rx,0,8,C2,06,98,2F,1E,B2,80,F9,
810774,000000AA,false,Rx,0,8,3D,26,1B,00,36,02,81,97,
812988,000000C4,false,Rx,0,7,00,80,FD,00,80,59,FF,00,
814850,000000AE,false,Rx,0,6,12,44,06,91,80,07,00,00,
815043,000000B6,false,Rx,0,5,32,02,80,00,F8,00,00,00,
815236,0000019E,false,Rx,0,8,00,69,3F,04,32,40,00,BE,
815520,000000B5,false,Rx,0,8,B3,0A,80,00,08,00,30,3B,
815721,000000CE,false,Rx,0,8,00,00,00,00,00,00,00,00,
815822,000000CA,false,Rx,0,2,00,52,00,00,00,00,00,00,
816014,00000194,false,Rx,0,4,75,F7,80,FC,00,00,00,00,
816206,000002B2,false,Rx,0,6,09,09,07,07,05,00,00,00,
816399,000000CB,false,Rx,0,6,03,52,82,00,08,00,00,00,
816684,000001A0,false,Rx,0,8,00,B0,FF,0F,00,FE,2F,8F,
818077,00000192,false,Rx,0,4,6A,00,80,FA,00,00,00,00,
820203,000000A8,false,Rx,0,8,A1,47,FF,83,F9,1F,0F,06,
820487,000000A9,false,Rx,0,8,C3,07,98,2F,1E,B2,80,F9,
820779,000000AA,false,Rx,0,8,3E,27,1B,00,36,02,81,97,
823086,000000C4,false,Rx,0,7,00,80,FD,00,80,81,FF,00,
825482,000000BA,false,Rx,0,7,03,FF,0F,00,00,5A,8D,00,
825678,000000B5,false,Rx,0,8,B4,0B,80,00,08,00,30,3B,
825787,000001A2,false,Rx,0,2,00,00,00,00,00,00,00,00,
830209,000000A8,false,Rx,0,8,A2,48,FF,83,F9,1F,0F,06,
830493,000000A9,false,Rx,0,8,C4,08,98,2F,1E,B2,80,F9,
830784,000000AA,false,Rx,0,8,3F,28,1B,00,36,02,81,97,
832909,000000C4,false,Rx,0,7,00,80,FD,00,80,A9,FF,00,
834661,000000AE,false,Rx,0,6,14,45,06,91,80,08,00,00,
835043,000000B6,false,Rx,0,5,33,03,80,00,F8,00,00,00,
835327,0000019E,false,Rx,0,8,00,69,3F,04,32,40,00,BE,
835521,000000B5,false,Rx,0,8,B5,0C,80,00,08,00,30,3B,
835813,000000CE,false,Rx,0,8,00,00,00,00,00,00,00,00,
835914,000000CA,false,Rx,0,2,01,53,00,00,00,00,00,00,
836198,00000200,false,Rx,0,8,00,80,FC,01,00,00,00,00,
836389,000002B2,false,Rx,0,6,09,09,07,07,05,00,00,00,
836585,000000CB,false,Rx,0,6,00,53,01,00,09,00,00,00,
836785,000001A0,false,Rx,0,8,00,B0,00,00,00,FE,3F,90,
840105,000001B6,false,Rx,0,7,FF,FF,3C,01,00,F0,0F,00,
840388,000000A8,false,Rx,0,8,A3,49,FF,83,F9,1F,0F,06,
840676,000000A9,false,Rx,0,8,C5,09,98,2F,1E,B2,80,F9,
840876,000000AA,false,Rx,0,8,40,29,1B,00,36,02,81,97,
843001,000000C4,false,Rx,0,7,00,80,FD,00,80,D1,FF,00,
845305,000000BA,false,Rx,0,7,03,FF,0F,00,00,5B,8E,00,
845500,000000B5,false,Rx,0,8,B6,0D,80,00,08,00,30,3B,
845601,000001A2,false,Rx,0,2,00,00,00,00,00,00,00,00,
847545,00000192,false,Rx,0,4,6A,00,80,FB,00,00,00,00,
850293,000000A8,false,Rx,0,8,A4,4A,FF,83,F9,1F,0F,06,
850508,000000A9,false,Rx,0,8,C6,0A,98,2F,1E,B2,80,F9,
850941,000000AA,false,Rx,0,8,41,2A,1B,00,36,02,81,97,
852982,000000C4,false,Rx,0,7,00,80,FD,00,80,F9,FF,00,
854651,000000B6,false,Rx,0,5,34,04,80,00,F8,00,00,00,
854852,000000AE,false,Rx,0,6,15,46,06,91,80,08,00,00,
855046,0000019E,false,Rx,0,8,00,69,3F,04,32,40,00,BE,
855330,000000CE,false,Rx,0,8,00,00,00,00,00,00,00,00,
855526,000000B5,false,Rx,0,8,B7,0E,80,00,08,00,30,3B,
855726,000000CA,false,Rx,0,2,00,54,00,00,00,00,00,00,
855919,000002B2,false,Rx,0,6,09,09,07,07,15,00,00,00,
856113,000001A0,false,Rx,0,8,00,B0,FF,0F,00,FE,4F,AF,
856306,000000CB,false,Rx,0,6,01,54,80,FF,08,00,00,00,
860101,000001D0,false,Rx,0,8,FF,3F,6A,CB,36,00,FD,C8,
860295,000000A8,false,Rx,0,8,A5,4B,FF,83,F9,1F,0F,06,
860584,000000A9,false,Rx,0,8,C7,0B,98,2F,1E,B2,80,F9,
860785,000000AA,false,Rx,0,8,42,2B,1B,00,36,02,81,97,
863006,000000C4,false,Rx,0,7,00,80,FD,00,80,21,FF,00,
865319,000000BA,false,Rx,0,7,03,FF,0F,00,00,4D,80,00,
865515,000000B5,false,Rx,0,8,A9,00,80,00,08,00,30,3B,
865616,000001A2,false,Rx,0,2,00,00,00,00,00,00,00,00,
870241,000000A8,false,Rx,0,8,A6,4C,FF,83,F9,1F,0F,06,
870528,000000A9,false,Rx,0,8,C8,0C,98,2F,1E,B2,80,F9,
870727,000000AA,false,Rx,0,8,43,2C,1B,00,36,02,81,97,
872951,000000C4,false,Rx,0,7,00,80,FD,00,80,49,FF,00,
874617,000000B6,false,Rx,0,5,35,05,80,00,F8,00,00,00,
874819,000000AE,false,Rx,0,6,16,47,06,91,80,08,00,00,
875104,0000019E,false,Rx,0,8,00,69,3F,04,32,40,00,BE,
875297,000000CE,false,Rx,0,8,00,00,00,00,00,00,00,00,
875584,000000B5,false,Rx,0,8,AA,01,80,00,08,00,30,3B,
875694,000000CA,false,Rx,0,2,01,55,00,00,00,00,00,00,
875821,000001A6,false,Rx,0,2,00,00,00,00,00,00,00,00,
876014,000002B2,false,Rx,0,6,09,09,07,07,15,00,00,00,
876207,000000CB,false,Rx,0,6,00,55,00,00,08,00,00,00,
876492,000001A0,false,Rx,0,8,00,B0,FF,0F,00,FE,5F,BF,
878181,00000192,false,Rx,0,4,6A,00,80,FC,00,00,00,00,
879115,00000130,false,Rx,0,5,45,43,39,BF,47,00,00,00,
880231,000000A8,false,Rx,0,8,A7,4D,FF,83,F9,1F,0F,06,
880520,000000A9,false,Rx,0,8,C9,0D,98,2F,1E,B2,80,F9,
880721,000001B4,false,Rx,0,8,00,10,E2,FE,55,02,8A,89,
880914,000000AA,false,Rx,0,8,44,2D,1B,00,36,02,81,97,
882953,000000C4,false,Rx,0,7,00,80,FD,00,80,71,FF,00,
885357,00000480,false,Rx,0,8,12,42,FF,01,00,00,02,04,
885552,000000B5,false,Rx,0,8,AB,02,80,00,08,00,30,3B,
885844,000000BA,false,Rx,0,7,03,FF,0F,00,00,4E,81,00,
885946,000001A2,false,Rx,0,2,00,00,00,00,00,00,00,00,
890198,000000A8,false,Rx,0,8,A8,4E,FF,83,F9,1F,0F,06,
890482,000000A9,false,Rx,0,8,CA,0E,98,2F,1E,B2,80,F9,
890775,000000AA,false,Rx,0,8,45,2E,1B,00,36,02,81,97,
892999,000000C4,false,Rx,0,7,00,80,FD,00,80,99,FF,00,
894763,000000AE,false,Rx,0,6,17,48,06,91,80,08,00,00,
894956,000000B6,false,Rx,0,5,36,06,80,00,F8,00,00,00,
895150,0000019E,false,Rx,0,8,00,69,3F,04,32,40,00,BE,
895343,000000B5,false,Rx,0,8,AC,03,80,00,08,00,30,3B,
895630,000000CE,false,Rx,0,8,00,00,00,00,00,00,00,00,
895739,000000CA,false,Rx,0,2,00,56,00,00,00,00,00,00,
895932,000002B2,false,Rx,0,6,09,09,07,07,05,00,00,00,
896217,000001A0,false,Rx,0,8,00,B0,00,00,00,FE,6F,C0,
896410,000000CB,false,Rx,0,6,03,56,82,00,08,00,00,00,
900474,000000A8,false,Rx,0,8,9A,40,FF,83,F9,1F,0F,06,
900589,000000A9,false,Rx,0,8,BC,00,98,2F,1E,B2,80,F9,
900789,000000AA,false,Rx,0,8,37,20,1B,00,36,02,81,97,
902937,000000C4,false,Rx,0,7,00,80,FD,00,80,C1,FF,00,
905239,000000BA,false,Rx,0,7,03,FF,0F,00,00,4F,82,00,
905526,000000B5,false,Rx,0,8,AD,04,80,00,08,00,30,3B,
905627,000001A2,false,Rx,0,2,00,00,00,00,00,00,00,00,
907569,00000192,false,Rx,0,4,6A,00,80,FD,00,00,00,00,
910245,000000A8,false,Rx,0,8,9B,41,FF,83,F9,1F,0F,06,
910532,000000A9,false,Rx,0,8,BD,01,98,2F,1E,B2,80,F9,
910730,000000AA,false,Rx,0,8,38,21,1B,00,36,02,81,97,
912967,000000C4,false,Rx,0,7,00,80,FD,00,80,E9,FF,00,
914642,000000B6,false,Rx,0,5,37,07,80,00,F8,00,00,00,
914843,000000AE,false,Rx,0,6,18,49,06,91,80,08,00,00,
915126,0000019E,false,Rx,0,8,00,69,3F,04,32,40,00,BE,
915319,000000CE,false,Rx,0,8,00,00,00,00,00,00,00,00,
915606,000000B5,false,Rx,0,8,AE,05,80,00,08,00,30,3B,
915715,000000CA,false,Rx,0,2,01,57,00,00,00,00,00,00,
915907,000002B2,false,Rx,0,6,09,09,07,07,05,00,00,00,
916100,000001A0,false,Rx,0,8,00,B0,FF,0F,00,FE,7F,DF,
916384,000000CB,false,Rx,0,6,00,57,01,00,08,00,00,00,
920255,000000A8,false,Rx,0,8,9C,42,FF,83,F9,1F,0F,06,
920541,000000A9,false,Rx,0,8,BE,02,98,2F,1E,B2,80,F9,
920740,000000AA,false,Rx,0,8,39,22,1B,00,36,02,81,97,
922956,000000C4,false,Rx,0,7,00,80,FD,00,80,11,FF,00,
925261,000000BA,false,Rx,0,7,03,FF,0F,00,00,50,83,00,
925547,000000B5,false,Rx,0,8,AF,06,80,00,08,00,30,3B,
925648,000001A2,false,Rx,0,2,00,00,00,00,00,00,00,00,
930256,000000A8,false,Rx,0,8,9D,43,FF,83,F9,1F,0F,06,
930448,000000A9,false,Rx,0,8,BF,03,98,2F,1E,B2,80,F9,
930742,000000AA,false,Rx,0,8,3A,23,1B,00,36,02,81,97,
932956,000000C4,false,Rx,0,7,00,80,FD,00,80,39,FF,00,
934806,000000AE,false,Rx,0,6,19,4A,06,91,80,08,00,00,
934997,000000B6,false,Rx,0,5,38,08,80,00,F8,00,00,00,
935190,0000019E,false,Rx,0,8,00,69,3F,04,32,40,00,BE,
935474,000000B5,false,Rx,0,8,B0,07,80,00,08,00,30,3B,
935670,000000CE,false,Rx,0,8,00,00,00,00,00,00,00,00,
935870,000000CA,false,Rx,0,2,00,58,00,00,00,00,00,00,
936063,000002B2,false,Rx,0,6,09,09,07,07,15,00,00,00,
936255,000001A0,false,Rx,0,8,00,B0,FF,0F,00,FE,8F,EF,
936448,000000CB,false,Rx,0,6,01,58,80,FF,08,00,00,00,
937844,00000192,false,Rx,0,4,6A,00,80,FE,00,00,00,00,
940240,000000A8,false,Rx,0,8,9E,44,FF,83,F9,1F,0F,06,
940526,000000A9,false,Rx,0,8,C0,04,98,2F,1E,B2,80,F9,
940726,000000AA,false,Rx,0,8,3B,24,1B,00,36,02,81,97,
943033,000000C4,false,Rx,0,7,00,80,FD,00,80,61,FF,00,
945429,000000BA,false,Rx,0,7,03,FF,0F,00,00,51,84,00,
945723,000000B5,false,Rx,0,8,B1,08,80,00,08,00,30,3B,
945824,000001A2,false,Rx,0,2,00,00,00,00,00,00,00,00,
950220,000000A8,false,Rx,0,8,9F,45,FF,83,F9,1F,0F,06,
951356,000000A9,false,Rx,0,8,C1,05,98,2F,1E,B2,80,F9,
951463,000000AA,false,Rx,0,8,3C,25,1B,00,36,02,81,97,
952977,000000C4,false,Rx,0,7,00,80,FD,00,80,89,FF,00,
954642,000000B6,false,Rx,0,5,39,09,80,00,F8,00,00,00,
954843,000000AE,false,Rx,0,6,1A,4B,06,91,80,08,00,00,
955035,0000019E,false,Rx,0,8,00,69,3F,04,32,40,00,BE,
955319,000000CE,false,Rx,0,8,00,00,00,00,00,00,00,00,
955604,000000B5,false,Rx,0,8,B2,09,80,00,08,00,30,3B,
955713,000000CA,false,Rx,0,2,01,59,00,00,00,00,00,00,
955905,000002B2,false,Rx,0,6,09,09,07,07,15,00,00,00,
956187,000001A0,false,Rx,0,8,00,B0,00,00,00,FE,9F,F0,
956380,000000CB,false,Rx,0,6,00,59,00,00,08,00,00,00,
960068,000001D0,false,Rx,0,8,FF,3F,6B,CB,36,00,FD,C8,
960351,000000A8,false,Rx,0,8,A0,46,FF,83,F9,1F,0F,06,
960546,000000A9,false,Rx,0,8,C2,06,98,2F,1E,B2,80,F9,
960838,000000AA,false,Rx,0,8,3D,26,1B,00,36,02,81,97,
962962,000000C4,false,Rx,0,7,00,80,FD,00,80,B1,FF,00,
965359,000000BA,false,Rx,0,7,03,FF,0F,00,00,52,85,00,
965645,000000B5,false,Rx,0,8,B3,0A,80,00,08,00,30,3B,
965754,000001A2,false,Rx,0,2,00,00,00,00,00,00,00,00,
966677,00000192,false,Rx,0,4,6A,00,80,F1,00,00,00,00,
970274,000000A8,false,Rx,0,8,A1,47,FF,83,F9,1F,0F,06,
970467,000000A9,false,Rx,0,8,C3,07,98,2F,1E,B2,80,F9,
970758,000000AA,false,Rx,0,8,3E,27,1B,00,36,02,81,97,
972972,000000C4,false,Rx,0,7,00,80,FD,00,80,D9,FF,00,
974635,000000B6,false,Rx,0,5,3A,0A,80,00,F8,00,00,00,
974836,000000AE,false,Rx,0,6,1B,4C,06,91,80,08,00,00,
975120,0000019E,false,Rx,0,8,00,69,4F,04,32,40,00,CE,
975312,000000CE,false,Rx,0,8,00,00,00,00,00,00,00,00,
975597,000000B5,false,Rx,0,8,B4,0B,80,00,08,00,30,3B,
975698,000000CA,false,Rx,0,2,00,5A,00,00,00,00,00,00,
975896,000001A6,false,Rx,0,2,00,00,00,00,00,00,00,00,
975998,000001D2,false,Rx,0,5,E1,0C,8F,5D,F0,00,00,00,
976281,000002B2,false,Rx,0,6,09,09,07,07,05,00,00,00,
976474,000000CB,false,Rx,0,6,03,5A,81,00,08,00,00,00,
976670,000001A0,false,Rx,0,8,00,B0,FF,0F,00,FE,AF,10,
976871,00000492,false,Rx,0,8,18,42,FF,01,00,00,02,04,
979112,00000130,false,Rx,0,5,45,43,39,BF,58,00,00,00,
980263,000000A8,false,Rx,0,8,A2,48,FF,83,F9,1F,0F,06,
980456,000000A9,false,Rx,0,8,C4,08,98,2F,1E,B2,80,F9,
980747,000000AA,false,Rx,0,8,3F,28,1B,00,36,02,81,97,
981786,000001B4,false,Rx,0,8,00,10,E2,F0,55,02,8A,7B,
983172,000000C4,false,Rx,0,7,00,80,FD,00,80,01,FF,00,
985391,000000BA,false,Rx,0,7,03,FF,0F,00,00,53,86,00,
985587,000000B5,false,Rx,0,8,B5,0C,80,00,08,00,30,3B,
985688,000001A2,false,Rx,0,2,00,00,00,00,00,00,00,00,
990209,000000A8,false,Rx,0,8,A3,49,FF,83,F9,1F,0F,06,
990493,000000A9,false,Rx,0,8,C5,09,98,2F,1E,B2,80,F9,
990784,000000AA,false,Rx,0,8,40,29,1B,00,36,02,81,97,
993001,000000C4,false,Rx,0,7,00,80,FD,00,80,29,FF,00,
994661,000000B6,false,Rx,0,5,3B,0B,80,00,F8,00,00,00,
994860,000000AE,false,Rx,0,6,1C,4D,06,91,80,08,00,00,
995052,0000019E,false,Rx,0,8,00,69,4F,04,32,40,00,CE,
995336,000000B5,false,Rx,0,8,B6,0D,80,00,08,00,30,3B,
995624,000000CE,false,Rx,0,8,00,00,00,00,00,00,00,00,
995732,000000CA,false,Rx,0,2,01,5B,00,00,00,00,00,00,
995923,00000192,false,Rx,0,4,6A,00,80,F2,00,00,00,00,
996297,000000CB,false,Rx,0,6,00,5B,02,00,08,00,00,00,
996490,000002B2,false,Rx,0,6,09,09,07,07,05,00,00,00,
996780,000001A0,false,Rx,0,8,00,B0,00,00,00,FE,BF,11,
1000189,000000A8,false,Rx,0,8,A4,4A,FF,83,F9,1F,0F,06,
1000473,000000A9,false,Rx,0,8,C6,0A,98,2F,1E,B2,80,F9,
1000777,000000AA,false,Rx,0,8,41,2A,1B,00,36,02,81,97,
1003263,000000C4,false,Rx,0,7,00,80,FD,00,80,51,FF,00,
1005415,000000BA,false,Rx,0,7,03,FF,0F,00,00,54,87,00,
1005711,000000B5,false,Rx,0,8,B7,0E,80,00,08,00,30,3B,
1005813,000001A2,false,Rx,0,2,00,00,00,00,00,00,00,00,
1010248,000000A8,false,Rx,0,8,A5,4B,FF,83,F9,1F,0F,06,
1010533,000000A9,false,Rx,0,8,C7,0B,98,2F,1E,B2,80,F9,
1010734,000000AA,false,Rx,0,8,42,2B,1B,00,36,02,81,97,
1012957,000000C4,false,Rx,0,7,00,80,FD,00,80,79,FF,00,
1014638,000000B6,false,Rx,0,5,3C,0C,80,00,F8,00,00,00,
1014840,000000AE,false,Rx,0,6,1D,4E,06,91,80,08,00,00,
1015124,0000019E,false,Rx,0,8,00,69,4F,04,32,40,00,CE,
1015318,000000CE,false,Rx,0,8,00,00,00,00,00,00,00,00,
1015606,000000B5,false,Rx,0,8,A9,00,80,00,08,00,30,3B,
1015715,000000CA,false,Rx,0,2,00,5C,00,00,00,00,00,00,
1015908,000002B2,false,Rx,0,6,09,09,07,07,25,00,00,00,
1016101,000001A0,false,Rx,0,8,00,B0,FF,0F,00,FE,CF,30,
1016386,000000CB,false,Rx,0,6,01,5C,80,FF,08,00,00,00,
1016862,00000194,false,Rx,0,4,76,F8,80,FC,00,00,00,00,
1020187,000000A8,false,Rx,0,8,A6,4C,FF,83,F9,1F,0F,06,
1020472,000000A9,false,Rx,0,8,C8,0C,98,2F,1E,B2,80,F9,
1020767,000000AA,false,Rx,0,8,43,2C,1B,00,36,02,81,97,
1023171,000000C4,false,Rx,0,7,00,80,FD,00,80,A1,FF,00,
1024381,00000192,false,Rx,0,4,6A,00,80,F3,00,00,00,00,
1025406,000000BA,false,Rx,0,7,03,FF,0F,00,00,55,88,00,
1025600,000000B5,false,Rx,0,8,AA,01,80,00,08,00,30,3B,
1025801,000001A2,false,Rx,0,2,00,00,00,00,00,00,00,00,
1030238,000000A8,false,Rx,0,8,A7,4D,FF,83,F9,1F,0F,06,
1030526,000000A9,false,Rx,0,8,C9,0D,98,2F,1E,B2,80,F9,
1030727,000000AA,false,Rx,0,8,44,2D,1B,00,36,02,81,97,
1032951,000000C4,false,Rx,0,7,00,80,FD,00,80,C9,FF,00,
1034716,000000B6,false,Rx,0,5,3D,0D,80,00,F8,00,00,00,
1034910,000000AE,false,Rx,0,6,10,40,06,91,80,09,00,00,
1035103,0000019E,false,Rx,0,8,00,69,4F,04,32,40,00,CE,
1035388,000000CE,false,Rx,0,8,00,00,00,00,00,00,00,00,
1035585,000000B5,false,Rx,0,8,AB,02,80,00,08,00,30,3B,
1035786,000000CA,false,Rx,0,2,01,5D,00,00,00,00,00,00,
1035979,00000200,false,Rx,0,8,00,80,FC,02,00,00,00,00,
1036172,000002B2,false,Rx,0,6,09,09,07,07,25,00,00,00,
1036365,000000CB,false,Rx,0,6,00,5D,FF,FF,08,00,00,00,
1036655,000001A0,false,Rx,0,8,00,B0,FF,0F,00,FF,DF,41,
1040265,000000A8,false,Rx,0,8,A8,4E,FF,83,F9,1F,0F,06,
1040458,000000A9,false,Rx,0,8,CA,0E,98,2F,1E,B2,80,F9,
1040752,000000AA,false,Rx,0,8,45,2E,1B,00,36,02,81,97,
1041587,00000334,false,Rx,0,3,D8,FC,42,00,00,00,00,00,
1042985,000000C4,false,Rx,0,7,00,80,FD,00,80,F1,FF,00,
1045388,000000BA,false,Rx,0,7,03,FF,0F,00,00,56,89,00,
1045585,000000B5,false,Rx,0,8,AC,03,80,00,08,00,30,3B,
1045685,000001A2,false,Rx,0,2,00,00,00,00,00,00,00,00,
1050218,000000A8,false,Rx,0,8,9A,40,FF,83,F9,1F,0F,06,
1050504,000000A9,false,Rx,0,8,BC,00,98,2F,1E,B2,80,F9,
1050795,000000AA,false,Rx,0,8,37,20,1B,00,36,02,81,97,
1053184,000000C4,false,Rx,0,7,00,80,FD,00,80,19,FF,00,
1053606,00000192,false,Rx,0,4,6A,00,80,F4,00,00,00,00,
1054728,000000B6,false,Rx,0,5,3E,0E,80,00,F8,00,00,00,
1054921,000000AE,false,Rx,0,6,11,41,06,91,80,09,00,00,
1055113,0000019E,false,Rx,0,8,00,69,4F,04,32,40,00,CE,
1055306,000000B5,false,Rx,0,8,AD,04,80,00,08,00,30,3B,
1055592,000000CE,false,Rx,0,8,00,00,00,00,00,00,00,00,
1055693,000000CA,false,Rx,0,2,00,5E,00,00,00,00,00,00,
1055983,000002B2,false,Rx,0,6,09,09,07,07,F5,FF,00,00,
1056176,000000CB,false,Rx,0,6,03,5E,81,00,08,00,00,00,
1056369,000001A0,false,Rx,0,8,00,B0,00,00,00,00,E0,33,
1057855,000001D6,false,Rx,0,2,C0,00,00,00,00,00,00,00,
1060068,000001D0,false,Rx,0,8,FF,3F,6C,CB,36,00,FD,C8,
1060261,000000A8,false,Rx,0,8,9B,41,FF,83,F9,1F,0F,06,
1060547,000000A9,false,Rx,0,8,BD,01,98,2F,1E,B2,80,F9,
1060839,000000AA,false,Rx,0,8,38,21,1B,00,36,02,81,97,
1062962,000000C4,false,Rx,0,7,00,80,FD,00,80,41,FF,00,
1065451,000000BA,false,Rx,0,7,03,FF,0F,00,00,57,8A,00,
1065646,000000B5,false,Rx,0,8,AE,05,80,00,08,00,30,3B,
1065755,000001A2,false,Rx,0,2,00,00,00,00,00,00,00,00,
1070262,000000A8,false,Rx,0,8,9C,42,FF,83,F9,1F,0F,06,
1070455,000000A9,false,Rx,0,8,BE,02,98,2F,1E,B2,80,F9,
1070746,000000AA,false,Rx,0,8,39,22,1B,00,36,02,81,97,
1073235,000000C4,false,Rx,0,7,00,80,FD,00,80,69,FF,00,
1074623,000000B6,false,Rx,0,5,30,00,80,00,F8,00,00,00,
1074915,0000019E,false,Rx,0,8,00,69,4F,04,32,40,00,CE,
1075108,000000AE,false,Rx,0,6,12,42,06,91,80,09,00,00,
1075391,000000CE,false,Rx,0,8,00,00,00,00,00,00,00,00,
1075587,000000B5,false,Rx,0,8,AF,06,80,00,08,00,30,3B,
1075688,000000CA,false,Rx,0,2,01,5F,00,00,00,00,00,00,
1075889,000001A6,false,Rx,0,2,00,00,00,00,00,00,00,00,
1076081,000002B2,false,Rx,0,6,09,09,07,07,F5,FF,00,00,
1076273,000001A0,false,Rx,0,8,00,B0,FF,0F,00,FF,0F,70,
1076466,000000CB,false,Rx,0,6,00,5F,01,00,08,00,00,00,
1076759,00000498,false,Rx,0,8,29,42,FF,FF,FF,FF,FF,FF,
1079064,00000130,false,Rx,0,5,45,43,39,BF,69,00,00,00,
1080268,000000A8,false,Rx,0,8,9D,43,FF,83,F9,1F,0F,06,
1080461,000000A9,false,Rx,0,8,BF,03,98,2F,1E,B2,80,F9,
1080785,000002FC,false,Rx,0,7,81,01,00,FF,FF,FF,FF,00,
1080977,000000AA,false,Rx,0,8,3A,23,1B,00,36,02,81,97,
1081818,000001B4,false,Rx,0,8,00,10,E2,F1,55,02,8A,7C,
1083042,000000C4,false,Rx,0,7,00,80,FD,00,80,91,FF,00,
1083600,00000192,false,Rx,0,4,6A,00,80,F5,00,00,00,00,
1085360,000000BA,false,Rx,0,7,03,FF,0F,00,00,58,8B,00,
1085555,000000B5,false,Rx,0,8,B0,07,80,00,08,00,30,3B,
1085755,000001A2,false,Rx,0,2,00,00,00,00,00,00,00,00,
1090264,000000A8,false,Rx,0,8,9E,44,FF,83,F9,1F,0F,06,
1090457,000000A9,false,Rx,0,8,C0,04,98,2F,1E,B2,80,F9,
1090748,000000AA,false,Rx,0,8,38,24,1B,00,33,02,81,97,
1092962,000000C4,false,Rx,0,7,00,80,FD,00,80,B9,FF,00,
1094722,000000B6,false,Rx,0,5,31,01,80,00,F8,00,00,00,
1094915,0000019E,false,Rx,0,8,00,69,4F,04,32,40,00,CE,
1095107,000000AE,false,Rx,0,6,13,43,06,91,80,09,00,00,
1095391,000000CE,false,Rx,0,8,00,00,00,00,00,00,00,00,
1095586,000000B5,false,Rx,0,8,B1,08,80,00,08,00,30,3B,
1095687,000000CA,false,Rx,0,2,00,60,00,00,00,00,00,00,
1095888,000002B2,false,Rx,0,6,09,09,07,07,15,00,00,00,
1096172,000000CB,false,Rx,0,6,01,60,80,FF,08,00,00,00,
1096364,000001A0,false,Rx,0,8,00,B0,FF,0F,00,FF,1F,80,
1100236,000000A8,false,Rx,0,8,9F,45,FF,83,F9,1F,0F,06,
1100524,000000A9,false,Rx,0,8,C1,05,98,2F,1E,B2,80,F9,
1100734,000000AA,false,Rx,0,8,39,25,1B,00,33,02,81,97,
1102951,000000C4,false,Rx,0,7,00,80,FD,00,80,E1,FF,00,
1105307,000000BA,false,Rx,0,7,03,FF,0F,00,00,59,8C,00,
1105606,000000B5,false,Rx,0,8,B2,09,80,00,08,00,30,3B,
1105715,000001A2,false,Rx,0,2,00,00,00,00,00,00,00,00,
1110241,000000A8,false,Rx,0,8,A0,46,FF,83,F9,1F,0F,06,
1110529,000000A9,false,Rx,0,8,C2,06,98,2F,1E,B2,80,F9,
1110730,000000AA,false,Rx,0,8,3A,26,1B,00,33,02,81,97,
1112951,000000C4,false,Rx,0,7,00,80,FD,00,80,09,FF,00,
1113602,00000192,false,Rx,0,4,6A,00,80,F6,00,00,00,00,
1114738,000000B6,false,Rx,0,5,32,02,80,00,F8,00,00,00,
1114931,000000AE,false,Rx,0,6,14,44,06,91,80,09,00,00,
1115216,0000019E,false,Rx,0,8,00,69,4F,04,32,40,00,CE,
1115411,000000B5,false,Rx,0,8,B3,0A,80,00,08,00,30,3B,
1115698,000000CE,false,Rx,0,8,00,00,00,00,00,00,00,00,
1115806,000000CA,false,Rx,0,2,01,61,00,00,00,00,00,00,
1115998,000002B2,false,Rx,0,6,09,09,07,07,15,00,00,00,
1116282,000001A0,false,Rx,0,8,00,B0,00,00,00,FF,2F,81,
1116475,000000CB,false,Rx,0,6,00,61,00,00,09,00,00,00,
1120179,000000A8,false,Rx,0,8,A1,47,FF,83,F9,1F,0F,06,
1120748,000000A9,false,Rx,0,8,C3,07,98,2F,1E,B2,80,F9,
1121033,000000AA,false,Rx,0,8,3B,27,1B,00,33,02,81,97,
1123255,000000C4,false,Rx,0,7,00,80,FD,00,80,31,FF,00,
1123448,000002FA,false,Rx,0,5,E0,E3,E3,FF,E3,00,00,00,
1125399,000000BA,false,Rx,0,7,03,FF,0F,00,00,5A,8D,00,
1125594,000000B5,false,Rx,0,8,B4,0B,80,00,08,00,30,3B,
1125794,000001A2,false,Rx,0,2,00,00,00,00,00,00,00,00,
1130231,000000A8,false,Rx,0,8,A2,48,FF,83,F9,1F,0F,06,
1130520,000000A9,false,Rx,0,8,C4,08,98,2F,1E,B2,80,F9,
1130719,000000AA,false,Rx,0,8,3C,28,1B,00,33,02,81,97,
1133399,000000C4,false,Rx,0,7,00,80,FD,00,80,5B,FF,00,
1134699,000000B6,false,Rx,0,5,33,03,80,00,F8,00,00,00,
1134899,0000019E,false,Rx,0,8,00,69,4F,04,32,40,00,CE,
1135092,000000AE,false,Rx,0,6,15,45,06,91,80,09,00,00,
1135564,000000B5,false,Rx,0,8,B5,0C,80,00,08,00,30,3B,
1135857,000000CE,false,Rx,0,8,00,00,00,00,00,00,00,00,
1135958,000000CA,false,Rx,0,2,00,62,00,00,00,00,00,00,
1136151,000002B2,false,Rx,0,6,09,09,07,07,05,00,00,00,
1136436,000001A0,false,Rx,0,8,00,B0,FF,0F,00,FE,3F,9F,
1136630,000000CB,false,Rx,0,6,03,62,81,00,08,00,00,00,
1140239,000000A8,false,Rx,0,8,A3,49,FF,83,F9,1F,0F,06,
1140526,000000A9,false,Rx,0,8,C5,09,98,2F,1E,B2,80,F9,
1140727,000000AA,false,Rx,0,8,3D,29,1B,00,33,02,81,97,
1143134,000000C4,false,Rx,0,7,00,80,FD,00,80,81,FF,00,
1143511,00000192,false,Rx,0,4,6A,00,80,F7,00,00,00,00,
1145272,000000BA,false,Rx,0,7,03,FF,0F,00,00,5B,8E,00,
1145559,000000B5,false,Rx,0,8,B6,0D,80,00,08,00,30,3B,
1145661,000001A2,false,Rx,0,2,00,00,00,00,00,00,00,00,
1150193,000000A8,false,Rx,0,8,A4,4A,FF,83,F9,1F,0F,06,
1150479,000000A9,false,Rx,0,8,C6,0A,98,2F,1E,B2,80,F9,
1150773,000000AA,false,Rx,0,8,3E,2A,1B,00,33,02,81,97,
1153179,000000C4,false,Rx,0,7,00,80,FD,00,80,A9,FF,00,
1154734,000000B6,false,Rx,0,5,34,04,80,00,F8,00,00,00,
1154956,0000019E,false,Rx,0,8,00,69,4F,04,32,40,00,CE,
1155063,000000AE,false,Rx,0,6,16,46,06,91,80,09,00,00,
1155347,000000CE,false,Rx,0,8,00,00,00,00,00,00,00,00,
1155544,000000B5,false,Rx,0,8,B7,0E,80,00,08,00,30,3B,
1155743,000000CA,false,Rx,0,2,01,63,00,00,00,00,00,00,
1155935,000002B2,false,Rx,0,6,09,09,07,07,05,00,00,00,
1156128,000001A0,false,Rx,0,8,00,B0,00,00,00,FE,4F,A0,
1156412,000000CB,false,Rx,0,6,00,63,01,00,08,00,00,00,
1160014,000001D0,false,Rx,0,8,FF,3F,6D,CB,36,00,FD,C8,
1160297,000000A8,false,Rx,0,8,A5,4B,FF,83,F9,1F,0F,06,
1160584,000000A9,false,Rx,0,8,C7,0B,98,2F,1E,B2,80,F9,
1160785,000000AA,false,Rx,0,8,3F,2B,1B,00,33,02,81,97,
1163642,000000C4,false,Rx,0,7,00,80,FD,00,80,D3,FF,00,
1165400,000000BA,false,Rx,0,7,03,FF,0F,00,00,4D,80,00,
1165594,000000B5,false,Rx,0,8,A9,00,80,00,08,00,30,3B,
1165793,000001A2,false,Rx,0,2,00,00,00,00,00,00,00,00,
1170230,000000A8,false,Rx,0,8,A6,4C,FF,83,F9,1F,0F,06,
1170516,000000A9,false,Rx,0,8,C8,0C,98,2F,1E,B2,80,F9,
1170717,000000AA,false,Rx,0,8,40,2C,1B,00,33,02,81,97,
1172936,000000C4,false,Rx,0,7,00,80,FD,00,80,F9,FF,00,
1173585,00000192,false,Rx,0,4,6A,00,80,F8,00,00,00,00,
1174696,000000B6,false,Rx,0,5,35,05,80,00,F8,00,00,00,
1174896,0000019E,false,Rx,0,8,00,69,5F,04,32,40,00,DE,
1175089,000000AE,false,Rx,0,6,17,47,06,91,80,09,00,00,
1175373,000000CE,false,Rx,0,8,00,00,00,00,00,00,00,00,
1175474,000000CA,false,Rx,0,2,00,64,00,00,00,00,00,00,
1175670,000002B2,false,Rx,0,6,09,09,07,07,15,00,00,00,
1175871,000001A0,false,Rx,0,8,00,B0,FF,0F,00,FE,5F,BF,
1176155,000000B5,false,Rx,0,8,AA,01,80,00,08,00,30,3B,
1176347,000000CB,false,Rx,0,6,01,64,80,FF,08,00,00,00,
1176545,000001D2,false,Rx,0,5,E1,0C,8F,6D,F0,00,00,00,
1176743,00000374,false,Rx,0,5,80,80,80,80,FC,00,00,00,
1176844,000001A6,false,Rx,0,2,00,00,00,00,00,00,00,00,
1177128,000004A9,false,Rx,0,8,2A,42,FF,FF,FF,FF,FF,FF,
1178330,00000130,false,Rx,0,5,45,43,39,BF,7A,00,00,00,
1180183,000000A8,false,Rx,0,8,A7,4D,FF,83,F9,1F,0F,06,
1180467,000000A9,false,Rx,0,8,C9,0D,98,2F,1E,B2,80,F9,
1180761,000000AA,false,Rx,0,8,41,2D,1B,00,33,02,81,97,
1181683,000001B4,false,Rx,0,8,00,10,E2,F2,55,02,8A,7D,
1183198,000000C4,false,Rx,0,7,00,80,FD,00,80,22,FF,00,
1185425,000000BA,false,Rx,0,7,03,FF,0F,00,00,4E,81,00,
1185619,000000B5,false,Rx,0,8,AB,02,80,00,08,00,30,3B,
1185726,000001A2,false,Rx,0,2,00,00,00,00,00,00,00,00,
1190237,000000A8,false,Rx,0,8,A8,4E,FF,83,F9,1F,0F,06,
1190525,000000A9,false,Rx,0,8,CA,0E,98,2F,1E,B2,80,F9,
1190725,000000AA,false,Rx,0,8,45,2E,1B,00,36,02,81,97,
1193671,000000C4,false,Rx,0,7,00,80,FD,00,80,4B,FF,00,
1194601,000000B6,false,Rx,0,5,36,06,80,00,F8,00,00,00,
1194893,0000019E,false,Rx,0,8,00,69,5F,04,32,40,00,DE,
1195086,000000AE,false,Rx,0,6,18,48,06,91,80,09,00,00,
1195279,000000CE,false,Rx,0,8,00,00,00,00,00,00,00,00,
1195846,000000B5,false,Rx,0,8,AC,03,80,00,08,00,30,3B,
1195947,000000CA,false,Rx,0,2,01,65,00,00,00,00,00,00,
1196140,000002B2,false,Rx,0,6,09,09,07,07,15,00,00,00,
1196422,000001A0,false,Rx,0,8,00,B0,FF,0F,00,FE,6F,CF,
1196634,000000CB,false,Rx,0,6,00,65,FF,FF,08,00,00,00,
1200206,000000A8,false,Rx,0,8,9A,40,FF,83,F9,1F,0F,06,
1200492,000000A9,false,Rx,0,8,BC,00,98,2F,1E,B2,80,F9,
1200787,000000AA,false,Rx,0,8,37,20,1B,00,36,02,81,97,
1202846,00000192,false,Rx,0,4,6A,00,80,F9,00,00,00,00,
1203223,000000C4,false,Rx,0,7,00,80,FD,00,80,71,FF,00,
1205654,000000BA,false,Rx,0,7,03,FF,0F,00,00,4F,82,00,
1205771,000000B5,false,Rx,0,8,AD,04,80,00,08,00,30,3B,
1205866,000001A2,false,Rx,0,2,00,00,00,00,00,00,00,00,
1210225,000000A8,false,Rx,0,8,9B,41,FF,83,F9,1F,0F,06,
1210511,000000A9,false,Rx,0,8,BD,01,98,2F,1E,B2,80,F9,
1210711,000000AA,false,Rx,0,8,38,21,1B,00,36,02,81,97,
1212929,000000C4,false,Rx,0,7,00,80,FD,00,80,99,FF,00,
1214784,000000B6,false,Rx,0,5,37,07,80,00,F8,00,00,00,
1215068,0000019E,false,Rx,0,8,00,69,5F,04,32,40,00,DE,
1215261,000000AE,false,Rx,0,6,19,49,06,91,80,09,00,00,
1215454,000000B5,false,Rx,0,8,AE,05,80,00,08,00,30,3B,
1215748,000000CE,false,Rx,0,8,00,00,00,00,00,00,00,00,
1215849,000000CA,false,Rx,0,2,00,66,00,00,00,00,00,00,
1216042,000002B2,false,Rx,0,6,09,09,07,07,F5,FF,00,00,
1216325,000001A0,false,Rx,0,8,00,B0,00,00,00,FE,7F,D0,
1216520,000000CB,false,Rx,0,6,03,66,82,00,08,00,00,00,
1217266,00000194,false,Rx,0,4,77,F9,80,FC,00,00,00,00,
1220220,000000A8,false,Rx,0,8,9C,42,FF,83,F9,1F,0F,06,
1220506,000000A9,false,Rx,0,8,BE,02,98,2F,1E,B2,80,F9,
1220699,000000AA,false,Rx,0,8,39,22,1B,00,36,02,81,97,
1223655,000000C4,false,Rx,0,7,00,80,FD,00,80,C2,FF,00,
1225411,000000BA,false,Rx,0,7,03,FF,0F,00,00,50,83,00,
1225606,000000B5,false,Rx,0,8,AF,06,80,00,08,00,30,3B,
1225805,000001A2,false,Rx,0,2,00,00,00,00,00,00,00,00,
1230224,000000A8,false,Rx,0,8,9D,43,FF,83,F9,1F,0F,06,
1230510,000000A9,false,Rx,0,8,BF,03,98,2F,1E,B2,80,F9,
1230711,000000AA,false,Rx,0,8,3A,23,1B,00,36,02,81,97,
1231826,00000192,false,Rx,0,4,6A,00,80,FA,00,00,00,00,
1233768,000000C4,false,Rx,0,7,00,80,FD,00,80,EB,FF,00,
1234690,000000B6,false,Rx,0,5,38,08,80,00,F8,00,00,00,
1234892,0000019E,false,Rx,0,8,00,69,5F,04,32,40,00,DE,
1235176,000000CE,false,Rx,0,8,00,00,00,00,00,00,00,00,
1235367,000000AE,false,Rx,0,6,1B,4A,06,91,80,0A,00,00,
1235563,000000B5,false,Rx,0,8,B0,07,80,00,08,00,30,3B,
1235762,000000CA,false,Rx,0,2,01,67,00,00,00,00,00,00,
1235954,00000200,false,Rx,0,8,00,80,FC,03,00,00,00,00,
1236147,000002B2,false,Rx,0,6,09,09,07,07,F5,FF,00,00,
1236339,000000CB,false,Rx,0,6,00,67,00,00,09,00,00,00,
1236625,000001A0,false,Rx,0,8,00,B0,FF,0F,00,FE,8F,EF,
1240497,000000A8,false,Rx,0,8,9E,44,FF,83,F9,1F,0F,06,
1240690,000000A9,false,Rx,0,8,C0,04,98,2F,1E,B2,80,F9,
1240982,000000AA,false,Rx,0,8,3B,24,1B,00,36,02,81,97,
1242923,000000C4,false,Rx,0,7,00,80,FD,00,80,11,FF,00,
1245411,000000BA,false,Rx,0,7,03,FF,0F,00,00,51,84,00,
1245697,000000B5,false,Rx,0,8,B1,08,80,00,08,00,30,3B,
1245806,000001A2,false,Rx,0,2,00,00,00,00,00,00,00,00,
1250225,000000A8,false,Rx,0,8,9F,45,FF,83,F9,1F,0F,06,
1250514,000000A9,false,Rx,0,8,C1,05,98,2F,1E,B2,80,F9,
1250713,000000AA,false,Rx,0,8,3C,25,1B,00,36,02,81,97,
1252930,000000C4,false,Rx,0,7,00,80,FD,00,80,39,FF,00,
1254681,000000B6,false,Rx,0,5,39,09,80,00,F8,00,00,00,
1254882,0000019E,false,Rx,0,8,00,69,5F,04,32,40,00,DE,
1255074,000000AE,false,Rx,0,6,1C,4B,06,91,80,0A,00,00,
1255358,000000CE,false,Rx,0,8,00,00,00,00,00,00,00,00,
1255553,000000B5,false,Rx,0,8,B2,09,80,00,08,00,30,3B,
1256518,000000CA,false,Rx,0,2,00,68,00,00,00,00,00,00,
1256631,000002B2,false,Rx,0,6,09,09,07,07,05,00,00,00,
1256751,000001A0,false,Rx,0,8,00,B0,00,00,00,FE,9F,F0,
1256866,000000CB,false,Rx,0,6,01,68,80,FF,08,00,00,00,
1260034,000001D0,false,Rx,0,8,FF,3F,6E,CB,36,00,FD,C8,
1260319,000000A8,false,Rx,0,8,A0,46,FF,83,F9,1F,0F,06,
1260514,000000A9,false,Rx,0,8,C2,06,98,2F,1E,B2,80,F9,
1260806,000000AA,false,Rx,0,8,3D,26,1B,00,36,02,81,97,
1261742,00000192,false,Rx,0,4,6A,00,80,FB,00,00,00,00,
1262949,000000C4,false,Rx,0,7,00,80,FD,00,80,61,FF,00,
1265354,000000BA,false,Rx,0,7,03,FF,0F,00,00,52,85,00,
1265643,000000B5,false,Rx,0,8,B3,0A,80,00,08,00,30,3B,
1265752,000001A2,false,Rx,0,2,00,00,00,00,00,00,00,00,
1265945,000004AA,false,Rx,0,8,00,42,FF,FF,FF,FF,FF,FF,
1270198,000000A8,false,Rx,0,8,A1,47,FF,83,F9,1F,0F,06,
1270483,000000A9,false,Rx,0,8,C3,07,98,2F,1E,B2,80,F9,
1270778,000000AA,false,Rx,0,8,3E,27,1B,00,36,02,81,97,
1272907,000000C4,false,Rx,0,7,00,80,FD,00,80,89,FF,00,
1274665,000000B6,false,Rx,0,5,3A,0A,80,00,F8,00,00,00,
1274866,0000019E,false,Rx,0,8,00,69,5F,04,32,40,00,DE,
1275151,000000CE,false,Rx,0,8,00,00,00,00,00,00,00,00,
1275345,000000AE,false,Rx,0,6,1D,4C,06,91,80,0A,00,00,
1275539,000000B5,false,Rx,0,8,B4,0B,80,00,08,00,30,3B,
1275641,000000CA,false,Rx,0,2,01,69,00,00,00,00,00,00,
1275841,000001A6,false,Rx,0,2,00,00,00,00,00,00,00,00,
1276033,000002B2,false,Rx,0,6,09,09,07,07,05,00,00,00,
1276225,000000CB,false,Rx,0,6,00,69,FF,FF,08,00,00,00,
1276419,000001A0,false,Rx,0,8,00,B0,FF,0F,00,FE,AF,10,
1279109,00000130,false,Rx,0,5,45,43,39,BF,8B,00,00,00,
1280224,000000A8,false,Rx,0,8,A2,48,FF,83,F9,1F,0F,06,
1280514,000000A9,false,Rx,0,8,C4,08,98,2F,1E,B2,80,F9,
1280716,000001B4,false,Rx,0,8,00,10,E2,F3,55,02,8A,7E,
1280909,000000AA,false,Rx,0,8,3F,28,1B,00,36,02,81,97,
1282951,000000C4,false,Rx,0,7,00,80,FD,00,80,B1,FF,00,
1285354,000000BA,false,Rx,0,7,03,FF,0F,00,00,53,86,00,
1285556,000000B5,false,Rx,0,8,B5,0C,80,00,08,00,30,3B,
1285672,000001A2,false,Rx,0,2,00,00,00,00,00,00,00,00,
1290127,00000192,false,Rx,0,4,6A,00,80,FC,00,00,00,00,
1290321,000000A8,false,Rx,0,8,A3,49,FF,83,F9,1F,0F,06,
1290607,000000A9,false,Rx,0,8,C5,09,98,2F,1E,B2,80,F9,
1290899,000000AA,false,Rx,0,8,40,29,1B,00,36,02,81,97,
1292939,000000C4,false,Rx,0,7,00,80,FD,00,80,D9,FF,00,
1294696,000000B6,false,Rx,0,5,3B,0B,80,00,F8,00,00,00,
1294897,0000019E,false,Rx,0,8,00,69,5F,04,32,40,00,DE,
1295183,000000CE,false,Rx,0,8,00,00,00,00,00,00,00,00,
1295375,000000AE,false,Rx,0,6,1E,4D,06,91,80,0A,00,00,
1295570,000000B5,false,Rx,0,8,B6,0D,80,00,08,00,30,3B,
1295672,000000CA,false,Rx,0,2,00,6A,00,00,00,00,00,00,
1295873,000002B2,false,Rx,0,6,09,09,07,07,F5,FF,00,00,
1296157,000001A0,false,Rx,0,8,00,B0,FF,0F,00,FE,BF,20,
1296350,000000CB,false,Rx,0,6,03,6A,81,00,08,00,00,00,
1300238,000000A8,false,Rx,0,8,A4,4A,FF,83,F9,1F,0F,06,
1300431,000000A9,false,Rx,0,8,C6,0A,98,2F,1E,B2,80,F9,
1300726,000000AA,false,Rx,0,8,41,2A,1B,00,36,02,81,97,
1303141,000000C4,false,Rx,0,7,00,80,FD,00,80,01,FF,00,
1305363,000000BA,false,Rx,0,7,03,FF,0F,00,00,54,87,00,
1305659,000000B5,false,Rx,0,8,B7,0E,80,00,08,00,30,3B,
1305768,000001A2,false,Rx,0,2,00,00,00,00,00,00,00,00,
1310216,000000A8,false,Rx,0,8,A5,4B,FF,83,F9,1F,0F,06,
1310509,000000A9,false,Rx,0,8,C7,0B,98,2F,1E,B2,80,F9,
1310709,000000AA,false,Rx,0,8,42,2B,1B,00,36,02,81,97,
1313015,000000C4,false,Rx,0,7,00,80,FD,00,80,29,FF,00,
1314684,000000B6,false,Rx,0,5,3C,0C,80,00,F8,00,00,00,
1314884,0000019E,false,Rx,0,8,00,69,5F,04,32,40,00,DE,
1315168,000000CE,false,Rx,0,8,00,00,00,00,00,00,00,00,
1315361,000000AE,false,Rx,0,6,1F,4E,06,91,80,0A,00,00,
1315649,000000B5,false,Rx,0,8,A9,00,80,00,08,00,30,3B,
1315759,000000CA,false,Rx,0,2,01,6B,00,00,00,00,00,00,
1315951,000002B2,false,Rx,0,6,09,09,07,07,F5,FF,00,00,
1316143,000000CB,false,Rx,0,6,00,6B,01,00,08,00,00,00,
1316425,000001A0,false,Rx,0,8,00,B0,00,00,00,FE,CF,21,
1319850,00000192,false,Rx,0,4,6A,00,80,FD,00,00,00,00,
1320316,000000A8,false,Rx,0,8,A6,4C,FF,83,F9,1F,0F,06,
1320601,000000A9,false,Rx,0,8,C8,0C,98,2F,1E,B2,80,F9,
1320892,000000AA,false,Rx,0,8,43,2C,1B,00,36,02,81,97,
1322929,000000C4,false,Rx,0,7,00,80,FD,00,80,51,FF,00,
1325417,000000BA,false,Rx,0,7,03,FF,0F,00,00,55,88,00,
1325711,000000B5,false,Rx,0,8,AA,01,80,00,08,00,30,3B,
1325813,000001A2,false,Rx,0,2,00,00,00,00,00,00,00,00,
1330231,000000A8,false,Rx,0,8,A7,4D,FF,83,F9,1F,0F,06,
1330515,000000A9,false,Rx,0,8,C9,0D,98,2F,1E,B2,80,F9,
1330716,000000AA,false,Rx,0,8,44,2D,1B,00,36,02,81,97,
1333020,000000C4,false,Rx,0,7,00,80,FD,00,80,79,FF,00,
1334589,000000B6,false,Rx,0,5,3D,0D,80,00,F8,00,00,00,
1334880,0000019E,false,Rx,0,8,00,69,5F,04,32,40,00,DE,
1335072,000000CE,false,Rx,0,8,00,00,00,00,00,00,00,00,
1335354,000000AE,false,Rx,0,6,11,40,06,91,80,0A,00,00,
1335548,000000B5,false,Rx,0,8,AB,02,80,00,08,00,30,3B,
1335650,000000CA,false,Rx,0,2,00,6C,00,00,00,00,00,00,
1335850,000002B2,false,Rx,0,6,09,09,07,07,15,00,00,00,
1336133,000001A0,false,Rx,0,8,00,B0,FF,0F,00,FE,DF,40,
1336326,000000CB,false,Rx,0,6,01,6C,80,FF,08,00,00,00,
1340202,000000A8,false,Rx,0,8,A8,4E,FF,83,F9,1F,0F,06,
1340486,000000A9,false,Rx,0,8,CA,0E,98,2F,1E,B2,80,F9,
1340780,000000AA,false,Rx,0,8,45,2E,1B,00,36,02,81,97,
1342995,000000C4,false,Rx,0,7,00,80,FD,00,80,A1,FF,00,
1345208,000000BA,false,Rx,0,7,03,FF,0F,00,00,56,89,00,
1345492,000000B5,false,Rx,0,8,AC,03,80,00,08,00,30,3B,
1345595,000001A2,false,Rx,0,2,00,00,00,00,00,00,00,00,
1345886,00000480,false,Rx,0,8,12,42,FF,01,00,00,02,04,
1349664,00000192,false,Rx,0,4,6A,00,80,FE,00,00,00,00,
1350228,000000A8,false,Rx,0,8,9A,40,FF,83,F9,1F,0F,06,
1350515,000000A9,false,Rx,0,8,BC,00,98,2F,1E,B2,80,F9,
1350715,000000AA,false,Rx,0,8,37,20,1B,00,36,02,81,97,
1353203,000000C4,false,Rx,0,7,00,80,FD,00,80,C9,FF,00,
1354681,000000B6,false,Rx,0,5,3E,0E,80,00,F8,00,00,00,
1354881,0000019E,false,Rx,0,8,00,69,5F,04,32,40,00,DE,
1355164,000000CE,false,Rx,0,8,00,00,00,00,00,00,00,00,
1355357,000000AE,false,Rx,0,6,12,41,06,91,80,0A,00,00,
1355642,000000B5,false,Rx,0,8,AD,04,80,00,08,00,30,3B,
1355752,000000CA,false,Rx,0,2,01,6D,00,00,00,00,00,00,
1355944,000002B2,false,Rx,0,6,09,09,07,07,15,00,00,00,
1356227,000001A0,false,Rx,0,8,00,B0,FF,0F,00,FE,EF,50,
1356419,000000CB,false,Rx,0,6,00,6D,FF,FF,08,00,00,00,
1360049,000001D0,false,Rx,0,8,FF,3F,60,CB,36,00,FD,C8,
1360255,000000A8,false,Rx,0,8,9B,41,FF,83,F9,1F,0F,06,
1360541,000000A9,false,Rx,0,8,BD,01,98,2F,1E,B2,80,F9,
1360834,000000AA,false,Rx,0,8,38,21,1B,00,36,02,81,97,
1362966,000000C4,false,Rx,0,7,00,80,FD,00,80,F1,FF,00,
1365460,000000BA,false,Rx,0,7,03,FF,0F,00,00,57,8A,00,
1365655,000000B5,false,Rx,0,8,AE,05,80,00,08,00,30,3B,
1365856,000001A2,false,Rx,0,2,00,00,00,00,00,00,00,00,
1370198,000000A8,false,Rx,0,8,9C,42,FF,83,F9,1F,0F,06,
1370483,000000A9,false,Rx,0,8,BE,02,98,2F,1E,B2,80,F9,
1370778,000000AA,false,Rx,0,8,39,22,1B,00,36,02,81,97,
1372998,000000C4,false,Rx,0,7,00,80,FD,00,80,19,FF,00,
1374664,000000B6,false,Rx,0,5,30,00,80,00,F8,00,00,00,
1374865,0000019E,false,Rx,0,8,00,69,6F,04,32,40,00,EE,
1375149,000000CE,false,Rx,0,8,00,00,00,00,00,00,00,00,
1375343,000000AE,false,Rx,0,6,13,42,06,91,80,0A,00,00,
1375444,000000CA,false,Rx,0,2,00,6E,00,00,00,00,00,00,
1375638,000001A6,false,Rx,0,2,00,00,00,00,00,00,00,00,
1375839,000000B5,false,Rx,0,8,AF,06,80,00,08,00,30,3B,
1376033,000001D2,false,Rx,0,5,E1,0C,8F,7D,F0,00,00,00,
1376225,000000CB,false,Rx,0,6,03,6E,81,00,09,00,00,00,
1376418,000002B2,false,Rx,0,6,09,09,07,07,F5,FF,00,00,
1376712,000001A0,false,Rx,0,8,00,B0,00,00,00,FE,0F,60,
1378652,00000192,false,Rx,0,4,6A,00,80,F1,00,00,00,00,
1378853,00000130,false,Rx,0,5,45,43,39,BF,9C,00,00,00,
1380241,000000A8,false,Rx,0,8,9D,43,FF,83,F9,1F,0F,06,
1380435,000000A9,false,Rx,0,8,BF,03,98,2F,1E,B2,80,F9,
1380730,000000AA,false,Rx,0,8,3A,23,1B,00,36,02,81,97,
1381655,000001B4,false,Rx,0,8,00,10,E2,F4,55,02,8A,7F,
1382039,00000310,false,Rx,0,7,74,1E,FB,73,00,1F,18,00,
1383248,000000C4,false,Rx,0,7,00,80,FD,00,80,41,FF,00,
1385565,000000BA,false,Rx,0,7,03,FF,0F,00,00,58,8B,00,
1385765,000000B5,false,Rx,0,8,B0,07,80,00,08,00,30,3B,
1385867,000001A2,false,Rx,0,2,00,00,00,00,00,00,00,00,
1390162,000000A8,false,Rx,0,8,9E,44,FF,83,F9,1F,0F,06,
1390446,000000A9,false,Rx,0,8,C0,04,98,2F,1E,B2,80,F9,
1390643,000001B5,false,Rx,0,6,FF,FF,02,00,C8,FF,00,00,
1390936,000000AA,false,Rx,0,8,3B,24,1B,00,36,02,81,97,
1392977,000000C4,false,Rx,0,7,00,80,FD,00,80,69,FF,00,
1394644,000000B6,false,Rx,0,5,31,01,80,00,F8,00,00,00,
1394845,0000019E,false,Rx,0,8,00,69,6F,04,32,40,00,EE,
1395129,000000CE,false,Rx,0,8,00,00,00,00,00,00,00,00,
1395231,000000CA,false,Rx,0,2,01,6F,00,00,00,00,00,00,
1395424,000000AE,false,Rx,0,6,14,43,06,91,80,0A,00,00,
1395719,000000B5,false,Rx,0,8,B1,08,80,00,08,00,30,3B,
1395912,000000CB,false,Rx,0,6,00,6F,01,00,09,00,00,00,
1396106,000002B2,false,Rx,0,6,09,09,07,07,F5,FF,00,00,
1396299,000001A0,false,Rx,0,8,00,B0,FF,0F,00,FE,1F,7F,
1400742,000000A8,false,Rx,0,8,9F,45,FF,83,F9,1F,0F,06,
1400935,000000A9,false,Rx,0,8,C1,05,98,2F,1E,B2,80,F9,
1401220,000000AA,false,Rx,0,8,3C,25,1B,00,36,02,81,97,
1402905,000000C4,false,Rx,0,7,00,80,FD,00,80,91,FF,00,
1405401,000000BA,false,Rx,0,7,03,FF,0F,00,00,59,8C,00,
1405595,000000B5,false,Rx,0,8,B2,09,80,00,08,00,30,3B,
1405795,000001A2,false,Rx,0,2,00,00,00,00,00,00,00,00,
1409109,00000192,false,Rx,0,4,6A,00,80,F2,00,00,00,00,
1410229,000000A8,false,Rx,0,8,A0,46,FF,83,F9,1F,0F,06,
1410515,000000A9,false,Rx,0,8,C2,06,98,2F,1E,B2,80,F9,
1410715,000000AA,false,Rx,0,8,3D,26,1B,00,36,02,81,97,
1412955,000000C4,false,Rx,0,7,00,80,FD,00,80,B9,FF,00,
1414629,000000B6,false,Rx,0,5,32,02,80,00,F8,00,00,00,
1414921,0000019E,false,Rx,0,8,00,69,6F,04,32,40,00,EE,
1415114,000000CE,false,Rx,0,8,00,00,00,00,00,00,00,00,
1415306,000000CA,false,Rx,0,2,00,70,00,00,00,00,00,00,
1415499,000000AE,false,Rx,0,6,15,44,06,91,80,0A,00,00,
1415692,000000B5,false,Rx,0,8,B3,0A,80,00,08,00,30,3B,
1415892,000000CB,false,Rx,0,6,01,70,80,FF,08,00,00,00,
1416084,000002B2,false,Rx,0,6,09,09,07,07,15,00,00,00,
1416368,000001A0,false,Rx,0,8,00,B0,00,00,00,FE,2F,80,
1418866,00000194,false,Rx,0,4,78,FA,80,FC,00,00,00,00,
1420252,000000A8,false,Rx,0,8,A1,47,FF,83,F9,1F,0F,06,
1420445,000000A9,false,Rx,0,8,C3,07,98,2F,1E,B2,80,F9,
1420741,000000AA,false,Rx,0,8,3E,27,1B,00,36,02,81,97,
1422957,000000C4,false,Rx,0,7,00,80,FD,00,80,E1,FF,00,
1425371,000000BA,false,Rx,0,7,03,FF,0F,00,00,5A,8D,00,
1425658,000000B5,false,Rx,0,8,B4,0B,80,00,08,00,30,3B,
1425767,000001A2,false,Rx,0,2,00,00,00,00,00,00,00,00,
1430184,000000A8,false,Rx,0,8,A2,48,FF,83,F9,1F,0F,06,
1430468,000000A9,false,Rx,0,8,C4,08,98,2F,1E,B2,80,F9,
1430763,000000AA,false,Rx,0,8,3F,28,1B,00,36,02,81,97,
1432977,000000C4,false,Rx,0,7,00,80,FD,00,80,09,FF,00,
1434741,000000B6,false,Rx,0,5,33,03,80,00,F8,00,00,00,
1435025,0000019E,false,Rx,0,8,00,69,6F,04,32,40,00,EE,
1435218,000000CE,false,Rx,0,8,00,00,00,00,00,00,00,00,
1435500,000000AE,false,Rx,0,6,17,45,06,91,80,0B,00,00,
1435693,000000B5,false,Rx,0,8,B5,0C,80,00,08,00,30,3B,
1435801,000000CA,false,Rx,0,2,01,71,00,00,00,00,00,00,
1436085,00000200,false,Rx,0,8,00,80,FC,04,00,00,00,00,
1436278,000002B2,false,Rx,0,6,09,09,07,07,15,00,00,00,
1436563,000001A0,false,Rx,0,8,00,B0,FF,0F,00,FE,3F,9F,
1436764,000000CB,false,Rx,0,6,00,71,00,00,08,00,00,00,
1436957,00000492,false,Rx,0,8,18,42,FF,01,00,00,02,04,
1437977,00000192,false,Rx,0,4,6A,00,80,F3,00,00,00,00,
1440191,000000A8,false,Rx,0,8,A3,49,FF,83,F9,1F,0F,06,
1440475,000000A9,false,Rx,0,8,C5,09,98,2F,1E,B2,80,F9,
1440768,000000AA,false,Rx,0,8,40,29,1B,00,36,02,81,97,
1442984,000000C4,false,Rx,0,7,00,80,FD,00,80,31,FF,00,
1445475,000000BA,false,Rx,0,7,03,FF,0F,00,00,5B,8E,00,
1445769,000000B5,false,Rx,0,8,B6,0D,80,00,08,00,30,3B,
1445870,000001A2,false,Rx,0,2,00,00,00,00,00,00,00,00,
1450217,000000A8,false,Rx,0,8,A4,4A,FF,83,F9,1F,0F,06,
1450502,000000A9,false,Rx,0,8,C6,0A,98,2F,1E,B2,80,F9,
1450695,000000AA,false,Rx,0,8,41,2A,1B,00,36,02,81,97,
1453007,000000C4,false,Rx,0,7,00,80,FD,00,80,59,FF,00,
1454669,000000B6,false,Rx,0,5,34,04,80,00,F8,00,00,00,
1454870,0000019E,false,Rx,0,8,00,69,6F,04,32,40,00,EE,
1455154,000000CE,false,Rx,0,8,00,00,00,00,00,00,00,00,
1455255,000000CA,false,Rx,0,2,00,72,00,00,00,00,00,00,
1455446,000000AE,false,Rx,0,6,18,46,06,91,80,0B,00,00,
1455741,000000B5,false,Rx,0,8,B7,0E,80,00,08,00,30,3B,
1455934,000000CB,false,Rx,0,6,03,72,82,00,08,00,00,00,
1456126,000002B2,false,Rx,0,6,09,09,07,07,05,00,00,00,
1456410,000001A0,false,Rx,0,8,00,B0,FF,0F,00,FE,4F,AF,
1460044,000001D0,false,Rx,0,8,FF,3F,61,CB,36,00,FD,C8,
1460275,000000A8,false,Rx,0,8,A5,4B,FF,83,F9,1F,0F,06,
1460576,000000A9,false,Rx,0,8,C7,0B,98,2F,1E,B2,80,F9,
1460917,000000AA,false,Rx,0,8,42,2B,1B,00,36,02,81,97,
1463232,000000C4,false,Rx,0,7,00,80,FD,00,80,81,FF,00,
1465364,000000BA,false,Rx,0,7,03,FF,0F,00,00,4D,80,00,
1465559,000000B5,false,Rx,0,8,A9,00,80,00,08,00,30,3B,
1465760,000001A2,false,Rx,0,2,00,00,00,00,00,00,00,00,
1465861,00000192,false,Rx,0,4,6A,00,80,F4,00,00,00,00,
1470202,000000A8,false,Rx,0,8,A6,4C,FF,83,F9,1F,0F,06,
1470486,000000A9,false,Rx,0,8,C8,0C,98,2F,1E,B2,80,F9,
1470681,000000AA,false,Rx,0,8,43,2C,1B,00,36,02,81,97,
1473004,000000C4,false,Rx,0,7,00,80,FD,00,80,A9,FF,00,
1474859,000000B6,false,Rx,0,5,35,05,80,00,F8,00,00,00,
1475052,0000019E,false,Rx,0,8,00,69,6F,04,32,40,00,EE,
1475336,000000AE,false,Rx,0,6,19,47,06,91,80,0B,00,00,
1475532,000000CE,false,Rx,0,8,00,00,00,00,00,00,00,00,
1475634,000000CA,false,Rx,0,2,01,73,00,00,00,00,00,00,
1475834,000001A6,false,Rx,0,2,00,00,00,00,00,00,00,00,
1476028,000002B2,false,Rx,0,6,09,09,07,07,05,00,00,00,
1476221,000000B5,false,Rx,0,8,AA,01,80,00,08,00,30,3B,
1476414,000000CB,false,Rx,0,6,00,73,00,00,09,00,00,00,
1476711,000001A0,false,Rx,0,8,00,B0,00,00,00,FE,5F,B0,
1479573,00000130,false,Rx,0,5,45,43,39,BF,AD,00,00,00,
1480230,000000A8,false,Rx,0,8,A7,4D,FF,83,F9,1F,0F,06,
1480520,000000A9,false,Rx,0,8,C9,0D,98,2F,1E,B2,80,F9,
1480721,000000AA,false,Rx,0,8,44,2D,1B,00,36,02,81,97,
1481839,000001B4,false,Rx,0,8,00,10,E2,F5,55,02,8A,80,
1482957,000000C4,false,Rx,0,7,00,80,FD,00,80,D1,FF,00,
1485455,000000BA,false,Rx,0,7,03,FF,0F,00,00,4E,81,00,
1485748,000000B5,false,Rx,0,8,AB,02,80,00,08,00,30,3B,
1485849,000001A2,false,Rx,0,2,00,00,00,00,00,00,00,00,
1490193,000000A8,false,Rx,0,8,A8,4E,FF,83,F9,1F,0F,06,
1490486,000000A9,false,Rx,0,8,CA,0E,98,2F,1E,B2,80,F9,
1490708,000000AA,false,Rx,0,8,45,2E,1B,00,36,02,81,97,
1492949,000000C4,false,Rx,0,7,00,80,FD,00,80,F9,FF,00,
1494617,000000B6,false,Rx,0,5,36,06,80,00,F8,00,00,00,
1494910,0000019E,false,Rx,0,8,00,69,6F,04,32,40,00,EE,
1495102,000000CE,false,Rx,0,8,00,00,00,00,00,00,00,00,
1495387,000000B5,false,Rx,0,8,AC,03,80,00,08,00,30,3B,
1495585,000000AE,false,Rx,0,6,1A,48,06,91,80,0B,00,00,
1495686,000000CA,false,Rx,0,2,00,74,00,00,00,00,00,00,
1495885,000002B2,false,Rx,0,6,09,09,07,07,05,00,00,00,
1496169,000001A0,false,Rx,0,8,00,B0,FF,0F,00,FE,6F,CF,
1496454,000000CB,false,Rx,0,6,01,74,80,FF,09,00,00,00,
1496649,00000192,false,Rx,0,4,6A,00,80,F5,00,00,00,00,
1500167,000000A8,false,Rx,0,8,9A,40,FF,83,F9,1F,0F,06,
1500452,000000A9,false,Rx,0,8,BC,00,98,2F,1E,B2,80,F9,
1500749,000000AA,false,Rx,0,8,37,20,1B,00,36,02,81,97,
1502983,000000C4,false,Rx,0,7,00,80,FD,00,80,21,FF,00,
1505297,000000BA,false,Rx,0,7,03,FF,0F,00,00,4F,82,00,
1505585,000000B5,false,Rx,0,8,AD,04,80,00,08,00,30,3B,
1505686,000001A2,false,Rx,0,2,00,00,00,00,00,00,00,00,
1510894,000000A8,false,Rx,0,8,9B,41,FF,83,F9,1F,0F,06,
1510998,000000A9,false,Rx,0,8,BD,01,98,2F,1E,B2,80,F9,
1511100,000000AA,false,Rx,0,8,35,21,1B,00,33,02,81,97,
1513176,000000C4,false,Rx,0,7,00,80,FD,00,80,49,FF,00,
1514664,000000B6,false,Rx,0,5,37,07,80,00,F8,00,00,00,
1514864,0000019E,false,Rx,0,8,00,69,6F,04,32,40,00,EE,
1515148,000000CE,false,Rx,0,8,00,00,00,00,00,00,00,00,
1515250,000000CA,false,Rx,0,2,01,75,00,00,00,00,00,00,
1515725,000000AE,false,Rx,0,6,1B,49,06,91,80,0B,00,00,
1515918,000000B5,false,Rx,0,8,AE,05,80,00,08,00,30,3B,
1516111,000000CB,false,Rx,0,6,00,75,00,00,08,00,00,00,
1516302,000002B2,false,Rx,0,6,09,09,07,07,05,00,00,00,
1516590,000001A0,false,Rx,0,8,00,B0,00,00,00,FE,7F,D0,
1520190,000000A8,false,Rx,0,8,9C,42,FF,83,F9,1F,0F,06,
1520474,000000A9,false,Rx,0,8,BE,02,98,2F,1E,B2,80,F9,
1520768,000000AA,false,Rx,0,8,36,22,1B,00,33,02,81,97,
1523623,000000C4,false,Rx,0,7,00,80,FD,00,80,72,FF,00,
1525380,000000BA,false,Rx,0,7,03,FF,0F,00,00,50,83,00,
1525666,000000B5,false,Rx,0,8,AF,06,80,00,08,00,30,3B,
1525774,00000192,false,Rx,0,4,6A,00,80,F6,00,00,00,00,
1525966,000001A2,false,Rx,0,2,00,00,00,00,00,00,00,00,
1530209,000000A8,false,Rx,0,8,9D,43,FF,83,F9,1F,0F,06,
1530493,000000A9,false,Rx,0,8,BF,03,98,2F,1E,B2,80,F9,
1530687,000000AA,false,Rx,0,8,37,23,1B,00,33,02,81,97,
1533742,000000C4,false,Rx,0,7,00,80,FD,00,80,9B,FF,00,
1534762,000000B6,false,Rx,0,5,38,08,80,00,F8,00,00,00,
1535046,0000019E,false,Rx,0,8,00,69,6F,04,32,40,00,EE,
1535238,000000CE,false,Rx,0,8,00,00,00,00,00,00,00,00,
1535526,000000B5,false,Rx,0,8,B0,07,80,00,08,00,30,3B,
1535727,000000AE,false,Rx,0,6,1C,4A,06,91,80,0B,00,00,
1535828,000000CA,false,Rx,0,2,00,76,00,00,00,00,00,00,
1536020,000002B2,false,Rx,0,6,09,09,07,07,05,00,00,00,
1536304,000001A0,false,Rx,0,8,00,B0,FF,0F,00,FE,8F,EF,
1536498,00000498,false,Rx,0,8,29,42,FF,FF,FF,FF,FF,FF,
1536790,000000CB,false,Rx,0,6,03,76,81,00,08,00,00,00,
1537347,000005AA,false,Rx,0,8,40,38,00,05,FF,FF,FF,FF,
1540208,000000A8,false,Rx,0,8,9E,44,FF,83,F9,1F,0F,06,
1540492,000000A9,false,Rx,0,8,C0,04,98,2F,1E,B2,80,F9,
1540686,000000AA,false,Rx,0,8,38,24,1B,00,33,02,81,97,
1542910,000000C4,false,Rx,0,7,00,80,FD,00,80,C1,FF,00,
1545306,000000BA,false,Rx,0,7,03,FF,0F,00,00,51,84,00,
1545873,000000B5,false,Rx,0,8,B1,08,80,00,08,00,30,3B,
1545974,000001A2,false,Rx,0,2,00,00,00,00,00,00,00,00,
1550215,000000A8,false,Rx,0,8,9F,45,FF,83,F9,1F,0F,06,
1550499,000000A9,false,Rx,0,8,C1,05,98,2F,1E,B2,80,F9,
1550692,000000AA,false,Rx,0,8,39,25,1B,00,33,02,81,97,
1553008,000000C4,false,Rx,0,7,00,80,FD,00,80,E9,FF,00,
1554669,000000B6,false,Rx,0,5,39,09,80,00,F8,00,00,00,
1554870,0000019E,false,Rx,0,8,00,69,6F,04,32,40,00,EE,
1555153,000000CE,false,Rx,0,8,00,00,00,00,00,00,00,00,
1555346,000000B5,false,Rx,0,8,B2,09,80,00,08,00,30,3B,
1555541,000000CA,false,Rx,0,2,01,77,00,00,00,00,00,00,
1555741,000000AE,false,Rx,0,6,1D,4B,06,91,80,0B,00,00,
1555933,000002B2,false,Rx,0,6,09,09,07,07,05,00,00,00,
1556034,00000192,false,Rx,0,4,6A,00,80,F7,00,00,00,00,
1556225,000000CB,false,Rx,0,6,00,77,01,00,08,00,00,00,
1556512,000001A0,false,Rx,0,8,00,B0,FF,0F,00,FE,9F,FF,
1560032,000001D0,false,Rx,0,8,FF,3F,62,CB,36,00,FD,C8,
1560315,000000A8,false,Rx,0,8,A0,46,FF,83,F9,1F,0F,06,
1560509,000000A9,false,Rx,0,8,C2,06,98,2F,1E,B2,80,F9,
1560801,000000AA,false,Rx,0,8,3A,26,1B,00,33,02,81,97,
1563347,000000C4,false,Rx,0,7,00,80,FD,00,80,11,FF,00,
1565400,000000BA,false,Rx,0,7,03,FF,0F,00,00,52,85,00,
1565596,000000B5,false,Rx,0,8,B3,0A,80,00,08,00,30,3B,
1565796,000001A2,false,Rx,0,2,00,00,00,00,00,00,00,00,
1570230,000000A8,false,Rx,0,8,A1,47,FF,83,F9,1F,0F,06,
1570424,000000A9,false,Rx,0,8,C3,07,98,2F,1E,B2,80,F9,
1570718,000000AA,false,Rx,0,8,3B,27,1B,00,33,02,81,97,
1573217,000000C4,false,Rx,0,7,00,80,FD,00,80,39,FF,00,
1574700,000000B6,false,Rx,0,5,3A,0A,80,00,F8,00,00,00,
1574901,0000019E,false,Rx,0,8,00,69,7F,04,32,40,00,FE,
1575186,000000CE,false,Rx,0,8,00,00,00,00,00,00,00,00,
1575288,000000CA,false,Rx,0,2,00,78,00,00,00,00,00,00,
1575574,000000B5,false,Rx,0,8,B4,0B,80,00,08,00,30,3B,
1575776,000000AE,false,Rx,0,6,1E,4C,06,91,80,0B,00,00,
1575969,000000CB,false,Rx,0,6,01,78,80,FF,08,00,00,00,
1576071,000001A6,false,Rx,0,2,00,00,00,00,00,00,00,00,
1576264,000001D2,false,Rx,0,5,E1,0C,8F,8D,F0,00,00,00,
1576457,000002B2,false,Rx,0,6,09,09,07,07,15,00,00,00,
1576655,000001A0,false,Rx,0,8,00,B0,00,00,00,FE,AF,00,
1578605,00000130,false,Rx,0,5,45,43,39,BF,CE,00,00,00,
1580186,000000A8,false,Rx,0,8,A2,48,FF,83,F9,1F,0F,06,
1580471,000000A9,false,Rx,0,8,C4,08,98,2F,1E,B2,80,F9,
1580667,000001B4,false,Rx,0,8,00,10,E2,F6,55,02,8A,81,
1580960,000000AA,false,Rx,0,8,3C,28,1B,00,33,02,81,97,
1583742,000000C4,false,Rx,0,7,00,80,FD,00,80,63,FF,00,
1584117,00000192,false,Rx,0,4,6A,00,80,F8,00,00,00,00,
1585600,000000B5,false,Rx,0,8,B5,0C,80,00,08,00,30,3B,
1585893,000000BA,false,Rx,0,7,03,FF,0F,00,00,53,86,00,
1585994,000001A2,false,Rx,0,2,00,00,00,00,00,00,00,00,
1590154,000000A8,false,Rx,0,8,A3,49,FF,83,F9,1F,0F,06,
1590439,000000A9,false,Rx,0,8,C5,09,98,2F,1E,B2,80,F9,
1590735,000000AA,false,Rx,0,8,3D,29,1B,00,33,02,81,97,
1592983,000000C4,false,Rx,0,7,00,80,FD,00,80,89,FF,00,
1594667,000000B6,false,Rx,0,5,3B,0B,80,00,F8,00,00,00,
1594869,0000019E,false,Rx,0,8,00,69,7F,04,32,40,00,FE,
1595154,000000CE,false,Rx,0,8,00,00,00,00,00,00,00,00,
1595255,000000CA,false,Rx,0,2,01,79,00,00,00,00,00,00,
1595448,000000B5,false,Rx,0,8,B6,0D,80,00,08,00,30,3B,
1595742,000000AE,false,Rx,0,6,1F,4D,06,91,80,0B,00,00,
1595935,000000CB,false,Rx,0,6,00,79,FF,FF,08,00,00,00,
1596128,000002B2,false,Rx,0,6,09,09,07,07,15,00,00,00,
1596322,000001A0,false,Rx,0,8,00,B0,FF,0F,00,FE,BF,20,
1600207,000000A8,false,Rx,0,8,A4,4A,FF,83,F9,1F,0F,06,
1600491,000000A9,false,Rx,0,8,C6,0A,98,2F,1E,B2,80,F9,
1600686,000000AA,false,Rx,0,8,3E,2A,1B,00,33,02,81,97,
1603009,000000C4,false,Rx,0,7,00,80,FD,00,80,B1,FF,00,
1605424,000000BA,false,Rx,0,7,03,FF,0F,00,00,54,87,00,
1605620,000000B5,false,Rx,0,8,B7,0E,80,00,08,00,30,3B,
1605729,000001A2,false,Rx,0,2,00,00,00,00,00,00,00,00,
1610163,000000A8,false,Rx,0,8,A5,4B,FF,83,F9,1F,0F,06,
1610448,000000A9,false,Rx,0,8,C7,0B,98,2F,1E,B2,80,F9,
